"Freq [GHz]","im(S(1,1)) []","im(S(1,2)) []","im(S(1,3)) []","im(S(1,4)) []","im(S(2,1)) []","im(S(2,2)) []","im(S(2,3)) []","im(S(2,4)) []","im(S(3,1)) []","im(S(3,2)) []","im(S(3,3)) []","im(S(3,4)) []","im(S(4,1)) []","im(S(4,2)) []","im(S(4,3)) []","im(S(4,4)) []"
3,-0.432499433364536,0.301262708988491,-0.418520678799957,-0.264352559769352,0.301262708988491,-0.0602652458290396,-0.265603816482869,-0.68565652352993,-0.418520678799958,-0.265603816482869,-0.430904188106449,0.303623493225443,-0.264352559769352,-0.68565652352993,0.303623493225442,-0.0607753144579118
3.1,-0.397459407229017,0.242832159040511,-0.47930252722032,-0.250190493689056,0.242832159040528,-0.091096634397811,-0.251222562744641,-0.69914565844541,-0.479302527220319,-0.251222562744623,-0.39538022510922,0.245590685567341,-0.250190493689065,-0.699145658445401,0.245590685567352,-0.0916400133433846
3.2,-0.359669245022927,0.177357828891392,-0.536119160840846,-0.224447918250051,0.177357828891406,-0.119370870991345,-0.225097917375132,-0.700747646749824,-0.536119160840843,-0.225097917375107,-0.356978168772173,0.180512224671234,-0.22444791825006,-0.700747646749816,0.18051222467124,-0.120051029642136
3.3,-0.320966416525587,0.105098437077115,-0.586438800980535,-0.186864911247494,0.10509843707712,-0.141591198406671,-0.186959396684592,-0.691302752697582,-0.586438800980532,-0.186959396684574,-0.317537086500399,0.108630243177447,-0.186864911247497,-0.69130275269758,0.108630243177446,-0.142540184270846
3.4,-0.284493377048918,0.0268197265559877,-0.626509898531747,-0.137751769086828,0.0268197265559866,-0.153872964193576,-0.137118205786063,-0.6721548174821,-0.626509898531745,-0.137118205786058,-0.280223295577048,0.0306743251382661,-0.137751769086828,-0.672154817482103,0.030674325138264,-0.155261333572175
3.5,-0.255228146949894,-0.0556063131473911,-0.650847731834275,-0.0785053381005655,-0.0556063131473897,-0.152446483774726,-0.0769934014665386,-0.645035747657545,-0.650847731834275,-0.0769934014665412,-0.250078148449465,-0.0515451480117006,-0.0785053381005674,-0.645035747657548,-0.0515451480116957,-0.154486640168278
3.6,-0.240255036856788,-0.138209815380924,-0.651989406406211,-0.0124885898710888,-0.138209815380914,-0.134356857825985,-0.0100116153089231,-0.611605362846321,-0.651989406406213,-0.0100116153089224,-0.234310608708927,-0.134145228539003,-0.0124885898710957,-0.611605362846318,-0.134145228538989,-0.137276884389273
3.7,-0.247905229800225,-0.213754593915614,-0.621378452970374,0.0538905905280983,-0.213754593915599,-0.0984774271994448,0.0572863370087372,-0.572385837384397,-0.621378452970377,0.0572863370087461,-0.241452221294234,-0.209986046142913,0.0538905905280891,-0.572385837384389,-0.209986046142898,-0.102439207603731
3.8,-0.284391907319207,-0.271465103076866,-0.552720903607827,0.110842187870259,-0.271465103076857,-0.0469714587840716,0.11489751382472,-0.525097515674739,-0.552720903607831,0.114897513824728,-0.277966898570613,-0.268354881541395,0.110842187870253,-0.525097515674735,-0.268354881541391,-0.0519351383394041
3.9,-0.347649978388931,-0.299697341561801,-0.448081824909632,0.147538219093261,-0.299697341561801,0.0133419025437689,0.151761428841263,-0.463454685348633,-0.448081824909635,0.151761428841258,-0.341984178087815,-0.297571618727405,0.14753821909326,-0.463454685348638,-0.297571618727412,0.00773294007403622
4,-0.422533144384416,-0.292285548465275,-0.322656633004866,0.158074699282246,-0.292285548465275,0.0718534724643292,0.161874954807413,-0.378755905475241,-0.322656633004868,0.1618749548074,-0.41832864119596,-0.291292575859923,0.158074699282243,-0.378755905475247,-0.29129257585993,0.0662431884105662
4.1,-0.48492031746328,-0.254057814608787,-0.20078044493557,0.146956867793031,-0.25405781460878,0.119051066370529,0.149898247118916,-0.265174620772945,-0.200780444935571,0.149898247118908,-0.482549249532036,-0.254075366842755,0.146956867793026,-0.265174620772944,-0.254075366842755,0.114169082260409
4.2,-0.5145360331081,-0.198817775039841,-0.103216131946345,0.127251670840049,-0.198817775039835,0.151741474409904,0.129224204435142,-0.124774879821371,-0.103216131946345,0.129224204435141,-0.513893782458457,-0.199501516672059,0.127251670840046,-0.124774879821366,-0.199501516672058,0.148160364615491
4.3,-0.504473477387144,-0.141193108864965,-0.0375369948584331,0.112295448190219,-0.141193108864966,0.172347999269046,0.113471394635732,0.0326261313893053,-0.0375369948584321,0.11347139463573,-0.50509574109186,-0.14214206483365,0.11229544819022,0.0326261313893083,-0.142142064833653,0.170344055223652
4.4,-0.459942185085346,-0.090621511121474,0.000702465034057779,0.109306732726493,-0.0906215111214786,0.183581884689554,0.109967719019989,0.193451553609627,0.000702465034058696,0.109967719019984,-0.461252592906679,-0.0915440776232604,0.109306732726496,0.193451553609627,-0.0915440776232643,0.183151903918369
4.5,-0.391570619658499,-0.05101261361221,0.0211092928698909,0.118664471240271,-0.0510126136122112,0.184413015851756,0.119031614722623,0.343584027736104,0.0211092928698909,0.119031614722621,-0.393085950736273,-0.0518173351242037,0.118664471240272,0.343584027736105,-0.0518173351242059,0.185392275844032
4.6,-0.310278738295672,-0.0233629206501953,0.0330196548299288,0.136082912888912,-0.023362920650196,0.169356975635853,0.136203737517645,0.469442504084256,0.0330196548299278,0.136203737517644,-0.311718705657813,-0.0241792511544275,0.136082912888914,0.469442504084256,-0.0241792511544304,0.171537030604709
4.7,-0.225313066418116,-0.00812163259471736,0.0432873365614287,0.154903169298384,-0.00812163259472423,0.130814359744872,0.154615770793487,0.559333088126391,0.0432873365614277,0.154615770793479,-0.226639718212564,-0.00927142541581217,0.154903169298388,0.559333088126389,-0.00927142541581708,0.134009378392332
4.8,-0.143995820879095,-0.0056441193120948,0.0561527095642031,0.168405544746273,-0.00564411931210177,0.0655827830945864,0.167413533806839,0.608487773149818,0.0561527095642031,0.167413533806833,-0.145398251632647,-0.00754318602811313,0.168405544746273,0.608487773149817,-0.00754318602811416,0.0696593504562146
4.9,-0.0716309834567707,-0.0143833974179812,0.0741256566427529,0.172852317268452,-0.0143833974179782,-0.0166456754903744,0.170904670591939,0.626201129879906,0.0741256566427543,0.170904670591943,-0.0734375194608999,-0.0173528467087295,0.17285231726845,0.626201129879907,-0.0173528467087276,-0.0117557860415265
5,-0.0110591680477271,-0.0296247498165812,0.0990111018837186,0.169179557579933,-0.0296247498165777,-0.0959737454925782,0.166225111403449,0.632274380767347,0.0990111018837205,0.166225111403452,-0.0136030872774777,-0.0337375314647523,0.169179557579937,0.632274380767344,-0.0337375314647577,-0.0903076609992593
5.1,0.0372189307825071,-0.0465121295436097,0.131868629887589,0.160183480396424,-0.0465121295436124,-0.160101905083566,0.156354493692439,0.638871733789071,0.13186862988759,0.156354493692434,0.0336753359331866,-0.0516443364351931,0.160183480396429,0.638871733789066,-0.0516443364352014,-0.153741084145696
5.2,0.0740910965437275,-0.0637323842904245,0.172038647212357,0.1468381486698,-0.0637323842904239,-0.212231454857312,0.142338556920458,0.642291427978909,0.172038647212357,0.142338556920458,0.0693624792344084,-0.0697045652246544,0.146838148669799,0.642291427978907,-0.0697045652246547,-0.205349057177353
5.3,0.101398129070347,-0.0829448380311977,0.216863150907329,0.128602490771826,-0.0829448380311888,-0.261027209868656,0.123673819513048,0.633042990327155,0.216863150907328,0.123673819513055,0.0953873347335245,-0.0895709926073446,0.128602490771821,0.633042990327156,-0.089570992607338,-0.253888947821929
5.4,0.121945644121437,-0.106353008218451,0.26243383599847,0.10538446164999,-0.106353008218441,-0.311428324304718,0.100336894559353,0.60536676140737,0.262433835998468,0.100336894559359,0.114670487335938,-0.113422861691946,0.105384461649987,0.605366761407368,-0.113422861691941,-0.304353174732537
5.5,0.139121427907703,-0.135316855389647,0.304605295279584,0.0782346273452775,-0.135316855389642,-0.36329811910131,0.0734432461607615,0.558810804132351,0.304605295279581,0.0734432461607625,0.130724701283884,-0.142589033345052,0.0782346273452759,0.558810804132346,-0.142589033345051,-0.35658860856941
5.6,0.156183356829288,-0.170030174884868,0.339845857561163,0.0489325519189223,-0.170030174884868,-0.413480230481797,0.0447794804444661,0.496350604158787,0.339845857561161,0.0447794804444645,0.146908438484837,-0.177255084882626,0.0489325519189201,0.496350604158783,-0.177255084882626,-0.407351175351527
5.7,0.175629805977451,-0.209649051819298,0.365796037886665,0.0193619384778649,-0.209649051819297,-0.457905470549847,0.0161656836907661,0.422435424874544,0.365796037886664,0.0161656836907672,0.165770023910173,-0.216604484531107,0.0193619384778599,0.422435424874544,-0.216604484531102,-0.45244002379081
5.8,0.198879792888059,-0.252579921647115,0.381465230412851,-0.00890975587547954,-0.25257992164711,-0.492892185333922,-0.010941042430283,0.341725022729696,0.381465230412851,-0.0109410424302769,0.188722452812114,-0.259098184156543,-0.00890975587548693,0.341725022729698,-0.259098184156534,-0.488035039196697
5.9,0.226275030017691,-0.296817515109371,0.387086980442056,-0.0347983002754621,-0.296817515109363,-0.515711581366194,-0.0355793281606678,0.258406339721755,0.387086980442056,-0.0355793281606589,0.21605854059782,-0.302792703918592,-0.0347983002754698,0.258406339721759,-0.302792703918583,-0.511290845678032
6,0.257298108271707,-0.340258358710642,0.383758720279871,-0.0576954255743855,-0.340258358710636,-0.524680268039517,-0.057250111839784,0.175888209990685,0.383758720279871,-0.0572501118397772,0.247190663501062,-0.345634586135646,-0.0576954255743911,0.175888209990687,-0.345634586135642,-0.520442686347575
6.1,0.290876931695796,-0.380932303681818,0.373027518341694,-0.0773773685902852,-0.38093230368182,-0.519027847053374,-0.0758123661046042,0.0967262526681006,0.373027518341693,-0.0758123661046042,0.280975647664093,-0.385681303584526,-0.0773773685902866,0.0967262526680935,-0.385681303584529,-0.514675441411529
6.2,0.325677488629126,-0.417127930420359,0.356541955389444,-0.0938921624131654,-0.417127930420368,-0.498715658221672,-0.0913683805595751,0.0226791353134324,0.356541955389442,-0.0913683805595842,0.316021579645837,-0.421225475991049,-0.0938921624131624,0.0226791353134194,-0.421225475991059,-0.493939133276048
6.3,0.360334156121487,-0.44742348025782,0.335820368601006,-0.107458702645932,-0.447423480257831,-0.464302023734914,-0.104166973337034,-0.0451697909422444,0.335820368601005,-0.104166973337049,0.350924665675927,-0.450830751930239,-0.107458702645926,-0.0451697909422615,-0.450830751930247,-0.458811961932343
6.4,0.393604306849749,-0.470656633720244,0.312130990464898,-0.118389562593018,-0.470656633720248,-0.416882560500993,-0.114532783476825,-0.106268190069452,0.312130990464899,-0.114532783476838,0.384424359194925,-0.473308622901517,-0.118389562593012,-0.106268190069468,-0.47330862290152,-0.410441422647881
6.5,0.424455245749405,-0.485870815337533,0.286453869411383,-0.12703806866326,-0.485870815337529,-0.358088238951688,-0.122819917197315,-0.160453100232315,0.286453869411388,-0.122819917197312,0.415487054643151,-0.487671260567505,-0.127038068663256,-0.160453100232318,-0.487671260567507,-0.350544536641373
