"Freq [GHz]","re(S(1,1)) []","re(S(1,2)) []","re(S(1,3)) []","re(S(1,4)) []","re(S(2,1)) []","re(S(2,2)) []","re(S(2,3)) []","re(S(2,4)) []","re(S(3,1)) []","re(S(3,2)) []","re(S(3,3)) []","re(S(3,4)) []","re(S(4,1)) []","re(S(4,2)) []","re(S(4,3)) []","re(S(4,4)) []"
3,0.0376748628791157,-0.0155326990822458,0.542773766415663,0.164572349510361,-0.0155326990822468,0.0431334869378799,-0.163958934519067,-0.818673601241168,0.542773766415662,-0.163958934519066,0.0435234000947198,0.0189082564400759,0.164572349510362,-0.818673601241165,0.0189082564400767,0.0469368438791056
3.1,-0.096533830688766,-0.11996285129037,0.495727795580713,0.186021606520029,-0.119962851290373,0.106043759546954,-0.18676433272817,-0.718543860434898,0.495727795580715,-0.186764332728174,-0.0914667194270117,0.123415594720946,0.186021606520033,-0.718543860434902,0.12341559472095,0.110416167654461
3.2,-0.198324984406629,-0.235546905661372,0.447681420974673,0.171880649810968,-0.235546905661374,0.167653149805487,-0.173541156262732,-0.56349326731702,0.447681420974673,-0.173541156262735,-0.19367539220022,0.239101862685971,0.171880649810971,-0.563493267317023,0.239101862685971,0.171673331757895
3.3,-0.272903002364021,-0.346446824519409,0.399059159285056,0.12664921966018,-0.34644682451941,0.209908780844035,-0.128921320459729,-0.377135657651304,0.399059159285057,-0.128921320459731,-0.268347629688412,0.349969596433323,0.126649219660182,-0.377135657651306,0.349969596433324,0.212571893558622
3.4,-0.326784525520491,-0.44236293645501,0.347132658804563,0.058633189859477,-0.44236293645501,0.215958142101294,-0.0613260543735322,-0.175664448107217,0.347132658804564,-0.0613260543735323,-0.322127842419445,0.445489961672604,0.058633189859479,-0.175664448107217,0.445489961672605,0.216277707092308
3.5,-0.363146296708684,-0.514534223857405,0.28636696446961,-0.0264996608437907,-0.514534223857404,0.176575105937829,0.0235618179215036,0.02872457660766,0.28636696446961,0.023561817921506,-0.358339139910684,0.516584900105766,-0.0264996608437919,0.0287245766076634,0.516584900105764,0.173490037904743
3.6,-0.379530129891514,-0.552832615729376,0.206051633369246,-0.122922997048261,-0.552832615729373,0.0929004866834272,0.120055522130838,0.223799150595407,0.206051633369246,0.120055522130841,-0.374824024066431,0.55270138777147,-0.122922997048262,0.223799150595414,0.552701387771471,0.0854077851298735
3.7,-0.362608223940613,-0.543771033542421,0.0844320398638872,-0.216165196349962,-0.543771033542419,-0.0198016818273926,0.214205712306286,0.395639955605966,0.0844320398638932,0.214205712306285,-0.359078842069564,0.539722570570379,-0.216165196349954,0.395639955605969,0.539722570570386,-0.0318774671479376
3.8,-0.281312071732908,-0.462707898188941,-0.11663579445641,-0.267308923900543,-0.462707898188937,-0.118019666630646,0.268392784662851,0.535615795569827,-0.116635794456403,0.268392784662849,-0.282066844971658,0.452514080896417,-0.267308923900532,0.535615795569821,0.452514080896414,-0.132587918795847
3.9,-0.12920469049291,-0.27383139966931,-0.401711262778276,-0.211901519199683,-0.273831399669308,-0.115199784083145,0.219083234544911,0.66086046447823,-0.401711262778278,0.219083234544913,-0.139911602305472,0.257597831325049,-0.211901519199683,0.660860464478233,0.257597831325055,-0.126929390415301
4,-0.0894166652939608,-0.0729873890261079,-0.576241409244788,-0.101909605782989,-0.0729873890261084,0.0306297686787706,0.112470340813505,0.76548801639109,-0.576241409244776,0.112470340813504,-0.110362827473606,0.0570437923536057,-0.101909605782981,0.765488016391088,0.0570437923535988,0.0229217529802519
4.1,-0.265461597986078,-0.0480453663051265,-0.516879647980894,-0.0938386399889443,-0.048045366305128,0.183747661290341,0.100110378645949,0.722986357439405,-0.516879647980895,0.100110378645949,-0.287196132763377,0.0366227468000656,-0.0938386399889458,0.722986357439404,0.0366227468000665,0.17435328581361
4.2,-0.451776000683102,-0.141379670141625,-0.404767945813399,-0.119408236688653,-0.141379670141627,0.277771457311844,0.120045459896969,0.544838565698133,-0.404767945813387,0.120045459896969,-0.470085633832354,0.132570824258712,-0.11940823668865,0.544838565698134,0.132570824258712,0.267599360552552
4.3,-0.563857948416702,-0.256613176883509,-0.31814857650519,-0.109226135983256,-0.256613176883505,0.326714500720582,0.106200919052864,0.324785244609773,-0.318148576505187,0.106200919052867,-0.579268857366751,0.249219038427158,-0.109226135983254,0.324785244609774,0.249219038427154,0.319976857165008
4.4,-0.61364909114517,-0.35723826496075,-0.250132900342116,-0.0643142871795556,-0.357238264960747,0.330366453846464,0.0594139267651488,0.112197903387217,-0.250132900342109,0.0594139267651548,-0.62727485510949,0.351553623582383,-0.0643142871795559,0.112197903387222,0.351553623582389,0.330671598615347
4.5,-0.622156416428636,-0.430624269144647,-0.192384983199295,-0.00106394462476014,-0.430624269144649,0.289468850700736,-0.00461255603551318,-0.0729041886172993,-0.192384983199268,-0.0046125560355091,-0.634842097014155,0.427598095721503,-0.00106394462475579,-0.072904188617292,0.427598095721512,0.298472179178858
4.6,-0.60420642799367,-0.469082612712222,-0.140664900135279,0.0667453424452771,-0.469082612712227,0.208630303665011,-0.0725807556871568,-0.225329265845509,-0.14066490013526,-0.0725807556871567,-0.616320146026433,0.470134080036452,0.0667453424452868,-0.225329265845505,0.470134080036455,0.226557592848886
4.7,-0.570346541283611,-0.464799757901649,-0.0892521313408597,0.129543087521989,-0.464799757901651,0.097793369037386,-0.135097630921214,-0.347702879575023,-0.0892521313408587,-0.135097630921215,-0.581483955857251,0.47184344410574,0.129543087521994,-0.347702879575025,0.471843444105739,0.12359166343762
4.8,-0.531319013362388,-0.410845673090253,-0.0312909404156876,0.180552008010782,-0.410845673090253,-0.021211677996887,-0.185200381165322,-0.446032165556819,-0.0312909404156832,-0.185200381165319,-0.539835930802761,0.425885275814317,0.180552008010778,-0.446032165556818,0.425885275814323,0.00910067854072922
4.9,-0.502226409876869,-0.307782247547287,0.0387860546526416,0.214977845198566,-0.307782247547291,-0.111092310660006,-0.217503346606144,-0.525439915410515,0.0387860546526581,-0.217503346606137,-0.504870124549572,0.33152510669553,0.214977845198568,-0.525439915410508,0.331525106695545,-0.0828317952626982
5,-0.501291112240195,-0.174654228171876,0.122360858585415,0.230446774254779,-0.174654228171885,-0.132723634582225,-0.229059390072467,-0.582138151733981,0.122360858585428,-0.22905939007246,-0.494007458058157,0.204620281819673,0.230446774254799,-0.58213815173397,0.204620281819682,-0.114085583468699
5.1,-0.535381991601373,-0.0523939922213352,0.213505314570754,0.225651844549567,-0.0523939922213403,-0.0733225532382803,-0.219438906196135,-0.592076285113565,0.213505314570756,-0.219438906196133,-0.516112472010936,0.0830055092190787,0.225651844549576,-0.592076285113559,0.0830055092190757,-0.0680242897617277
5.2,-0.583481531535004,0.0173296479311294,0.298349727752826,0.19331543792311,0.0173296479311292,0.0422822879900046,-0.183729883765185,-0.520454357704251,0.298349727752827,-0.183729883765186,-0.554100389114437,0.00843779265533116,0.19331543792311,-0.52045435770425,0.00843779265532899,0.0359855290060947
5.3,-0.610451460382599,0.0225845475410538,0.360524051327107,0.124237131405186,0.0225845475410535,0.169090562800006,-0.114059797763936,-0.365660521308213,0.360524051327112,-0.114059797763937,-0.575033904931773,-0.0047597841215909,0.124237131405189,-0.365660521308213,-0.00475978412158973,0.155590419706129
5.4,-0.598821627695282,-0.018128353314983,0.389219447862319,0.027594913846705,-0.0181283533149809,0.262653061104361,-0.0198362794577417,-0.167214785095619,0.38921944786232,-0.0198362794577437,-0.561751072201625,0.0268415967008945,0.0275949138467049,-0.167214785095621,0.0268415967008949,0.246498707377701
5.5,-0.558847564672899,-0.079570244612805,0.38035912577355,-0.0688885415889326,-0.079570244612801,0.290871656523815,0.0716376948030771,0.0333418899924276,0.380359125773552,0.0716376948030728,-0.524504882240637,0.0794329647957793,-0.0688885415889304,0.0333418899924083,0.0794329647957831,0.275706919822515
5.6,-0.516656348547779,-0.144104495693707,0.331906752772037,-0.137024751959582,-0.144104495693705,0.244059456727316,0.133681725647364,0.210435004957903,0.331906752772038,0.133681725647364,-0.488852902212031,0.136812235388805,-0.137024751959582,0.210435004957894,0.136812235388809,0.23129907334437
5.7,-0.491794825605784,-0.198750213818493,0.246235093510377,-0.166671513637951,-0.198750213818488,0.138936845758474,0.15872413409393,0.356095353973333,0.246235093510373,0.158724134093931,-0.472594679908422,0.186892654157101,-0.166671513637952,0.356095353973148,0.186892654157097,0.127411712437247
5.8,-0.482914512404703,-0.228395565216887,0.138394322219167,-0.169702144707141,-0.228395565216884,0.00668453886150601,0.160373186252483,0.451525177857083,0.13839432221917,0.160373186252477,-0.471682374250346,0.214360620317276,-0.169702144707142,0.451525177857223,0.214360620317275,-0.00529976279370586
5.9,-0.476873484696546,-0.21933721964572,0.0302439206536263,-0.164857217942347,-0.219337219645725,-0.124691130979822,0.156980221130794,0.502068427510515,0.0302439206536338,0.156980221130786,-0.471114644556517,0.204414077504106,-0.164857217942347,0.502068427510578,0.204414077504115,-0.137331413014172
6,-0.463132018347036,-0.16894318379706,-0.0651862416731587,-0.163180877543803,-0.16894318379706,-0.237050854904961,0.158175432115946,0.513320438079478,-0.0651862416731562,0.158175432115946,-0.460768855356673,0.153365203251465,-0.163180877543801,0.513320438079486,0.15336520325147,-0.249004491670829
6.1,-0.439483499088214,-0.0849308984638154,-0.147128265868273,-0.166146150978031,-0.0849308984637997,-0.317706499676415,0.164317719077879,0.486574342097692,-0.147128265868274,0.164317719077886,-0.439764382169803,0.0686935187992286,-0.166146150978024,0.486574342097694,0.0686935187992215,-0.326953398225225
6.2,-0.412058651125393,0.0223871140536962,-0.220862726478316,-0.169138343522827,0.0223871140537061,-0.352149175205198,0.170262529872882,0.418491456265885,-0.220862726478311,0.17026252987289,-0.414517399654185,-0.038931800400209,-0.169138343522825,0.418491456265893,-0.0389318004002175,-0.356561384020015
6.3,-0.387169628169123,0.140963411836669,-0.292404876439483,-0.162390673457308,0.140963411836662,-0.319922353326388,0.166035121834256,0.299234093135566,-0.29240487643948,0.166035121834265,-0.392124380373262,-0.156945967124075,-0.162390673457315,0.299234093135547,-0.156945967124079,-0.317651906856145
6.4,-0.364061109586741,0.248920605589473,-0.36493719689829,-0.127547734415554,0.24892060558948,-0.201540000849005,0.133008520736182,0.118684854330561,-0.364937196898313,0.133008520736213,-0.372305120676146,-0.262482469725917,-0.127547734415526,0.11868485433049,-0.262482469725965,-0.191981258680098
6.5,-0.339718055839764,0.311885804258228,-0.431853685923353,-0.0370284581751027,0.311885804258235,-0.0121051312218194,0.0428449867303766,-0.106323600516342,-0.431853685923408,0.0428449867304379,-0.350382834518785,-0.319801365799067,-0.0370284581749369,-0.106323600516385,-0.319801365799281,0.00257801424522053
