"Freq [GHz]","re(S(1,1)) []","re(S(1,2)) []","re(S(1,3)) []","re(S(1,4)) []","re(S(2,1)) []","re(S(2,2)) []","re(S(2,3)) []","re(S(2,4)) []","re(S(3,1)) []","re(S(3,2)) []","re(S(3,3)) []","re(S(3,4)) []","re(S(4,1)) []","re(S(4,2)) []","re(S(4,3)) []","re(S(4,4)) []"
3,0.104904494034027,0.338086321691391,-0.189101296455662,-0.205882369869565,0.338086321691391,-0.112785756345727,-0.205284699168216,-0.268319577799339,-0.189101296455663,-0.205284699168216,0.108575330453118,0.345775671079363,-0.205882369869567,-0.26831957779934,0.345775671079364,-0.105728962630406
3.1,0.194044647741659,0.232484187005491,-0.387738043972397,-0.158301107574455,0.232484187005492,-0.113879758105038,-0.153419914238876,-0.426013865828455,-0.387738043972398,-0.153419914238877,0.204686366542025,0.243338680652291,-0.158301107574464,-0.426013865828453,0.243338680652297,-0.108328542028184
3.2,0.231670799464543,0.124438619121295,-0.534918894511431,-0.105744517178047,0.1244386191213,-0.0918688546374323,-0.0965262130589264,-0.587201864517904,-0.534918894511433,-0.0965262130589222,0.249146636275227,0.137567778151183,-0.105744517178057,-0.587201864517904,0.137567778151188,-0.0885903048605605
3.3,0.195817027991192,0.0434810432620165,-0.605436504797282,-0.0725980876894005,0.043481043262021,-0.0598173491676794,-0.0605015938145926,-0.730082318713576,-0.605436504797281,-0.0605015938145905,0.218163246102439,0.0575472652084478,-0.0725980876894042,-0.730082318713575,0.0575472652084487,-0.0583716937138743
3.4,0.0986816510292145,0.00358204154690644,-0.608290011354329,-0.0679589374423395,0.00358204154690714,-0.0285295545404664,-0.0552216189093928,-0.834386163310383,-0.608290011354327,-0.0552216189093939,0.123174965584088,0.0174052574931335,-0.0679589374423399,-0.83438616331038,0.0174052574931327,-0.0275525492667118
3.5,-0.029960978517609,0.00185715744029687,-0.570453282540573,-0.0842912004530495,0.00185715744029716,0.000627730474528246,-0.0729300328361467,-0.889723243320252,-0.570453282540573,-0.0729300328361455,-0.00564176062067045,0.0147502868055485,-0.0842912004530504,-0.88972324332025,0.0147502868055505,0.00257144179876845
3.6,-0.163532881832073,0.0281716155430882,-0.515991234667588,-0.107887225734462,0.0281716155430897,0.0320915548533508,-0.0992256457096696,-0.894815549772819,-0.515991234667589,-0.0992256457096654,-0.140849676827206,0.0398974230379303,-0.107887225734463,-0.89481554977282,0.0398974230379342,0.0359114816561476
3.7,-0.285807109497916,0.073092791388984,-0.458818418963351,-0.12702573626033,0.0730927913889854,0.0710709590420353,-0.121693187202552,-0.85337904158251,-0.458818418963352,-0.121693187202549,-0.265443411998385,0.0836552842542324,-0.12702573626033,-0.85337904158251,0.0836552842542338,0.0769718066478804
3.8,-0.389013717764826,0.130112637552921,-0.404856603066198,-0.134466082286429,0.130112637552921,0.120302147105974,-0.132559299383217,-0.771721391844596,-0.404856603066197,-0.132559299383219,-0.371109351635613,0.13959413269036,-0.13446608228643,-0.771721391844594,0.139594132690359,0.12784050195657
3.9,-0.470328416345952,0.194457401844217,-0.355887252378259,-0.127087244780648,0.194457401844216,0.178550453092171,-0.128341462815477,-0.658101577225002,-0.355887252378259,-0.12834146281548,-0.454685039817365,0.202917175240547,-0.127087244780648,-0.658101577225,0.202917175240546,0.186785679185662
4,-0.529463326671048,0.261860292887204,-0.312143658293538,-0.104884943580703,0.261860292887203,0.24085825419223,-0.108826006519857,-0.522493848086416,-0.312143658293539,-0.108826006519858,-0.515692399097489,0.26925245294761,-0.104884943580702,-0.522493848086415,0.269252452947609,0.248533494554023
4.1,-0.567458129574393,0.328198412012106,-0.273545661268501,-0.0700689193094422,0.328198412012107,0.299987155456421,-0.0761435347357554,-0.376061434968619,-0.273545661268501,-0.0761435347357518,-0.555092671261088,0.334335961015822,-0.0700689193094402,-0.376061434968618,0.334335961015821,0.305724041979446
4.2,-0.58623228260024,0.389260025137753,-0.240118976615035,-0.0263694018934368,0.389260025137755,0.347834296928501,-0.0340451353255079,-0.230307912094718,-0.240118976615034,-0.0340451353255028,-0.574824589526223,0.393810365898119,-0.0263694018934336,-0.230307912094718,0.393810365898117,0.350331364186755
4.3,-0.588560574914742,0.440487470284936,-0.212010976555894,0.0214819166762849,0.440487470284937,0.376219089594754,0.01265619223846,-0.096047419634863,-0.212010976555892,0.0126561922384621,-0.57777295945878,0.442979081209466,0.0214819166762872,-0.0960474196348627,0.442979081209464,0.37443430694176
4.4,-0.57824842078704,0.477122283340518,-0.189294684426028,0.0681945809635616,0.477122283340518,0.377867750642372,0.0585712313623446,0.0178786869435652,-0.189294684426026,0.0585712313623421,-0.567922167366768,0.476999597650182,0.0681945809635601,0.0178786869435631,0.476999597650183,0.371180996699082
4.5,-0.560251433080624,0.495138420179831,-0.171617857339366,0.108542615061637,0.495138420179831,0.348964758848997,0.0984035767383588,0.106480517855398,-0.171617857339365,0.0984035767383553,-0.550419061364363,0.491914503762553,0.108542615061631,0.106480517855393,0.491914503762554,0.337329111588293
4.6,-0.540347046461004,0.492869398584873,-0.157742916361112,0.138570527314749,0.492869398584875,0.29274369817986,0.128203118328598,0.171038512889611,-0.157742916361112,0.128203118328599,-0.531161147318592,0.48634383663182,0.138570527314744,0.171038512889609,0.48634383663182,0.276779718015771
4.7,-0.52400634313277,0.472375988658992,-0.145156286688662,0.157330510610052,0.472375988658996,0.22021663121913,0.147104678558125,0.220199466322992,-0.145156286688662,0.147104678558128,-0.515623066026706,0.462754721464179,0.157330510610054,0.220199466322997,0.462754721464176,0.201109187464469
4.8,-0.514723093969988,0.439125855058373,-0.130132347609265,0.167676461211867,0.439125855058375,0.145101824018953,0.15800485867299,0.266442028610068,-0.130132347609263,0.158004858672992,-0.507252814543028,0.426887610155979,0.167676461211875,0.266442028610082,0.426887610155975,0.124233931337404
4.9,-0.512930820471566,0.399617462001384,-0.108612544832973,0.174337861834731,0.399617462001383,0.0768955427650625,0.165515914100289,0.318450266948389,-0.10861254483297,0.165515914100287,-0.506522630707968,0.385209835791944,0.174337861834739,0.318450266948404,0.385209835791941,0.0554382709549172
5,-0.516487150890796,0.358524880190636,-0.0776752547908089,0.180594946507209,0.358524880190632,0.018302583501824,0.172744312161115,0.376386984340816,-0.0776752547908066,0.172744312161112,-0.511456945700533,0.342154702460718,0.180594946507213,0.376386984340826,0.342154702460716,-0.00295027871718708
5.1,-0.522265861404459,0.317356620656442,-0.0366300146820725,0.186875582700582,0.31735662065644,-0.0326096423778738,0.180082621240616,0.434217072319486,-0.0366300146820719,0.180082621240614,-0.519128692689166,0.299003262785051,0.186875582700582,0.434217072319489,0.29900326278505,-0.053141376685682
5.2,-0.52751103817409,0.275057328420525,0.013073859251844,0.19173355182084,0.275057328420525,-0.0790550125101229,0.186210245952783,0.484781885535999,0.013073859251844,0.186210245952782,-0.526897164607533,0.25460730896081,0.191733551820839,0.484781885536,0.254607308960809,-0.0984276399392998
5.3,-0.530263997601422,0.229547084613154,0.0688733292026796,0.193263342988927,0.229547084613155,-0.123147832424695,0.189403424982854,0.522741372530511,0.068873329202681,0.189403424982853,-0.532803319916641,0.206909026865013,0.193263342988927,0.522741372530512,0.206909026865012,-0.140831569718889
5.4,-0.529154039132276,0.179101300287736,0.12815835739523,0.189820793962532,0.179101300287736,-0.164706497424661,0.188170841545357,0.544960563488707,0.128158357395234,0.188170841545357,-0.53541428096873,0.154260423005512,0.189820793962533,0.54496056348871,0.154260423005511,-0.17996498054127
5.5,-0.523118735244548,0.12308327772098,0.188812353737054,0.180138594093698,0.123083277720977,-0.200975776462356,0.181338612276579,0.5498519761131,0.188812353737058,0.18133861227658,-0.533627211210203,0.0961312823194728,0.180138594093699,0.549851976113104,0.0961312823194722,-0.212792178636597
5.6,-0.511370179860187,0.0620523245721054,0.249230541215585,0.1632027995237,0.0620523245721009,-0.227224152523552,0.167921675991482,0.53670289822879,0.249230541215588,0.167921675991484,-0.526681110469491,0.0332345450186958,0.1632027995237,0.536702898228793,0.033234545018696,-0.234271362609191
5.7,-0.493597098980913,-0.00250495385950802,0.308051808993522,0.138114789919906,-0.00250495385951192,-0.238155493200778,0.146978093665985,0.505303480892594,0.308051808993521,0.146978093665988,-0.514320109103914,-0.0327108979183311,0.138114789919904,0.505303480892596,-0.0327108979183308,-0.238859771071562
5.8,-0.470198164160958,-0.068535057411668,0.363790512852992,0.104038351486369,-0.0685350574116699,-0.229621277236339,0.117530471404327,0.455876507108991,0.36379051285299,0.117530471404331,-0.49692277589314,-0.0993168149273643,0.104038351486368,0.45587650710899,-0.0993168149273643,-0.222378408237491
5.9,-0.442345814411797,-0.133636524933016,0.414452823006529,0.0602958807341839,-0.133636524933017,-0.199766764681734,0.0786103057088191,0.389234476957117,0.414452823006526,0.0786103057088244,-0.475474921345226,-0.163733508714617,0.0602958807341843,0.389234476957114,-0.163733508714617,-0.183298504410523
6,-0.411844355033224,-0.194992194920392,0.457176451944208,0.00669299015203723,-0.194992194920394,-0.149109767363485,0.0295049577053823,0.307076140768514,0.457176451944205,0.0295049577053874,-0.451407624018896,-0.22258531729223,0.00669299015204044,0.30707614076851,-0.222585317292229,-0.122868322365277
6.1,-0.380926941935062,-0.248985024907995,0.487960307993394,-0.0558381046242919,-0.248985024908001,-0.0799493105506195,-0.0296771460024697,0.212310468647263,0.487960307993391,-0.0296771460024653,-0.426418506573008,-0.271628580741166,-0.0558381046242866,0.21231046864726,-0.271628580741162,-0.0445099255987161
6.2,-0.352217662043255,-0.290684176372288,0.501644024732041,-0.124272805784528,-0.290684176372295,0.00380553321562255,-0.097036955299512,0.109256291883075,0.501644024732032,-0.0970369552995079,-0.402406345073328,-0.3053926392668,-0.124272805784524,0.109256291883073,-0.305392639266794,0.0463041589512152
6.3,-0.329104306310705,-0.313852255986969,0.492422086336455,-0.192532017000839,-0.313852255986974,0.0950833574330297,-0.167679170485028,0.00354582281393593,0.492422086336436,-0.167679170485024,-0.381642095625794,-0.317563748475837,-0.192532017000839,0.00354582281393662,-0.317563748475834,0.14040084271878
6.4,-0.316841865358582,-0.312702133977198,0.455212596831995,-0.251444150348296,-0.312702133977198,0.179396607974672,-0.233063937659068,-0.098386276069031,0.455212596831971,-0.233063937659064,-0.367390045514073,-0.303320629197841,-0.251444150348299,-0.0983862760690293,-0.303320629197843,0.220991549787708
6.5,-0.324537784160838,-0.286023979649709,0.387902884063638,-0.29082520673975,-0.286023979649706,0.229788636186058,-0.282336235992908,-0.1901926100396,0.387902884063633,-0.282336235992909,-0.365589025725576,-0.26375796198356,-0.290825206739748,-0.190192610039598,-0.263757961983564,0.260491732386466
