"Freq [GHz]","re(S(1,1)) []","re(S(1,2)) []","re(S(1,3)) []","re(S(1,4)) []","re(S(2,1)) []","re(S(2,2)) []","re(S(2,3)) []","re(S(2,4)) []","re(S(3,1)) []","re(S(3,2)) []","re(S(3,3)) []","re(S(3,4)) []","re(S(4,1)) []","re(S(4,2)) []","re(S(4,3)) []","re(S(4,4)) []"
3,-0.228952322837611,-0.394161336513978,-0.415055517002511,-0.0190223868272609,-0.394161336513975,0.0977156372754957,0.0168775509953408,0.062463012270525,-0.415055517002512,0.0168775509953451,-0.232437405450702,0.393167141794739,-0.0190223868272566,0.0624630122705242,0.393167141794733,0.0986290719619327
3.1,-0.301230621582744,-0.428415734999905,-0.315155370511335,0.143561309773361,-0.428415734999896,-0.0382194625505194,-0.146297314919013,-0.270663168593185,-0.315155370511339,-0.146297314919001,-0.304651188715518,0.428190268508435,0.143561309773372,-0.270663168593191,0.428190268508432,-0.0360160002873862
3.2,-0.203628030639661,-0.322772626947704,-0.00274718429855124,0.235546539482266,-0.322772626947696,-0.145888213657211,-0.236018408365319,-0.587030231236054,-0.00274718429855178,-0.236018408365325,-0.204159386894402,0.325046448364311,0.23554653948226,-0.587030231236052,0.325046448364305,-0.144324761018305
3.3,0.118403414268951,-0.045660634304503,0.545924082723986,0.112787567517025,-0.0456606343045035,-0.0357712809274423,-0.108624217937356,-0.849618251066434,0.545924082723987,-0.10862421793736,0.124386238007554,0.0502595132108623,0.112787567517027,-0.849618251066431,0.0502595132108585,-0.0374246055057078
3.4,-0.0229723637672243,-0.0727211076502386,0.578022891831473,0.141240493841485,-0.0727211076502432,0.0886374002300648,-0.139411188478106,-0.781121514839445,0.578022891831473,-0.139411188478107,-0.0176115264719463,0.076184889372989,0.141240493841488,-0.781121514839442,0.0761848893729868,0.0885211913532485
3.5,-0.221942513088354,-0.235462269095252,0.473149208020903,0.165093211904035,-0.235462269095267,0.19620476364284,-0.165836503412336,-0.510801841550922,0.473149208020898,-0.165836503412329,-0.218241864491872,0.238333846291742,0.16509321190404,-0.510801841550925,0.238333846291758,0.196868379485463
3.6,-0.337261179815392,-0.386641568511925,0.387165066747259,0.113238984016397,-0.386641568511942,0.25361669954695,-0.115427344676186,-0.20342293090049,0.387165066747259,-0.115427344676182,-0.334111791716471,0.38924269463336,0.113238984016402,-0.20342293090049,0.389242694633364,0.253165647854518
3.7,-0.402233592814139,-0.490563969739948,0.306549848964617,0.0139699044325286,-0.490563969739945,0.21619676183023,-0.0170464000606907,0.0915729952931585,0.306549848964615,-0.0170464000606867,-0.398946101916857,0.492556347886691,0.0139699044325284,0.0915729952931567,0.492556347886708,0.213390712971814
3.8,-0.436875785494833,-0.529961317653223,0.20702649271471,-0.113197116282776,-0.529961317653276,0.0845035487688502,0.109866251788108,0.361036727846273,0.207026492714706,0.109866251788116,-0.433242080690139,0.530261031050209,-0.113197116282769,0.361036727846269,0.530261031050276,0.0787678410554253
3.9,-0.419305885036507,-0.475368735466169,0.0351827089382353,-0.232495551214788,-0.475368735466122,-0.0818032560309994,0.231182911094787,0.584128610683118,0.0351827089382325,0.23118291109479,-0.416509510170056,0.471302971016054,-0.232495551214799,0.584128610683127,0.471302971016077,-0.0886038693050089
4,-0.257137846831292,-0.267309918197513,-0.312237512464389,-0.216223022734036,-0.267309918197513,-0.105530885998514,0.222917406834373,0.742104830184576,-0.312237512464391,0.222917406834375,-0.260865753226673,0.255889752511869,-0.216223022734038,0.742104830184577,0.255889752511868,-0.105018146477118
4.1,-0.197534584022036,-0.0721167372448453,-0.550341384204964,-0.106280767824052,-0.072116737244863,0.116585724596828,0.11494417994382,0.739398761341734,-0.550341384204961,0.114944179943822,-0.208123161617141,0.0625729120870861,-0.106280767824054,0.73939876134173,0.0625729120871156,0.121828187061959
4.2,-0.409807614039022,-0.190364850575905,-0.442579988868374,-0.123853514453612,-0.190364850576009,0.286149730042262,0.124652357029725,0.409996087829926,-0.442579988868369,0.124652357029727,-0.416956398302201,0.186730850518865,-0.123853514453652,0.409996087829955,0.186730850518846,0.286371858210745
4.3,-0.535589461568534,-0.353736088065649,-0.329213322495481,-0.0839311278855412,-0.353736088065646,0.344089073057768,0.081121501295481,0.0489584122624229,-0.329213322495482,0.0811215012954799,-0.539738567916604,0.352357288670791,-0.0839311278855415,0.0489584122624234,0.352357288670771,0.344638660045253
4.4,-0.577668236474403,-0.454340576226434,-0.238634038017246,-0.000190944906239137,-0.454340576226493,0.277046561088844,-0.00348976012542519,-0.217139202538419,-0.238634038017241,-0.00348976012543571,-0.580445818028507,0.454423000169011,-0.000190944906242163,-0.217139202538419,0.454423000169056,0.28027431238523
4.5,-0.580618930370509,-0.480181790625319,-0.151695859203395,0.0930011531782611,-0.480181790625328,0.119240003529238,-0.0965098941836137,-0.405562006946428,-0.151695859203398,-0.0965098941836025,-0.58260215177931,0.481873066513201,0.0930011531782528,-0.405562006946417,0.481873066513202,0.124469352048412
4.6,-0.561273486712,-0.415858586153348,-0.0453431600557603,0.17889480366193,-0.41585858615335,-0.0540999488831432,-0.181395904248888,-0.548464381927753,-0.0453431600557616,-0.181395904248887,-0.56226014464769,0.419584191651601,0.178894803661936,-0.548464381927751,0.419584191651625,-0.0489877571291295
4.7,-0.525366242036208,-0.258745002019188,0.109381734304445,0.22719809003055,-0.258745002019092,-0.121225987971168,-0.227455109734504,-0.644704070305196,0.109381734304447,-0.227455109734503,-0.524096305173249,0.264295911798371,0.227198090030549,-0.644704070305203,0.264295911798296,-0.119225049657501
4.8,-0.501778568894287,-0.0683480037606395,0.297836227561269,0.200582494732948,-0.0683480037606362,0.0334062686569455,-0.19872119138221,-0.602690067805504,0.297836227561269,-0.198721191382215,-0.497220256508025,0.073527979483517,0.200582494732951,-0.602690067805528,0.0735279794835201,0.0321699707954342
4.9,-0.540593649213924,-0.044631774714704,0.396637544290517,0.126690173935884,-0.0446317747147065,0.267543092236247,-0.125544771141458,-0.333908871204584,0.396637544290517,-0.12554477114146,-0.534989690257472,0.0479263500804581,0.126690173935888,-0.333908871204587,0.0479263500804614,0.266248440789656
5,-0.586826069415158,-0.174647700847006,0.370683351565383,0.0382243193370814,-0.174647700847002,0.335564157053285,-0.0378740805963219,0.0147338947438769,0.370683351565385,-0.0378740805963258,-0.581890318911321,0.177072510105344,0.0382243193370878,0.0147338947438727,0.177072510105349,0.332906608224759
5.1,-0.594438780797358,-0.290856722320189,0.293631932693655,-0.0427327224181498,-0.290856722320191,0.239773971269781,0.0431460207780341,0.264039623432315,0.293631932693656,0.0431460207780342,-0.589861884904194,0.292403592467426,-0.0427327224181468,0.264039623432311,0.292403592467426,0.234846553106989
5.2,-0.578314447874089,-0.331809646141481,0.207269301178747,-0.107176328945471,-0.331809646141482,0.0856212684948045,0.107593645648061,0.431696152831672,0.207269301178748,0.10759364564806,-0.573965474498587,0.331739109886814,-0.10717632894547,0.431696152831669,0.331739109886813,0.079000496803886
5.3,-0.556234711822295,-0.29758723526143,0.114048771734162,-0.16040220720884,-0.29758723526143,-0.0605883461617694,0.160648887361101,0.545863343883796,0.114048771734163,0.1606488873611,-0.552446092939518,0.295069033512601,-0.160402207208839,0.545863343883795,0.2950690335126,-0.0682404407561126
5.4,-0.539706506089468,-0.197383294146881,-0.000760068203813549,-0.206794351920656,-0.197383294146882,-0.157279427742992,0.207134735937521,0.596626756539149,-0.000760068203814682,0.207134735937521,-0.537424005213129,0.191690767732666,-0.206794351920656,0.596626756539148,0.191690767732666,-0.164694558201838
5.5,-0.533942960159395,-0.054823821850597,-0.155681225295944,-0.229801532595031,-0.0548238218505992,-0.146644727560746,0.231115040046632,0.526915011985194,-0.155681225295945,0.231115040046626,-0.535116882532902,0.0461143896083657,-0.22980153259503,0.526915011985192,0.0461143896083691,-0.150769403648752
5.6,-0.522750068489336,0.0566281982488071,-0.340431016697182,-0.171952098846173,0.0566281982488072,0.0233736150761805,0.17481575875206,0.275033666565065,-0.340431016697182,0.174815758752057,-0.529698220285863,-0.0652179745030525,-0.171952098846169,0.275033666565068,-0.065217974503055,0.0259918562084665
5.7,-0.470333252705492,0.0500909108996267,-0.469918991693204,-0.00896369555076821,0.050090910899624,0.230673514716007,0.0105958901137346,-0.0827096289192091,-0.469918991693203,0.0105958901137341,-0.481566509974324,-0.0527370755847254,-0.00896369555076785,-0.0827096289192068,-0.0527370755847273,0.237270661221315
5.8,-0.428000345275314,-0.0600477480732406,-0.440263375151075,0.120026614658422,-0.0600477480732405,0.22780928804276,-0.122876526288555,-0.369441330075781,-0.440263375151077,-0.122876526288555,-0.437033528716288,0.0640949122827862,0.120026614658422,-0.36944133007578,0.0640949122827871,0.23297771693994
5.9,-0.454021636328028,-0.170707818176193,-0.276257931140454,0.141798145750495,-0.170707818176199,0.0388546029330883,-0.146486253570293,-0.525783934253783,-0.276257931140454,-0.146486253570299,-0.457920294637128,0.176547806369776,0.141798145750493,-0.525783934253776,0.176547806369768,0.0435688008602727
6,-0.479116337654962,-0.183568409164756,-0.106541800876561,0.143083176669788,-0.183568409164754,-0.159557068915982,-0.14643368847858,-0.556479574584125,-0.106541800876568,-0.14643368847858,-0.479969831061732,0.188597824851459,0.143083176669785,-0.556479574584119,0.188597824851457,-0.154947819673591
6.1,-0.469764608406321,-0.0996692353310017,0.0264154427508163,0.162351303933677,-0.0996692353309984,-0.292097913756274,-0.16373565458907,-0.503009524408011,0.0264154427508148,-0.163735654589056,-0.469584717985364,0.103692799538818,0.162351303933669,-0.503009524408008,0.103692799538819,-0.289127588799183
6.2,-0.443620384877396,0.0418784660341893,0.148107401853267,0.187097863593506,0.0418784660341989,-0.328069846019456,-0.186694238478637,-0.375210742377256,0.148107401853269,-0.186694238478643,-0.443279694637007,-0.0387118686573513,0.187097863593485,-0.375210742377248,-0.0387118686573717,-0.327588132554277
6.3,-0.413650722091802,0.192896054475987,0.287771197230161,0.179435830554118,0.192896054476004,-0.220497825205933,-0.177442056895372,-0.143428119819002,0.287771197230146,-0.177442056895396,-0.413494926455806,-0.190631082999407,0.179435830554124,-0.143428119818982,-0.19063108299941,-0.221743781426011
6.4,-0.370323196966579,0.27231224625389,0.44019737028622,0.0664285550506917,0.272312246253881,0.0281209866482684,-0.0635154744982375,0.191063820752078,0.440197370286221,-0.0635154744982347,-0.370674651859056,-0.270821041436186,0.0664285550506878,0.191063820752072,-0.270821041436189,0.0280712029839802
6.5,-0.287765765005143,0.219241391549199,0.506538656720153,-0.143492984178387,0.219241391549199,0.177287892837039,0.14591203309163,0.441986267045818,0.506538656720154,0.145912033091629,-0.289306509896688,-0.21746705703744,-0.143492984178389,0.441986267045821,-0.21746705703744,0.180738496711561
