"Freq [GHz]","im(S(1,1)) []","im(S(1,2)) []","im(S(1,3)) []","im(S(1,4)) []","im(S(2,1)) []","im(S(2,2)) []","im(S(2,3)) []","im(S(2,4)) []","im(S(3,1)) []","im(S(3,2)) []","im(S(3,3)) []","im(S(3,4)) []","im(S(4,1)) []","im(S(4,2)) []","im(S(4,3)) []","im(S(4,4)) []"
3,0.0160346263012616,-0.0059807809970946,0.947097623447428,0.0203487387861914,-0.00598078099709507,0.0542367425581049,-0.0205004436367273,-0.62272297534143,0.947097623447426,-0.020500443636727,0.00546792123863188,0.00579218831309485,0.0203487387861915,-0.622722975341434,0.00579218831309483,0.0522666728816455
3.1,-0.0182941723423435,-0.0195678509873916,0.86970191772284,0.0334599143529057,-0.0195678509873929,0.0391347181627597,-0.0335239587544186,-0.467789484193275,0.869701917722844,-0.0335239587544204,-0.027852528084817,0.0193002275339858,0.0334599143529059,-0.467789484193274,0.0193002275339847,0.0375742441161142
3.2,-0.0805421997722775,-0.0344852124533365,0.753150755390941,0.0472201905928613,-0.0344852124533371,0.0193463758054503,-0.0471861259568951,-0.293312557839533,0.753150755390944,-0.0471861259568948,-0.0886986945140736,0.0341411920161111,0.04722019059286,-0.293312557839529,0.0341411920161089,0.018329767007401
3.3,-0.160484261697527,-0.0484305084935814,0.607685156655649,0.0595071296051159,-0.0484305084935811,-0.00220032376787201,-0.0593746924800613,-0.107323760489018,0.60768515665565,-0.0593746924800636,-0.166981632462561,0.0480272588925202,0.0595071296051164,-0.107323760489014,0.0480272588925182,-0.0025636306833171
3.4,-0.246657099479066,-0.0591364516285892,0.445353044112833,0.0680882000818372,-0.0591364516285888,-0.0231264265624562,-0.0678693923749552,0.0816888928418961,0.445353044112834,-0.0678693923749594,-0.251370063337678,0.0587050830826903,0.0680882000818371,0.0816888928418988,0.0587050830826893,-0.0227660790340727
3.5,-0.328126973345515,-0.0647683706042877,0.277860926721507,0.0711560833620699,-0.0647683706042881,-0.0414571063313633,-0.0708727057479595,0.264751092875627,0.277860926721509,-0.0708727057479556,-0.3310490795164,0.0643503232862265,0.0711560833620717,0.264751092875628,0.0643503232862264,-0.0403499358353555
3.6,-0.395943618890548,-0.0641228909089212,0.11490129316515,0.0676576236998124,-0.0641228909089225,-0.0555061257323821,-0.067336200639846,0.432517183265587,0.114901293165153,-0.0673362006398422,-0.397162558216479,0.0637649739512382,0.0676576236998142,0.432517183265586,0.0637649739512383,-0.0536815912761757
3.7,-0.444069915487093,-0.0566862794389578,-0.036733837404313,0.0573721184279616,-0.0566862794389593,-0.0638668484504932,-0.0570393334211139,0.575703224498541,-0.0367338374043105,-0.0570393334211098,-0.443733253078987,0.0564356065383085,0.0573721184279632,0.57570322449854,0.0564356065383083,-0.0614106759935471
3.8,-0.469628572124309,-0.0426596839069085,-0.173262558239471,0.0408746585638095,-0.0426596839069094,-0.0655525932896205,-0.0405548865179617,0.685925241241251,-0.173262558239472,-0.0405548865179601,-0.467907800818567,0.0425586334870894,0.0408746585638097,0.685925241241251,0.0425586334870888,-0.0626067689605324
3.9,-0.472504996138281,-0.0230114252993356,-0.293449391863871,0.0195228465490844,-0.0230114252993355,-0.0602974537320867,-0.0192373676424776,0.756867448304051,-0.293449391863873,-0.0192373676424776,-0.469566937032517,0.0230920425207079,0.0195228465490841,0.756867448304051,0.0230920425207076,-0.0570528533385696
4,-0.454547364971859,0.000476439994667549,-0.397827296465393,-0.0045250958067969,0.000476439994668089,-0.0489623527419695,0.00475841063119582,0.785500706057589,-0.397827296465397,0.0047584106311956,-0.450537957253916,-0.000198900463795433,-0.00452509580679709,0.785500706057588,-0.000198900463795262,-0.0456403005922855
4.1,-0.418676492352662,0.0252883994511234,-0.487838862806366,-0.0283952766560992,0.0252883994511237,-0.0338708430093342,0.0285625941514904,0.772922648873265,-0.487838862806368,0.0285625941514928,-0.413716700786965,-0.0248218024388221,-0.0283952766560988,0.772922648873264,-0.0248218024388216,-0.0306930797752188
4.2,-0.368148219658921,0.0485223207739506,-0.565076349903394,-0.0488618522224967,0.0485223207739505,-0.0187690050029384,0.0489542318006247,0.724412912097304,-0.565076349903394,0.0489542318006276,-0.362338524693017,-0.0479012553365172,-0.048861852222497,0.724412912097303,-0.0479012553365169,-0.0159218302208833
4.3,-0.30608086561865,0.067521127174552,-0.630737673996185,-0.0630241259299057,0.0675211271745519,-0.00810917005906718,0.0630379868565682,0.648520472340594,-0.630737673996185,0.0630379868565708,-0.299510293863123,-0.0668047371833953,-0.063024125929906,0.648520472340594,-0.0668047371833952,-0.00571339120346999
4.4,-0.235251138017745,0.0805720496352581,-0.68534543567512,-0.0690589016214166,0.0805720496352582,-0.00566287468562243,0.0689956842450848,0.555326244585561,-0.685345435675121,0.0689956842450856,-0.228007885395853,-0.0798350056213157,-0.0690589016214176,0.55532624458556,-0.0798350056213158,-0.00376087129571512
4.5,-0.158105751095485,0.0873075563849212,-0.728705063127095,-0.0666530654160113,0.0873075563849215,-0.0130023160699278,0.0665182362128412,0.454328982068446,-0.728705063127097,0.0665182362128411,-0.15028778052725,-0.0866266504216794,-0.0666530654160121,0.454328982068444,-0.0866266504216792,-0.0115653014175873
4.6,-0.0769226514307619,0.0885824205471219,-0.760024313713593,-0.0568938342896353,0.0885824205471222,-0.028706758944511,0.056695673098094,0.352663500640864,-0.760024313713594,0.0566956730980935,-0.0686474557361851,-0.0880235446002508,-0.0568938342896356,0.352663500640862,-0.0880235446002504,-0.0276555556051229
4.7,0.00594012781244082,0.0859365917900408,-0.778096482262957,-0.0417566972530095,0.085936591790041,-0.0488339936501188,0.0415051983215524,0.254483706810772,-0.778096482262957,0.0415051983215532,0.0145272766563134,-0.0855459572729209,-0.0417566972530097,0.25448370681077,-0.0855459572729206,-0.0480631553598128
4.8,0.0877705458537532,0.0809641295671035,-0.781464941423054,-0.0235336053252627,0.0809641295671039,-0.0684406186113669,0.0232396941068096,0.161877890907851,-0.781464941423051,0.0232396941068082,0.0964909000284383,-0.0807647246183934,-0.023533605325264,0.161877890907851,-0.0807647246183933,-0.0678390146662279
4.9,0.165282677571496,0.0748467949344429,-0.768523075651727,-0.00446272219591026,0.0748467949344441,-0.0833907558579884,0.00413802775473739,0.0765105468109601,-0.768523075651725,0.00413802775474107,0.17392235848303,-0.0748387638713275,-0.00446272219591621,0.0765105468109614,-0.0748387638713274,-0.0828567946124121
5,0.234557305620577,0.0681199734981271,-0.737544766354902,0.0133751914995893,0.0681199734981291,-0.0917237225212938,-0.0137176740974953,0.000570950062558337,-0.737544766354902,-0.0137176740974991,0.242871123256551,-0.068282965808791,0.013375191499582,0.000570950062558293,-0.0682829658087906,-0.0911764279642408
5.1,0.291258353026634,0.0606051019773368,-0.686680221793384,0.0279628511044509,0.0606051019773393,-0.0942548645551456,-0.0283068510202355,-0.0634645733745814,-0.686680221793391,-0.0283068510202343,0.298979302300026,-0.0609012091977442,0.027962851104441,-0.0634645733745842,-0.0609012091977432,-0.0936420777964768
5.2,0.33117991718812,0.0514213945410234,-0.613999400662394,0.0371695962534263,0.0514213945410254,-0.094474910569035,-0.0374922163888562,-0.113627126727118,-0.613999400662409,-0.0374922163888586,0.338031950631964,-0.0517982625848059,0.0371695962534208,-0.113627126727122,-0.0517982625848046,-0.0937778256584478
5.3,0.35101251414957,0.0390491489091679,-0.517739462731314,0.0386297873349623,0.0390491489091686,-0.0979754661443342,-0.0388971962774997,-0.149227434686948,-0.517739462731331,-0.0388971962775022,0.356721661897157,-0.0394438187643331,0.0386297873349569,-0.149227434686952,-0.0394438187643319,-0.0972066123909008
5.4,0.34901190032073,0.0215363169676376,-0.39700991282863,0.0298876122936452,0.021536316967637,-0.111537226121947,-0.0300521465153042,-0.17168620569909,-0.397009912828642,-0.0300521465153047,0.353313921215723,-0.0218812402973206,0.0298876122936452,-0.171686205699093,-0.0218812402973199,-0.110729056025137
5.5,0.32529738121853,-0.00287187522487267,-0.253199135430165,0.0091583387804331,-0.00287187522487373,-0.1417505493565,-0.00916306371216021,-0.185769624358643,-0.253199135430168,-0.00916306371216064,0.327962362341558,0.00263858013621433,0.0091583387804334,-0.185769624358643,0.00263858013621466,-0.140935273401425
5.6,0.282375738386694,-0.0342280294818243,-0.0918020084687684,-0.0229108087143358,-0.0342280294818248,-0.192784532134236,0.0231106876410235,-0.200800188111494,-0.0918020084687686,0.0231106876410235,0.283307332769123,0.0341465949741508,-0.0229108087143361,-0.200800188111494,0.034146594974151,-0.191973077862184
5.7,0.227500098983938,-0.0684309596014101,0.0769704872173523,-0.0607677563120895,-0.06843095960141,-0.263132391944986,0.0611640522336246,-0.229059241308976,0.0769704872173505,0.0611640522336244,0.226857768376822,0.0685002440660087,-0.0607677563120901,-0.229059241308975,0.0685002440660087,-0.262308401200639
5.8,0.172763705470611,-0.0957223595820239,0.24109904582161,-0.0930502946248274,-0.0957223595820238,-0.34250926782828,0.0935474903585495,-0.277620496575497,0.241099045821609,0.0935474903585493,0.170855189492115,0.0958855217027907,-0.0930502946248279,-0.277620496575496,0.0958855217027899,-0.341650708040288
5.9,0.12568484084951,-0.104290464577692,0.392131746553732,-0.10686183844336,-0.104290464577692,-0.412213293142298,0.107299458506455,-0.339014382870719,0.392131746553735,0.107299458506455,0.122883438440266,0.104443024317525,-0.10686183844336,-0.339014382870718,0.104443024317524,-0.411325850569005
6,0.0864043925302403,-0.0889121327058341,0.527455727865288,-0.0962351856868966,-0.0889121327058336,-0.451817039612695,0.0964718051059182,-0.395583556698392,0.527455727865289,0.0964718051059182,0.0831390397602405,0.0889446118336074,-0.0962351856868968,-0.395583556698392,0.0889446118336075,-0.450936003473033
6.1,0.0546104269813712,-0.0553055003922037,0.647064606987802,-0.0663229596679846,-0.0553055003922039,-0.44905084177249,0.0663090553132479,-0.433891440600344,0.647064606987794,0.0663090553132481,0.0512616793674138,0.0551574550378679,-0.066322959667984,-0.433891440600344,0.0551574550378675,-0.448201582189814
6.2,0.0317876177072056,-0.0149720520235045,0.749239982172612,-0.0286488292086001,-0.0149720520235062,-0.404653233651179,0.0284329692155193,-0.450520319223619,0.749239982172602,0.0284329692155197,0.0286889495045749,0.0146498403327602,-0.0286488292085965,-0.450520319223618,0.014649840332757,-0.403820915516878
6.3,0.0205213555281279,0.0220289078695981,0.829259098095318,0.00637538954419044,0.022028907869597,-0.328867632335504,-0.00668910727175575,-0.44817296835776,0.829259098095323,-0.00668910727175623,0.0180101193605391,-0.0224764805550035,0.00637538954419689,-0.448172968357759,-0.0224764805550097,-0.328010354677089
6.4,0.0241374672343421,0.0499636760429227,0.880981695591911,0.0330556610815088,0.0499636760429256,-0.234564915514016,-0.03335813465894,-0.431094427148541,0.880981695591943,-0.0333581346589421,0.022578097199501,-0.0504769685106739,0.033055661081515,-0.431094427148539,-0.0504769685106807,-0.233645628264238
6.5,0.0465839223763641,0.0669337253796151,0.89941907392193,0.0500324321258009,0.0669337253796232,-0.132564825668487,-0.0502435254003042,-0.403032109878489,0.89941907392198,-0.0502435254003079,0.0463346333398057,-0.0674589070410663,0.0500324321258031,-0.403032109878489,-0.0674589070410717,-0.131569715292143
