"Freq [GHz]","re(S(1,1)) []","re(S(1,2)) []","re(S(1,3)) []","re(S(1,4)) []","re(S(2,1)) []","re(S(2,2)) []","re(S(2,3)) []","re(S(2,4)) []","re(S(3,1)) []","re(S(3,2)) []","re(S(3,3)) []","re(S(3,4)) []","re(S(4,1)) []","re(S(4,2)) []","re(S(4,3)) []","re(S(4,4)) []"
3,-0.316097055539007,0.0397828508581452,-0.662762303811241,-0.0214794773498653,0.0397828508581451,-0.235138903387914,-0.021351601062581,-0.416364227852484,-0.662762303811243,-0.0213516010625814,-0.319742015562692,0.0396913803936286,-0.0214794773498651,-0.416364227852484,0.0396913803936281,-0.234810946059505
3.1,-0.370452034424951,0.0391157683299199,-0.62253208156216,-0.0156516762622661,0.0391157683299217,-0.237508933564903,-0.0155217890194185,-0.306887312669934,-0.622532081562163,-0.0155217890194189,-0.374098072705651,0.0390597876928802,-0.015651676262266,-0.306887312669935,0.0390597876928812,-0.237255696723974
3.2,-0.418759069881134,0.0386030971563839,-0.57435983769713,-0.00981456782505201,0.0386030971563855,-0.235695402709489,-0.00968425798516694,-0.18915712281317,-0.574359837697132,-0.00968425798516742,-0.422332255761012,0.0385694938250528,-0.00981456782505187,-0.18915712281317,0.0385694938250541,-0.235515133646398
3.3,-0.460103026804554,0.0382248853680614,-0.518224344886695,-0.00431336441131191,0.0382248853680623,-0.230908766695562,-0.00418271985121415,-0.0653166760420259,-0.518224344886697,-0.00418271985121455,-0.463519314286722,0.0382127411409295,-0.00431336441131179,-0.065316676042026,0.0382127411409305,-0.230796041310173
3.4,-0.49362634963918,0.0378789426722734,-0.454166344114832,0.000628715216665411,0.0378789426722737,-0.224004225985287,0.000759262350352531,0.0619936470627778,-0.454166344114833,0.000759262350352257,-0.496792049525717,0.0378919719480388,0.000628715216665473,0.0619936470627786,0.0378919719480391,-0.223950638794174
3.5,-0.518553937525507,0.0374216850028838,-0.382306317937378,0.00488773863114212,0.0374216850028837,-0.21540938063574,0.00501597647498586,0.189666005903889,-0.382306317937379,0.00501597647498573,-0.521366541448965,0.0374644232514927,0.00488773863114208,0.189666005903891,0.0374644232514926,-0.215404821308115
3.6,-0.534223921601427,0.0366799509103973,-0.302865894677364,0.00840687353420475,0.0366799509103972,-0.205102853579325,0.00852794540157176,0.314178092028646,-0.302865894677365,0.00852794540157174,-0.536573343388924,0.0367562916220129,0.00840687353420461,0.314178092028649,0.0367562916220125,-0.205136909612844
3.7,-0.540124724899809,0.0354546428026075,-0.216193806796254,0.0111664024124438,0.0354546428026074,-0.192603829040247,0.0112724145007531,0.431659214812587,-0.216193806796254,0.0112724145007532,-0.54189503383381,0.0355677014338767,0.0111664024124436,0.431659214812589,0.0355677014338763,-0.192667047836267
3.8,-0.535938438392638,0.0335254795480525,-0.12279723364604,0.0131603406857518,0.0335254795480524,-0.176951383230894,0.0132402966737522,0.537959614760092,-0.122797233646041,0.0132402966737523,-0.537010168861561,0.0336781885582029,0.0131603406857515,0.537959614760094,0.0336781885582025,-0.177036283444181
3.9,-0.521589991761964,0.0306620812472813,-0.0233790734216284,0.0143798445691143,0.0306620812472811,-0.156673555406156,0.0144198252792078,0.628721952675114,-0.0233790734216283,0.0144198252792079,-0.521843123338928,0.0308580476523867,0.0143798445691141,0.628721952675115,0.0308580476523866,-0.156775337653068
4,-0.497300792689617,0.026644678977104,0.0811188802737749,0.0148020240215536,0.0266446789771038,-0.129772500333605,0.0147856363877208,0.699476242395401,0.0811188802737754,0.014785636387721,-0.496618501248492,0.026888749610703,0.0148020240215535,0.6994762423954,0.0268887496107029,-0.129889371973859
4.1,-0.463644428579052,0.0212955677610073,0.189467847348685,0.0143827779752358,0.021295567761007,-0.0937917614287804,0.014292018303449,0.745819028881479,0.189467847348686,0.0142920183034492,-0.461917707891188,0.021593417158576,0.0143827779752359,0.745819028881477,0.021593417158576,-0.0939246796328081
4.2,-0.421600669315819,0.0145191067574569,0.300101533929245,0.0130531290532884,0.0145191067574567,-0.0460895110833135,0.0128699351543182,0.763790929608075,0.300101533929246,0.0128699351543184,-0.418733905843189,0.0148752185423306,0.0130531290532886,0.763790929608074,0.0148752185423304,-0.0462410093787011
4.3,-0.372602396641219,0.00634411486141525,0.411067789652705,0.0107200832445666,0.00634411486141538,0.0155004523074795,0.0104289720383868,0.750607648058167,0.411067789652705,0.0104289720383872,-0.368519936160291,0.00675799073347171,0.0107200832445669,0.750607648058167,0.0067579907334714,0.015328732627261
4.4,-0.318568201338928,-0.00304011424217364,0.519990000448803,0.00727558985712164,-0.00304011424217301,0.0914594227501216,0.00686781607687044,0.705854352809964,0.519990000448801,0.00686781607687095,-0.313221857985784,-0.00257878448648618,0.00727558985712198,0.705854352809966,-0.00257878448648663,0.0912705699217735
4.5,-0.261911051990999,-0.0132616614486423,0.624049648582135,0.00262140579561616,-0.0132616614486412,0.178931636775855,0.00210081304706448,0.632996871239484,0.62404964858213,0.002100813047065,-0.255288355870516,-0.0127771345784792,0.00262140579561649,0.632996871239486,-0.0127771345784797,0.178737817909129
4.6,-0.205510025413744,-0.0237589370579213,0.720006595167678,-0.00327583758590589,-0.02375893705792,0.270365632924756,-0.00388615217958899,0.540532083616197,0.720006595167669,-0.00388615217958857,-0.197642753853975,-0.023290626901301,-0.00327583758590551,0.540532083616198,-0.0232906269013013,0.270190753773777
4.7,-0.152626157992171,-0.0337814888789581,0.804280593557148,-0.010277699838424,-0.0337814888789572,0.353824020960756,-0.0109313110379992,0.441587573754471,0.804280593557136,-0.0109313110379989,-0.143598306338032,-0.033380485740423,-0.0102776998384233,0.441587573754469,-0.0333804857404231,0.353702033185506
4.8,-0.106732725972701,-0.0423872884623626,0.873127160684299,-0.0178944632537769,-0.0423872884623625,0.415911403603736,-0.0185273232631257,0.351077612054374,0.873127160684289,-0.0185273232631253,-0.0966864923905497,-0.0421077186714513,-0.0178944632537755,0.351077612054373,-0.0421077186714511,0.415879541495505
4.9,-0.0712135364737879,-0.0484339787607085,0.9229527939696,-0.0250508417953774,-0.0484339787607092,0.4462459105181,-0.0256037516525665,0.281113392229823,0.922952793969594,-0.0256037516525648,-0.0603510794265887,-0.0483203031972117,-0.025050841795375,0.281113392229823,-0.0483203031972116,0.446335534848891
5,-0.0488686608892312,-0.0505920029317155,0.950820528848894,-0.0299418673565645,-0.0505920029317167,0.440637147070736,-0.0303863480025892,0.237089005895021,0.950820528848892,-0.0303863480025848,-0.0374464345841099,-0.0506648385480739,-0.0299418673565624,0.237089005895022,-0.0506648385480738,0.440866259031831
5.1,-0.0411946305852639,-0.0474638484534151,0.955164934714809,-0.0303288709601793,-0.047463848453416,0.40110630922391,-0.030635663922992,0.216672621506142,0.95516493471481,-0.0306356639229863,-0.0295066245808513,-0.0477086064747176,-0.0303288709601796,0.216672621506143,-0.0477086064747178,0.401475987343411
5.2,-0.0475648578491921,-0.0379535277105636,0.936592034981714,-0.0245519038016915,-0.0379535277105637,0.333576706735194,-0.0245927079610482,0.211842547748194,0.936592034981712,-0.0245927079610489,-0.0359128086406674,-0.038318235183392,-0.0245519038016912,0.211842547748194,-0.0383182351833923,0.334071366634165
5.3,-0.0647921372365593,-0.0219885706513753,0.898319935182745,-0.0124526626957652,-0.021988570651375,0.245327448841865,-0.0122737082985176,0.212396993557581,0.898319935182738,-0.0122737082985153,-0.0534474024425766,-0.0223972130893961,-0.0124526626957574,0.21239699355758,-0.0223972130893965,0.245917999112106
5.4,-0.0878462431564828,-0.00136014056865964,0.845520587764136,0.00513496759363152,-0.00136014056865993,0.143487266150025,0.00511782727320347,0.209278521242069,0.845520587764126,0.0051178272732533,-0.0770191050151634,-0.00174014424987322,0.005134967593629,0.209278521242068,-0.00174014424987382,0.144136386186799
5.5,-0.111956375442047,0.0201218552787644,0.783256244413725,0.0250178251700981,0.020121855278763,0.0346006516117989,0.0256128800992113,0.19672961554008,0.783256244413719,0.0256128800992075,-0.101793432892377,0.0198136890542745,0.025017825170089,0.196729615540081,0.0198136890542737,0.0352693756039047
5.6,-0.134802995384834,0.0379039682405683,0.714189156758989,0.0414860219880096,0.0379039682405667,-0.0752841330445081,0.0422908714120962,0.172860132162101,0.714189156758989,0.0422908714120936,-0.125417093514195,0.0376750310152534,0.0414860219880078,0.172860132162101,0.0376750310152525,-0.0746299465122098
5.7,-0.156907043170343,0.048759407086108,0.638069312583296,0.0514788850776996,0.0487594070861073,-0.180546175309775,0.0522747842241211,0.138769947997229,0.638069312583296,0.0522747842241255,-0.148416045104637,0.0485927526663413,0.051478885077699,0.138769947997227,0.0485927526663405,-0.179931541407866
5.8,-0.180076860088703,0.0519202086450822,0.553348285834068,0.0547924356661839,0.0519202086450826,-0.276233361603149,0.0556267491758798,0.0969759196511958,0.553348285834064,0.0556267491758809,-0.172621611715371,0.0517886723332648,0.0547924356661819,0.0969759196511924,0.0517886723332644,-0.275673635317179
5.9,-0.205573329960747,0.0485894711742886,0.459169730655718,0.0524712671384501,0.0485894711742896,-0.358597346587327,0.0532978233991158,0.0500504710099732,0.459169730655712,0.053297823399114,-0.199308142957958,0.0484653537587593,0.0524712671384481,0.0500504710099701,0.0484653537587593,-0.358100864856304
6,-0.233269923540651,0.0407535609378748,0.356244004923276,0.0460719561521275,0.0407535609378754,-0.425629578437187,0.0468066601839817,-6.05844197354087E-05,0.356244004923274,0.0468066601839803,-0.228339821834316,0.0406151600493391,0.0460719561521266,-6.05844197367948E-05,0.0406151600493391,-0.425200313870448
6.1,-0.261787354010797,0.0303005860738436,0.246618598671325,0.037279250597216,0.0303005860738432,-0.477183978052958,0.0378692987595338,-0.0521148594597138,0.246618598671329,0.0378692987595342,-0.258307543943231,0.0301361709093513,0.0372792505972163,-0.0521148594597141,0.030136170909351,-0.476821315300397
6.2,-0.289036382252149,0.0186821487277003,0.133034343205272,0.0276168267981713,0.0186821487276992,-0.514417073427182,0.0280503803752938,-0.105344474422061,0.13303434320528,0.0280503803752956,-0.287080626696175,0.0184907204214459,0.0276168267981722,-0.10534447442206,0.0184907204214452,-0.514114325465864
6.3,-0.312755198812487,0.00691162848381042,0.0183565906876382,0.0182510745476411,0.00691162848380899,-0.538682084538672,0.0185384307373555,-0.159166080194108,0.0183565906876447,0.0185384307373576,-0.312352766393656,0.00670065449261797,0.0182510745476422,-0.159166080194107,0.00670065449261724,-0.53842936143494
6.4,-0.330892944375011,-0.00432395084116005,-0.0947712912288944,0.00991988662508034,-0.0043239508411612,-0.550498837253029,0.0100754926927846,-0.21294566421843,-0.0947712912288936,0.0100754926927862,-0.332031202321471,-0.00454271843202016,0.00991988662508153,-0.212945664218429,-0.00454271843202044,-0.550291389848786
6.5,-0.341834380136396,-0.0145534746790668,-0.204079718787761,0.00297384131592399,-0.0145534746790676,-0.549406742617808,0.0030086132211719,-0.265847180257113,-0.204079718787763,0.00300861322117277,-0.344464117973069,-0.0147687215480587,0.00297384131592536,-0.265847180257112,-0.0147687215480579,-0.549248905212825
