"Freq [GHz]","re(S(1,1)) []","re(S(1,2)) []","re(S(1,3)) []","re(S(1,4)) []","re(S(2,1)) []","re(S(2,2)) []","re(S(2,3)) []","re(S(2,4)) []","re(S(3,1)) []","re(S(3,2)) []","re(S(3,3)) []","re(S(3,4)) []","re(S(4,1)) []","re(S(4,2)) []","re(S(4,3)) []","re(S(4,4)) []"
3,-0.186852091830133,-0.17718477498868,-0.0733932844048026,0.171815398447736,-0.177184774988675,-0.0928561174814736,-0.170954527718988,-0.721290177550345,-0.0733932844048029,-0.170954527718989,-0.187369860918473,0.181073082513245,0.171815398447736,-0.721290177550343,0.181073082513244,-0.0900691535783045
3.1,0.109610934956517,-0.0367267241173633,0.52899249573852,0.152344659387325,-0.036726724117364,0.0145937278143753,-0.149285569861527,-0.798927552496488,0.528992495738519,-0.149285569861523,0.122315477293216,0.0420890844823808,0.152344659387326,-0.79892755249649,0.0420890844823847,0.0187785234414246
3.2,-0.105160384651112,-0.255295384937674,0.479772596089939,0.199316684268532,-0.255295384937675,0.14205812004236,-0.201146878468486,-0.434751609262688,0.479772596089939,-0.201146878468488,-0.0949845754243002,0.2591689888279,0.199316684268532,-0.434751609262685,0.2591689888279,0.145032888890984
3.3,-0.247475093651565,-0.411777895655769,0.416521723638752,0.0845995012961829,-0.41177789565577,0.157044627078255,-0.0874891049226752,0.0277348829383996,0.416521723638752,-0.0874891049226744,-0.239316378268261,0.414024695788117,0.0845995012961807,0.027734882938402,0.414024695788116,0.154915737943744
3.4,-0.370181901904169,-0.420925350256413,0.308954660264158,-0.127485296833865,-0.420925350256416,-0.00684527578921501,0.126175037201196,0.503930274982828,0.308954660264155,0.126175037201196,-0.364495200118541,0.420603431915307,-0.127485296833866,0.503930274982826,0.420603431915302,-0.0122034297707629
3.5,-0.196619944626554,-0.180347354015593,-0.179226376422473,-0.180400154634311,-0.180347354015595,-0.0352443538000355,0.182784343665369,0.829958351839695,-0.17922637642248,0.182784343665364,-0.196267627626679,0.178039302008551,-0.180400154634297,0.829958351839704,0.17803930200856,-0.0395421132140643
3.6,-0.103794617002319,-0.164212837519978,-0.526084741018901,-0.178378858320663,-0.164212837519977,0.123163354547262,0.179533567064096,0.604309947556419,-0.526084741018905,0.179533567064096,-0.103066544753931,0.163361730441612,-0.17837885832066,0.60430994755642,0.163361730441613,0.119279965433298
3.7,-0.309812679854735,-0.387552489591044,-0.414396556973797,-0.155920630303992,-0.387552489591031,0.236366283706746,0.156655093763822,0.114750686032966,-0.414396556973795,0.156655093763823,-0.30880976599935,0.387425111178196,-0.155920630303994,0.114750686032964,0.387425111178194,0.234150424176252
3.8,-0.40551151908004,-0.49066266388578,-0.323164731803067,-0.00425470829222879,-0.490662663885799,0.165753317342488,0.00370173460354651,-0.3285016550992,-0.323164731803067,0.00370173460354692,-0.405233008296399,0.491319272565977,-0.00425470829223326,-0.328501655099201,0.49131927256602,0.166114690349904
3.9,-0.460399114761832,-0.424548804169357,-0.15985681036675,0.194400150605902,-0.424548804169354,-0.0336553321762448,-0.196306444171951,-0.677369353886402,-0.159856810366747,-0.196306444171961,-0.461055581451684,0.427938844776588,0.194400150605904,-0.677369353886414,0.427938844776587,-0.0289108899047156
4,-0.245519286073687,-0.139181434611265,0.36145196970357,0.179625442156756,-0.13918143461127,0.0500346679273284,-0.174356245483038,-0.765037013755057,0.361451969703569,-0.174356245483029,-0.235581353626889,0.150090935526523,0.179625442156752,-0.765037013755046,0.150090935526525,0.0517749562032541
4.1,-0.369266866223326,-0.247965387742995,0.435622923089071,0.178833820302219,-0.247965387742998,0.242577166334489,-0.179541947871257,-0.294556499287502,0.435622923089069,-0.179541947871255,-0.355984974008424,0.255992747850151,0.178833820302218,-0.294556499287501,0.255992747850152,0.245032216536611
4.2,-0.497523999684148,-0.444741202079212,0.325722197128389,0.0834698268490565,-0.444741202079214,0.29068057870927,-0.0880051972983441,0.19505598636852,0.325722197128386,-0.0880051972983427,-0.48680741946517,0.449686440104107,0.0834698268490514,0.195055986368522,0.449686440104104,0.285249814543942
4.3,-0.526985633960512,-0.490301768309837,0.227750430592577,-0.0798202137845044,-0.490301768309838,0.130088141850319,0.075609575731719,0.526205408125608,0.227750430592577,0.075609575731721,-0.517193642576592,0.490007686097572,-0.0798202137845032,0.526205408125604,0.490007686097571,0.117270062632291
4.4,-0.506360966468572,-0.340905536106733,0.0251953068254567,-0.226355031681276,-0.340905536106744,-0.0449688950799278,0.227877964788986,0.706426202149325,0.0251953068254527,0.227877964788995,-0.500830688468983,0.332025536014733,-0.226355031681279,0.706426202149329,0.332025536014735,-0.0534391346471144
4.5,-0.418712939747633,-0.100221237481212,-0.337243486915803,-0.189398171067461,-0.100221237481268,0.134448005728237,0.196428718775514,0.551434370617504,-0.33724348691581,0.196428718775524,-0.424588714412363,0.092558399465502,-0.189398171067469,0.551434370617512,0.0925583994654961,0.135848266857443
4.6,-0.561882807779248,-0.259695859848607,-0.34109593812242,-0.143819405399132,-0.259695859848622,0.302479710387467,0.143902420979625,-0.0301370894425766,-0.341095938122421,0.143902420979625,-0.563461527765535,0.260301697968338,-0.143819405399128,-0.0301370894425802,0.260301697968324,0.300991313763875
4.7,-0.594768907874343,-0.407752192717476,-0.270242128346317,-0.0039773929882288,-0.40775219271748,0.228210173750773,0.00366621261631073,-0.417154786564083,-0.270242128346315,0.0036662126163067,-0.592055174383481,0.409531863410812,-0.00397739298822618,-0.417154786564083,0.409531863410811,0.225663876680885
4.8,-0.571539181990289,-0.382486683671434,-0.178658092925661,0.139800132653815,-0.382486683671438,0.01798919492059,-0.139720219360345,-0.611941577485892,-0.178658092925657,-0.139720219360352,-0.566405914098,0.381270230405303,0.13980013265372,-0.611941577485883,0.381270230405311,0.0132541488201757
4.9,-0.547160544190912,-0.176499655946114,0.0109400379521433,0.241116244728617,-0.176499655946115,-0.0487758633288142,-0.243272776956059,-0.640105108727004,0.0109400379521432,-0.243272776956019,-0.544244632000775,0.170157404563571,0.241116244728615,-0.640105108727001,0.170157404563568,-0.0500489452952799
5,-0.567094490299894,-0.046074038438981,0.272670683258657,0.202834891727532,-0.0460740384389805,0.183204746150643,-0.206806649101333,-0.245563414141684,0.272670683258656,-0.206806649101331,-0.571353970920401,0.0417306952493434,0.202834891727539,-0.245563414141686,0.041730695249345,0.185478638300161
5.1,-0.594838611919862,-0.215877763584445,0.339387635551286,0.0592885245731696,-0.215877763584445,0.259110496823372,-0.0591546504348665,0.300432785948259,0.339387635551286,-0.0591546504348704,-0.597794545792409,0.216319184487485,0.059288524573171,0.300432785948261,0.216319184487486,0.259107602449003
5.2,-0.562642897377228,-0.326778451517093,0.279672158646865,-0.0728592068236331,-0.326778451517092,0.0910385459296522,0.0741404862113632,0.5573173327978,0.279672158646864,0.0741404862113615,-0.561704074670527,0.327515983531641,-0.072859206823634,0.557317332797799,0.327515983531641,0.0881527362713876
5.3,-0.526937573035829,-0.254992130650492,0.171279103178074,-0.177409901734485,-0.254992130650489,-0.0843770924714169,0.178576501690659,0.627097178046671,0.171279103178075,0.178576501690658,-0.524093467483254,0.252731933492016,-0.177409901734482,0.627097178046671,0.252731933492018,-0.0908925067266425
5.4,-0.537115930764915,-0.049612016137767,-0.0378302947484957,-0.25327990420566,-0.0496120161377641,-0.0619112367577679,0.255348776458932,0.456127425209891,-0.0378302947484965,0.255348776458932,-0.536550057695936,0.0419859159657291,-0.253279904205659,0.456127425209893,0.0419859159657271,-0.0664898294655843
5.5,-0.553689451646774,0.017570090281984,-0.325988272828075,-0.145417957424496,0.0175700902819836,0.19109587262974,0.148810668130009,-0.0876294234159807,-0.325988272828075,0.148810668130008,-0.561121406163464,-0.0255415674291794,-0.145417957424496,-0.0876294234159829,-0.0255415674291792,0.196757618048465
5.6,-0.500654277273054,-0.165018337459864,-0.399611592051618,0.0285524764306822,-0.165018337459865,0.155280823015854,-0.0296483782776878,-0.528788668092756,-0.399611592051618,-0.0296483782776828,-0.510271928374729,0.164566725651296,0.0285524764306824,-0.528788668092757,0.164566725651293,0.164264473261221
5.7,-0.479504741147111,-0.247465632440803,-0.270899161395338,0.104545457342422,-0.247465632440805,-0.0607268098511698,-0.108941339701382,-0.616751230789269,-0.270899161395337,-0.108941339701379,-0.48457541006795,0.252125296890502,0.104545457342424,-0.61675123078927,0.252125296890503,-0.0519460030831189
5.8,-0.469191190699509,-0.122301242510461,-0.104514677023197,0.186528279572681,-0.122301242510457,-0.190864383726952,-0.189810628283029,-0.506369604213181,-0.104514677023197,-0.189810628283029,-0.470319306450107,0.129512556763132,0.186528279572684,-0.506369604213178,0.129512556763131,-0.185927750188051
5.9,-0.486582644248529,0.0987168862841789,0.133331186347546,0.24340102030733,0.0987168862841826,-0.0826283311014677,-0.241621281822622,-0.161604056647283,0.133331186347543,-0.241621281822628,-0.482678913104704,-0.0908436244912114,0.243401020307332,-0.161604056647289,-0.090843624491212,-0.0853520366198266
6,-0.466962781514517,0.114668032762122,0.425645831784579,0.0762677969640435,0.114668032762128,0.169249048691092,-0.0720493239661956,0.402984920324476,0.425645831784579,-0.0720493239662024,-0.455295858287315,-0.11179510387009,0.0762677969640486,0.402984920324481,-0.111795103870086,0.169105436455358
6.1,-0.417940067286415,-0.115966108675099,0.401020243994762,-0.0635809527285426,-0.115966108675067,-0.00863695397932991,0.0612163114129885,0.646815981946533,0.401020243994724,0.0612163114129174,-0.411190901684783,0.114725068512888,-0.063580952728613,0.646815981946493,0.114725068512915,-0.00267036680445649
6.2,-0.430003591280661,-0.138095503520864,0.17678089065024,-0.123326161731471,-0.13809550352082,-0.227888948780655,0.123169726675227,0.515485540143835,0.176780890650296,0.123169726675215,-0.427231200520397,0.137627385055731,-0.123326161731413,0.515485540143881,0.137627385055719,-0.223254069313141
6.3,-0.397977608158301,0.0509564419169035,0.00205554951897766,-0.206838610758663,0.0509564419169119,-0.291143686351973,0.208375946158695,0.270675497957527,0.00205554951893608,0.208375946158688,-0.395113908674674,-0.0509512673004905,-0.20683861075866,0.270675497957519,-0.0509512673004937,-0.287363501013695
6.4,-0.385362059141035,0.264608505051523,-0.228813532893903,-0.226897242152833,0.264608505051514,-0.105445262181461,0.227085534383316,-0.146834214761142,-0.228813532893866,0.227085534383312,-0.38425461432334,-0.263750741134459,-0.226897242152819,-0.146834214761148,-0.263750741134477,-0.104629287202061
6.5,-0.330317231783858,0.204298768553218,-0.491653850062482,-0.0116980437259493,0.20429876855322,0.0722189232340498,0.00988322431727335,-0.606086268582337,-0.491653850062482,0.00988322431727395,-0.321685602019033,-0.204538190289456,-0.0116980437259515,-0.606086268582336,-0.204538190289453,0.0741647671189936
