"Freq [GHz]","im(S(1,1)) []","im(S(1,2)) []","im(S(1,3)) []","im(S(1,4)) []","im(S(2,1)) []","im(S(2,2)) []","im(S(2,3)) []","im(S(2,4)) []","im(S(3,1)) []","im(S(3,2)) []","im(S(3,3)) []","im(S(3,4)) []","im(S(4,1)) []","im(S(4,2)) []","im(S(4,3)) []","im(S(4,4)) []"
3,-0.180823160230397,-0.0990265690568769,-0.801582482723477,0.0186060133820268,-0.099026569056876,-0.0203483813782665,0.0275365094917044,-0.780515866651997,-0.80158248272348,0.0275365094917042,-0.158850797751948,-0.0898568246950062,0.0186060133820262,-0.780515866652,-0.0898568246950072,-0.0214242399319694
3.1,-0.260510276360611,-0.141310013885034,-0.715830490827488,0.0632648992587926,-0.141310013885026,0.0353308155077495,0.0725637968631662,-0.745816378323187,-0.715830490827492,0.0725637968631699,-0.238111424629429,-0.133909384589969,0.0632648992587861,-0.745816378323193,-0.133909384589968,0.0321611844113843
3.2,-0.392013628912101,-0.129135368280372,-0.562161321125515,0.0716082558959563,-0.129135368280364,0.0827649892551275,0.0788774278718009,-0.665701195877304,-0.562161321125514,0.0788774278718033,-0.372396856825556,-0.124702532067145,0.0716082558959552,-0.665701195877307,-0.124702532067147,0.0789125391808368
3.3,-0.534191253140016,-0.0721002876797643,-0.381537573874218,0.0522353272929823,-0.0721002876797623,0.113653088903649,0.0554394284608311,-0.53628429883393,-0.381537573874215,0.0554394284608294,-0.519881386237231,-0.071112351933332,0.0522353272929833,-0.536284298833929,-0.0711123519333345,0.110705422440124
3.4,-0.645684172634284,0.00604634268581597,-0.216045304768463,0.0269734260710574,0.00604634268581735,0.132760781986921,0.0253468714678247,-0.367836228791442,-0.216045304768462,0.0253468714678259,-0.637581773117413,0.00385552051500656,0.0269734260710558,-0.367836228791443,0.00385552051500835,0.131512765764038
3.5,-0.707440670651328,0.0837409711093466,-0.0861169773595795,0.0139305190308637,0.0837409711093497,0.148074496799646,0.0079396258242382,-0.178069846837415,-0.0861169773595799,0.00793962582424313,-0.70504287463291,0.0789986131691287,0.0139305190308609,-0.178069846837418,0.0789986131691328,0.148242966046732
3.6,-0.720801456745908,0.149140149460383,0.00781524849415149,0.0200272845699194,0.149140149460386,0.163478079044145,0.0108062067271205,0.0158482996810799,0.00781524849415199,0.0108062067271242,-0.722930304511293,0.142449260142232,0.0200272845699172,0.0158482996810784,0.142449260142233,0.164045284957229
3.7,-0.695987713965529,0.198106623351063,0.0736572793320272,0.0434927140985628,0.198106623351065,0.177547661149261,0.0323533849827207,0.200023568984765,0.0736572793320285,0.0323533849827213,-0.701354272724266,0.189876637854563,0.0434927140985619,0.200023568984766,0.189876637854563,0.177221884489928
3.8,-0.644328361199463,0.229611832832122,0.119738629853965,0.0784289454016579,0.229611832832122,0.185050987714763,0.0665897842872782,0.363432258376808,0.119738629853965,0.0665897842872789,-0.651805455345636,0.220052703835826,0.0784289454016573,0.363432258376809,0.220052703835827,0.182622158951285
3.9,-0.575500844454636,0.243158902064912,0.152196605158946,0.117849670455514,0.243158902064913,0.179440539056178,0.106308440761966,0.497434564522129,0.152196605158945,0.106308440761971,-0.584217773368573,0.232309169439348,0.117849670455515,0.497434564522129,0.23230916943935,0.174011761094274
4,-0.497256139604392,0.238471769080293,0.175012479219247,0.155199259037249,0.238471769080296,0.155380653820805,0.14468434198776,0.59597057430796,0.175012479219246,0.144684341987769,-0.506620050212044,0.226256059825857,0.155199259037251,0.595970574307959,0.226256059825859,0.146507340648884
4.1,-0.415869878664813,0.215661418198814,0.190769642365907,0.185050004201835,0.215661418198817,0.11026066933003,0.176025118190474,0.656061150364228,0.190769642365907,0.176025118190482,-0.425561786268323,0.201972209395825,0.185050004201837,0.656061150364227,0.201972209395826,0.0980212533320496
4.2,-0.336613353387611,0.175293649748889,0.20137493656446,0.203428685432406,0.17529364974889,0.044516371050489,0.196138938937631,0.678209924915103,0.20137493656446,0.196138938937635,-0.34656790669151,0.160062773001293,0.203428685432407,0.678209924915103,0.160062773001295,0.0295163839830341
4.3,-0.264016578123557,0.118740445934214,0.208578818822769,0.208010772147773,0.118740445934215,-0.0382754605883463,0.202554450336193,0.666609272633816,0.208578818822768,0.202554450336192,-0.274375432922394,0.102018936372103,0.208010772147772,0.666609272633815,0.102018936372105,-0.0549602676310021
4.4,-0.201813534435488,0.048899589811981,0.214309031602482,0.198354739883026,0.0488995898119816,-0.130702875209069,0.19476362584436,0.629198985571169,0.214309031602479,0.19476362584436,-0.21283972369598,0.0309624068690371,0.198354739883023,0.629198985571169,0.0309624068690394,-0.147630012535069
4.5,-0.152482070638987,-0.0291503080645365,0.220816422750934,0.176266377342667,-0.0291503080645343,-0.221083836335901,0.174578143102855,0.577295055100078,0.22081642275093,0.174578143102859,-0.164443152860065,-0.047728436766708,0.176266377342669,0.577295055100081,-0.0477284367667077,-0.236609517427596
4.6,-0.11644890000321,-0.108360599607727,0.23054417573179,0.146014915025572,-0.108360599607724,-0.295813582918669,0.146305198893315,0.523702215480177,0.230544175731787,0.146305198893321,-0.129520219668594,-0.126770295094592,0.146014915025581,0.523702215480187,-0.126770295094594,-0.308370255621943
4.7,-0.0914517120057569,-0.181410635175337,0.245584939503102,0.113478423278745,-0.181410635175337,-0.345248899831707,0.115800770025705,0.478173918574858,0.245584939503101,0.115800770025707,-0.105715450669325,-0.198858726229501,0.113478423278757,0.478173918574872,-0.198858726229503,-0.353705532194076
4.8,-0.0728976523153453,-0.243338754654528,0.26675143177844,0.0835631457583822,-0.243338754654531,-0.368516529899179,0.0878293198289355,0.442086049907008,0.26675143177844,0.0878293198289339,-0.0884448172897128,-0.259326704935221,0.0835631457583898,0.442086049907018,-0.259326704935221,-0.372401206406558
4.9,-0.0555265368042036,-0.293246433856419,0.29272619423299,0.0575862711840834,-0.293246433856423,-0.372096928365918,0.0635696054753201,0.407991470394881,0.292726194232989,0.0635696054753182,-0.072543477447383,-0.307631362959023,0.0575862711840841,0.407991470394882,-0.307631362959021,-0.371482177055936
5,-0.0353767981116104,-0.333671628078952,0.320071584525156,0.0334754295195044,-0.333671628078953,-0.364165352610312,0.0409850977476442,0.365881099336304,0.320071584525154,0.0409850977476443,-0.0540994813885997,-0.34647870357859,0.0334754295195023,0.3658810993363,-0.346478703578588,-0.35933600487441
5.1,-0.0106522960877101,-0.368284088535939,0.344385338386401,0.00831183397250301,-0.368284088535937,-0.35022881627644,0.0173161966664156,0.309686946491476,0.3443853383864,0.0173161966664171,-0.0312263082335503,-0.379475183760588,0.00831183397250252,0.309686946491472,-0.379475183760588,-0.341405965044524
5.2,0.0187304136640747,-0.399713286077844,0.361840605447514,-0.0197190317265995,-0.399713286077842,-0.332009881422908,-0.00914260583562693,0.238715809235881,0.361840605447515,-0.00914260583562567,-0.00364282799623665,-0.409078099839205,-0.0197190317265976,0.238715809235882,-0.409078099839205,-0.319248974387952
5.3,0.0520360852770027,-0.428609007687876,0.370055119164875,-0.0510247307497262,-0.428609007687877,-0.308318532436921,-0.0388199371764809,0.155614684771782,0.370055119164879,-0.03881993717648,0.0281218912705235,-0.435770049721838,-0.0510247307497235,0.155614684771786,-0.435770049721838,-0.291539030000762
5.4,0.0882692257547294,-0.453856493339344,0.368005096683408,-0.0850938609986411,-0.453856493339346,-0.276581490263617,-0.0713356050511658,0.064183132161838,0.368005096683412,-0.0713356050511648,0.0632150580777418,-0.458302577837036,-0.0850938609986392,0.0641831321618424,-0.458302577837036,-0.255659213505329
5.5,0.126257833054092,-0.473348432023416,0.355435557558274,-0.120966901463136,-0.473348432023418,-0.234515856158196,-0.105931077161132,-0.0317460489636833,0.355435557558277,-0.105931077161131,0.100546630646514,-0.474446662654547,-0.120966901463135,-0.0317460489636799,-0.474446662654547,-0.209412100649953
5.6,0.164521899398884,-0.484778616249473,0.332273578442509,-0.157455823028344,-0.484778616249473,-0.181688244141566,-0.141666563475302,-0.128578816002109,0.33227357844251,-0.1416665634753,0.138731585466307,-0.481770127061604,-0.157455823028344,-0.128578816002108,-0.481770127061605,-0.152628829337834
5.7,0.201231003746263,-0.486163555082391,0.298265914598999,-0.193146814959815,-0.486163555082389,-0.120490963528168,-0.177419516683127,-0.2228406233227,0.298265914599,-0.177419516683126,0.1761361768607,-0.478172019214251,-0.193146814959815,-0.2228406233227,-0.478172019214253,-0.0881985168601806
5.8,0.234389438804951,-0.476018710760453,0.252854868743182,-0.226257815010028,-0.476018710760449,-0.0560482642916522,-0.211743904250921,-0.310965059901695,0.252854868743184,-0.21174390425092,0.211089661521929,-0.462096516343937,-0.226257815010026,-0.310965059901694,-0.462096516343939,-0.0219659548341225
5.9,0.262167247966012,-0.453273618333169,0.195257741893524,-0.254406943758442,-0.453273618333167,0.00486507511816168,-0.242628007396866,-0.389152138755963,0.195257741893528,-0.242628007396866,0.242154577341494,-0.432502922944709,-0.25440694375844,-0.389152138755961,-0.43250292294471,0.0384674494743778
6,0.283178837281253,-0.417116329579137,0.124749730539508,-0.274363225149214,-0.417116329579137,0.0550727740051624,-0.267193185117128,-0.453395340026174,0.124749730539511,-0.267193185117129,0.268313081084619,-0.388788899825188,-0.274363225149213,-0.453395340026171,-0.388788899825189,0.0851671269110066
6.1,0.296568742398021,-0.367047880812302,0.0411947928329567,-0.281935186857137,-0.367047880812301,0.0874741182409931,-0.281446313173113,-0.499744510659281,0.041194792832955,-0.281446313173114,0.289004647911163,-0.330966756939613,-0.28193518685714,-0.499744510659277,-0.330966756939614,0.110482141689545
6.2,0.301923108000253,-0.303518342700054,-0.0541318387600943,-0.272313743833479,-0.30351834270005,0.0944397729929248,-0.280365272016882,-0.524821613869894,-0.0541318387601031,-0.280365272016882,0.304046259137274,-0.260461548713373,-0.272313743833486,-0.524821613869888,-0.260461548713377,0.106583312466014
6.3,0.299201985984373,-0.229447306548173,-0.157500665803247,-0.241315319439514,-0.229447306548164,0.0668148305213435,-0.258811775118895,-0.526511176758022,-0.15750066580326,-0.258811775118894,0.313524432449449,-0.181723974194897,-0.241315319439524,-0.526511176758017,-0.181723974194904,0.0648563543990766
6.4,0.289236825760831,-0.15215694926925,-0.261830460802365,-0.187702211817211,-0.152156949269242,-0.00518342755380473,-0.213712079047635,-0.504624556093711,-0.261830460802372,-0.213712079047635,0.317821567636613,-0.103880922339853,-0.187702211817217,-0.50462455609371,-0.10388092233986,-0.0223057813040117
6.5,0.27668090160364,-0.0834345722775859,-0.356704203557705,-0.115655860106384,-0.0834345722775874,-0.124317129729655,-0.147015644116744,-0.461259959925223,-0.356704203557705,-0.147015644116743,0.318333213633666,-0.0398491293071349,-0.115655860106382,-0.461259959925225,-0.0398491293071331,-0.153122861179148
