"Freq [MHz]","re(Zt(Rectangle3_T1,Rectangle3_T1)) []","im(Zt(Rectangle3_T1,Rectangle3_T1)) []"
100,6.27325672611086,267.922884081865
100.5,6.38523535102793,270.285930415227
101,6.49987106622919,272.673793108848
101.5,6.61723576328543,275.086970641803
102,6.73740373346179,277.525974692163
102.5,6.86045176548023,279.991330587274
103,6.98645924797935,282.483577772658
103.5,7.11550827692833,285.003270300447
104,7.2476837682759,287.550977338305
104.5,7.38307357612556,290.127283699855
105,7.52176861675042,292.732790397675
105.5,7.66386299878565,295.368115220004
106,7.80945415994719,298.033893332343
106.5,7.95864301066051,300.730777905225
107,8.11153408499967,303.4594407695
107.5,8.26823569936825,306.220573100535
108,8.4288601193808,309.014886132856
108.5,8.59352373543461,311.843111906812
109,8.76234724749413,314.706004048956
109.5,8.93545585964873,317.604338587933
110,9.11297948503875,320.538914807783
110.5,9.29505296179232,323.510556140671
111,9.48181628065185,326.520111101205
111.5,9.67341482502726,329.568454264596
112,9.86999962425843,332.656487291117
112.5,10.0717276209222,335.78513999941
113,10.2787619530971,338.95537149141
113.5,10.4912722525374,342.168171331781
114,10.7094349598098,345.424560785008
114.5,10.9334336574953,348.725594113428
115,11.163459422664,352.072359939766
115.5,11.399711199906,355.465982677926
116,11.6423961963079,358.907624036084
116.5,11.8917302998699,362.398484596358
117,12.1479385229674,365.939805475684
117.5,12.411255472599,369.532870072779
118,12.681925849285,373.179005906462
118.5,12.9602049766451,376.879586550962
119,13.2463593638272,380.63603367422
119.5,13.5406673031588,384.449819185662
120,13.8434195055584,388.322467500339
120.5,14.1549197764839,392.255557926877
121,14.475485735398,396.250727187201
121.5,14.8054495820011,400.309672076599
122,15.1451589127455,404.43415227331
122.5,15.4949775914567,408.625993307563
123,15.8552866782053,412.887089700692
123.5,16.2264854209439,417.219408285815
124,16.6089923148242,421.624991722431
124.5,17.0032462345348,426.10596221828
125,17.409707645491,430.664525472839
125.5,17.8288599002387,435.302974858006
126,18.2612106270088,440.023695852769
126.5,18.7072932180126,444.82917075002
127,19.167668425773,449.721983655176
127.5,19.6429260765783,454.704825797924
128,20.1336869110097,459.780501180156
128.5,20.6406045624584,464.951932585174
129,21.164367685623,470.222167975357
129.5,21.7057022481545,475.594387307859
130,22.2653739999359,481.071909800507
130.5,22.8441911359601,486.658201682899
131,23.4430071703862,492.356884470867
131.5,24.0627240411907,498.171743805893
132,24.7042954668508,504.106738904919
132.5,25.3687305787783,510.166012670166
133,26.0570978557628,516.353902513233
133.5,26.7705293895372,522.67495195292
134,27.5102255137685,529.133923051872
134.5,28.2774598323813,535.735809763492
135,29.073584687161,542.485852267572
135.5,29.9000371091442,549.389552380871
136,30.7583453034457,556.452690137567
136.5,31.6501357229761,563.681341644131
137,32.5771407931024,571.081898323971
137.5,33.5412073567307,578.661087679233
138,34.5443059177943,586.425995710545
138.5,35.5885407707139,594.384091150634
139,36.6761611144158,602.543251684564
139.5,37.8095732619538,610.911792348371
140,38.9913540711441,619.498496319139
140.5,40.2242657379514,628.312648333648
141,41.5112721131961,637.364070999733
141.5,42.8555567247587,646.663164295148
142,44.2605427123071,656.220948583305
142.5,45.7299149103197,666.049111514472
143,47.2676443483997,676.160059225517
143.5,48.8780154762902,686.566972301874
144,50.5656564658034,697.283867022982
144.5,52.3355729938105,708.3256624782
145,54.1931859712012,719.70825421522
145.5,56.1443737537098,731.448595168993
146,58.1955194537362,743.564784717722
146.5,60.3535640701482,756.076166825761
147,62.6260662683416,769.003438363625
147.5,65.0212697791083,782.368768845759
148,67.5481795463051,796.195933000542
148.5,70.2166479451971,810.510457788363
149,73.0374726220758,825.339785717304
149.5,76.0225077791545,840.713456577735
150,79.1847910567321,856.663310033941
150.5,82.5386885593398,873.223711880864
151,86.1000610490199,890.431807207213
151.5,89.8864549065112,908.327804214281
152,93.9173221633097,926.955293037248
152.5,98.2142747650461,946.361604619635
153,102.801379277425,966.598215522818
153.5,107.70549953924,987.721205536098
154,112.956696365226,1009.79177611916
154.5,118.588695385405,1032.87683909442
155,124.639436581746,1057.04968665616
155.5,131.151722182779,1082.39075572946
156,138.173983480295,1108.98850205941
156.5,145.761192072723,1136.94040221601
157,153.975947326968,1166.35410505411
157.5,162.889779895478,1197.34875817689
158,172.584721480656,1230.05653973981
158.5,183.155204448387,1264.62443163742
159,194.71037236784,1301.21627688659
159.5,207.376905478776,1340.01517200353
160,221.302495366771,1381.22625448846
160.5,236.660143406877,1425.0799562289
161,253.653511520453,1471.83580559815
161.5,272.523626699802,1521.78687383545
162,293.557340014394,1575.26497393235
162.5,317.098077059836,1632.64673062426
163,343.55960541617,1694.36064415703
163.5,373.443808020677,1760.89526074462
164,407.363822245823,1832.80852530016
164.5,446.074431327099,1910.73830217774
165,490.512349410262,1995.41386222605
165.5,541.850130579394,2087.66776774394
166,601.56901400142,2188.44689216404
166.5,671.558324106096,2298.82001541093
167,754.252409684311,2419.97703312753
167.5,852.82098227902,2553.2103622885
168,971.435646787395,2699.8608306095
168.5,1115.64483870768,2861.1948037317
169,1292.9008770558,3038.15004940538
169.5,1513.29287122378,3230.83259121597
170,1790.53460337773,3437.54301439409
170.5,2143.196612998,3652.92011425999
171,2595.94248068121,3864.46145375233
171.5,3179.83672991788,4046.20689164094
172,3928.97794074206,4148.06697033668
172.5,4866.7709772075,4080.75680267044
173,5969.77280335506,3704.67825676761
173.5,7102.10595766963,2854.4590380394
174,7965.05155070498,1453.15546792587
174.5,8199.410797231,-311.122679422545
175,7676.25351898954,-1990.71760773308
175.5,6633.95146429661,-3196.41689877632
176,5445.37230681773,-3841.84664213733
176.5,4361.4269624241,-4058.46912198802
177,3472.32165107773,-4017.39452488445
177.5,2776.78834963788,-3845.74950005402
178,2241.73743596407,-3619.56030071464
178.5,1830.56797420129,-3379.38951855531
179,1512.45543303709,-3145.14892833173
179.5,1263.78108125004,-2925.65600864785
180,1067.09856643878,-2724.04109126726
180.5,909.67095853863,-2540.63972913939
181,782.196952241657,-2374.49755731705
181.5,677.841433005776,-2224.13821329724
182,591.53502616385,-2087.94596994407
182.5,519.478033336293,-1964.34850044092
183,458.790915890145,-1851.89679076963
183.5,407.267423028463,-1749.29290835058
184,363.199084131236,-1655.39213108099
184.5,325.249357502578,-1569.19324783246
185,292.362512006745,-1489.82415455173
185.5,263.696989353824,-1416.52633644265
186,238.576175298668,-1348.63996070321
186.5,216.4516690085,-1285.59032610162
187,196.875612498079,-1226.87591215679
187.5,179.479651460017,-1172.05802106294
188,163.9587959218,-1120.75189092954
188.5,150.058934619204,-1072.61911514018
189,137.567098036759,-1027.3611948814
189.5,126.303806836768,-984.714061409169
190,116.117015323328,-944.443421420124
190.5,106.877284364248,-906.340797786887
191,98.4739090034862,-870.220156328516
191.5,90.8117926392436,-835.915026055565
192,83.8089089444992,-803.276035040614
192.5,77.3942294635445,-772.16879668831
193,71.5060224272644,-742.472091856725
193.5,66.090449216741,-714.076301242654
194,61.1004008152597,-686.882049916792
194.5,56.4945287885531,-660.799032112967
195,52.2364347469824,-635.744989539649
195.5,48.2939895516726,-611.644820769471
196,44.6387592334529,-588.429802823495
196.5,41.2455190747166,-566.036909027517
197,38.09184084208,-544.40820968249
197.5,35.15774096512,-523.490344146625
198,32.42537969533,-503.23405464417
198.5,29.8788030734264,-483.593773553854
199,27.5037209772902,-464.527257136633
199.5,25.2873156905338,-445.995259677043
200,23.2180763798895,-427.961242867783
200.5,21.2856556428188,-410.391115989704
201,19.4807449197612,-393.253003051143
201.5,17.794966085741,-376.517033569698
202,16.2207769653358,-360.155154121056
202.5,14.7513888705676,-344.140958155701
203,13.3806945568306,-328.449531905659
203.5,12.1032052386006,-313.057314478251
204,10.9139955132392,-297.941970469475
204.5,9.80865521486758,-283.082273631776
205,8.78324736690491,-268.458000304859
205.5,7.83427152613536,-254.049831467738
206,6.95863191699571,-239.83926239911
206.5,6.15360984533036,-225.808519044115
207,5.41683995879523,-211.940480281286
207.5,4.74628998853354,-198.218605365823
208,4.14024366560783,-184.626865896252
208.5,3.59728655737875,-171.149681712307
209,3.11629461496062,-157.771860183896
209.5,2.69642526410449,-144.478538395199
210,2.33711090935593,-131.255127765289
210.5,2.0380547559415,-118.087260677805
211,1.79922888630116,-104.96073871775
211.5,1.62087455920587,-91.8614821340111
212,1.50350472960962,-78.7754801619679
212.5,1.44790881740805,-65.6887418520365
213,1.45515978370021,-52.5872470572564
213.5,1.52662360460846,-39.4568972364296
214,1.66397126582464,-26.2834657287495
214.5,1.86919343649178,-13.0525471515786
215,2.14461801956785,0.250494435150213
215.5,2.49293081822182,13.64057896646
216,2.91719960506494,27.1329657963977
216.5,3.4209019341501,40.7433115135026
217,4.00795709590377,54.4877305771248
217.5,4.68276268395436,68.3828592333954
218,5.45023632184986,82.4459232038988
218.5,6.31586318892089,96.6948096797123
219,7.28575009042297,111.148144198867
219.5,8.36668694043009,125.825373036796
220,9.56621667015455,140.746851797477
220.5,10.892714743514,155.93394095821
221,12.3554796608674,171.409109193643
221.5,13.9648360668419,187.196045385212
222,15.7322523563835,203.319780310687
222.5,17.6704750035019,219.806819105239
223,19.7936822304401,236.685285689666
223.5,22.1176601045462,253.985080472738
224,24.6600047122451,271.738052751026
224.5,27.4403547343554,289.978189348583
225,30.4806595593869,308.741821156131
225.5,33.805489052169,328.067849338296
226,37.4423922823327,347.997993068248
226.5,41.422313958248,368.577060707426
227,45.7800790661529,389.853246353137
227.5,50.5549583552681,411.878453598717
228,55.7913299299569,434.708648147083
228.5,61.5394554252721,458.404240528024
229,67.8563931974256,483.030499506124
229.5,74.8070758377297,508.657995707439
230,82.4655853452914,535.363073365092
230.5,90.9166667551525,563.228345640421
231,100.257530270469,592.343205367066
231.5,110.600003430645,622.804337792093
232,122.073109105145,654.716214241148
232.5,134.826162794401,688.191534599206
233,149.032504630476,723.351570623307
233.5,164.894008507618,760.326339306146
234,182.646543928259,799.254502796493
234.5,202.566606402915,840.28284444606
235,224.979380346685,883.565103186347
235.5,250.268554470529,929.259851705694
236,278.888272305099,977.526964950536
236.5,311.377665380698,1028.52202593566
237,348.378473697717,1082.38772963154
237.5,390.656286936107,1139.24093630534
238,439.125900922904,1199.15344325417
238.5,494.881104341858,1262.12372296366
239,559.228759840318,1328.03573672977
239.5,633.726093129389,1396.59939324535
240,720.218264913714,1467.26523192125
240.5,820.869935543339,1539.10354321372
241,938.17864559265,1610.63578711161
241.5,1074.94800092392,1679.60496139849
242,1234.18314731933,1742.67412440223
242.5,1418.84862603953,1795.0539580897
243,1631.40111146197,1830.09072683462
243.5,1872.98699347111,1838.90969650761
244,2142.20626660072,1810.32034250834
244.5,2433.44875887374,1731.34287344511
245,2735.08850505061,1588.83966449268
245.5,3028.31008906295,1372.63611702614
246,3287.84158605033,1079.90423181421
246.5,3485.79079347291,719.377631699844
247,3598.43263526521,312.851343738561
247.5,3613.45903992729,-108.151003152532
248,3533.85402102793,-510.001480145097
248.5,3376.1473477031,-865.310737002603
249,3164.35255003043,-1157.99436509069
249.5,2923.13410260883,-1383.61768893928
250,2673.08163479669,-1546.4267068349
250.5,2428.85842219209,-1655.42884083622
251,2199.45902073959,-1721.16104466633
251.5,1989.44636495229,-1753.67825797427
252,1800.35213282411,-1761.60467403399
252.5,1631.84976190673,-1751.87584567375
253,1482.59881432224,-1729.84189070147
253.5,1350.7955145634,-1699.51528334251
254,1234.50449393648,-1663.84562369154
254.5,1131.84340263744,-1624.96822101943
255,1041.07517432887,-1584.40880084754
255.5,960.645484765226,-1543.24357380181
256,889.189471598907,-1502.22060901377
256.5,825.522430482622,-1461.8501456829
257,768.623132528119,-1422.47101205306
257.5,717.614636965458,-1384.29912385758
258,671.745205266733,-1347.46274424089
258.5,630.370598282844,-1312.02805204471
259,592.938287488728,-1278.0176514394
259.5,558.973702829027,-1245.42395398831
260,528.068430289683,-1214.21883964667
260.5,499.870176386175,-1184.36061741155
261,474.074283459967,-1155.79902530888
261.5,450.41657940981,-1128.47880575349
262,428.667361315287,-1102.3422451016
262.5,408.626334872702,-1077.33095985346
263,390.118355557665,-1053.3871350665
263.5,372.989840362853,-1030.45436485786
264,357.105739657817,-1008.47820447309
264.5,342.346976780954,-987.406514012584
265,328.608278409998,-967.189652479849
265.5,315.796331769709,-947.780565152624
266,303.828215607918,-929.134795798752
266.5,292.630060902896,-911.21044682807
267,282.135904741115,-893.968104266618
267.5,272.286706979962,-877.370739865296
268,263.029504406713,-861.383599278878
268.5,254.316681310751,-845.974082757429
269,246.105338858753,-831.11162294973
269.5,238.356748532472,-816.767563058241
270,231.035877264123,-802.91503758231
270.5,224.110973873283,-789.528857149179
271,217.553208044519,-776.585398392342
271.5,211.336354445471,-764.062499443796
272,205.436515719832,-751.939361322767
272.5,199.831879037648,-740.196455300874
273,194.502501679451,-728.815436181231
273.5,189.430121797216,-717.779061331348
274,184.597991055823,-707.071115244827
274.5,179.990726331479,-696.676339366387
275,175.594178043157,-686.580366891765
275.5,171.395313031417,-676.769662243988
276,167.382110186372,-667.231464926331
276.5,163.543467270892,-657.953737457678
277,159.869117593551,-648.925117105548
277.5,156.349555363913,-640.134871144486
278,152.97596871514,-631.572855381701
278.5,149.740179509864,-623.229475706843
279,146.634589157594,-615.095652438226
279.5,143.652129768963,-607.16278725307
280,140.786220055726,-599.422732504284
280.5,138.030725457757,-591.867762740658
281,135.379922041045,-584.490548260965
281.5,132.828463765059,-577.284130545469
282,130.371352765259,-570.241899420334
282.5,128.003912337702,-563.357571821827
283,125.721762348789,-556.625172037682
283.5,123.520796824568,-550.039013312759
284,121.397163501676,-543.59368071513
284.5,119.347245146099,-537.284015167057
285,117.367642467254,-531.105098552993
285.5,115.455158473509,-525.052239823772
286,113.606784131808,-519.120962022637
286.5,111.819685208592,-513.30699016472
287,110.091190182016,-507.606239907038
287.5,108.41877912693,-502.014806951068
288,106.800073484122,-496.528957124576
288.5,105.232826634272,-491.145117093594
289,103.714915205101,-485.859865659259
289.5,102.244331047193,-480.669925597829
290,100.819173820357,-475.572156005387
290.5,99.4376441380102,-470.563545111754
291,98.0980372220879,-465.641203530844
291.5,96.7987370255257,-460.802357917216
292,95.538210783364,-456.044345000865
292.5,94.3150039571712,-451.364605974407
293,93.1277355407189,-446.760681208765
293.5,91.9750936977718,-442.230205275226
294,90.855831705482,-437.770902253385
294.5,89.768764179252,-433.380581306009
295,88.7127635570503,-429.057132503213
295.5,87.686756823123,-424.798522879632
296,86.6897224527572,-420.602792709454
296.5,85.7206875613465,-416.468051985233
297,84.7787252424387,-412.392477087419
297.5,83.8629520807198,-408.374307632461
298,82.9725258271034,-404.411843488165
298.5,82.1066432241088,-400.503441945796
299,81.2645379707325,-396.647515039113
299.5,80.4454788168613,-392.842527001208
300,79.6487677781084,-389.086991850627
300.5,78.8737384626622,-385.379471098827
301,78.1197545024305,-381.718571571539
301.5,77.3862080813458,-378.1029433371
302,76.672518554293,-374.531277735281
302.5,75.978131150593,-371.00230550052
303,75.3025157564682,-367.514794973902
303.5,74.6451657713432,-364.067550398542
304,74.0055970332176,-360.65941029339
304.5,73.3833468087166,-357.289245900776
305,72.7779728437587,-353.955959703283
305.5,72.1890524710831,-350.658484005821
306,71.6161817711592,-347.395779579021
306.5,71.0589747832651,-344.166834360266
307,70.5170627637609,-340.970662208932
307.5,69.9900934888029,-337.80630171256
308,69.4777305989468,-334.672815040909
308.5,68.9796529832873,-331.569286844963
309,68.4955542009489,-328.494823198151
309.5,68.025141937909,-325.448550577184
310,67.568137497288,-322.429614880013
310.5,67.1242753213827,-319.437180478587
311,66.6933025438511,-316.470429304149
311.5,66.2749785705757,-313.528559962965
312,65.8690746878595,-310.610786880435
312.5,65.4753736967075,-307.716339471651
313,65.0936695720482,-304.844461336539
313.5,64.7237671458604,-301.99440947779
314,64.3654818132374,-299.165453539874
314.5,64.0186392605351,-296.35687506746
315,63.6830752148068,-293.567966781653
315.5,63.3586352138289,-290.798031872491
316,63.0451743960781,-288.046383306186
316.5,62.742557310106,-285.312343145638
317,62.4506577428214,-282.595241882796
317.5,62.1693585662604,-279.894417781434
318,61.8985516024896,-277.209216228977
318.5,61.6381375063552,-274.538989095983
319,61.3880256658514,-271.883094101945
319.5,61.1481341199514,-269.240894186051
320,60.9183894937968,-266.61175688156
320.5,60.6987269512218,-263.995053692442
321,60.4890901646336,-261.390159470931
321.5,60.2894313023533,-258.796451794625
322,60.0997110335754,-256.213310341736
322.5,59.9198985511773,-253.640116263094
323,59.749971612686,-251.076251549466
323.5,59.5899165997692,-248.52109839271
324,59.4397285967117,-245.974038539264
324.5,59.2994114884006,-243.434452634402
325,59.1689780784392,-240.901719555648
325.5,59.0484502280963,-238.375215733671
326,58.9378590168867,-235.854314458927
326.5,58.8372449256854,-233.338385172216
327,58.7466580433822,-230.826792737259
327.5,58.6661582982024,-228.318896693293
328,58.5958157149374,-225.814050485581
328.5,58.5357106994697,-223.311600671612
329,58.4859343521172,-220.810886100659
329.5,58.4465888114772,-218.311237064188
330,58.4177876306303,-215.811974414501
330.5,58.3996561877342,-213.312408648795
331,58.3923321332562,-210.811838955641
331.5,58.3959658763021,-208.309552220707
332,58.4107211127481,-205.804821988303
332.5,58.4367753981432,-203.296907375089
333,58.4743207686445,-200.785051932047
333.5,58.5235644135663,-198.268482450493
334,58.5847294034744,-195.746407707614
334.5,58.658055478153,-193.21801714667
335,58.7437998991901,-190.682479486604
335.5,58.8422383724158,-188.138941255399
336,58.9536660459423,-185.586525241079
336.5,59.0783985901437,-183.024328853726
337,59.2167733665642,-180.451422391358
337.5,59.3691506934544,-177.866847201915
338,59.5359152164468,-175.26961373292
338.5,59.7174773937715,-172.658699459687
339,59.9142751064109,-170.033046682132
339.5,60.1267754047065,-167.391560179366
340,60.3554764041822,-164.73310471032
340.5,60.6009093447485,-162.056502347532
341,60.8636408290174,-159.360529630111
341.5,61.144275257228,-156.643914520569
342,61.4434574782717,-153.905333148814
342.5,61.7618756785358,-151.143406324977
343,62.1002645328292,-148.356695801074
343.5,62.4594086445003,-145.543700259502
344,62.8401463051014,-142.702851004313
344.5,63.2433736076253,-139.832507328776
345,63.6700489515188,-136.930951530177
345.5,64.1211979824154,-133.996383539877
346,64.5979190149552,-131.026915133411
346.5,65.1013889932323,-128.020563681878
347,65.6328700504935,-124.975245401826
347.5,66.1937167377981,-121.888768056492
348,66.7853840006735,-118.758823056271
348.5,67.4094359934916,-115.582976900854
349,68.06755583363,-112.358661899383
349.5,68.7615564117377,-109.083166098187
350,69.4933923909092,-105.753622338156
350.5,70.2651735466814,-102.366996355363
351,71.0791796220246,-98.9200738293217
351.5,71.937876897342,-95.4094462728294
352,72.843936705756,-91.8314956459078
