"Freq [GHz]","im(S(1,1)) []","im(S(1,2)) []","im(S(1,3)) []","im(S(1,4)) []","im(S(2,1)) []","im(S(2,2)) []","im(S(2,3)) []","im(S(2,4)) []","im(S(3,1)) []","im(S(3,2)) []","im(S(3,3)) []","im(S(3,4)) []","im(S(4,1)) []","im(S(4,2)) []","im(S(4,3)) []","im(S(4,4)) []"
3,-0.623370201524384,0.372146572166285,-0.102373253361497,0.177717421000486,0.372146572166283,0.0275598671553057,-0.177575622135651,0.709302788762638,-0.102373253361497,-0.177575622135653,-0.623645768667146,-0.371221051821986,0.17771742100049,0.70930278876264,-0.371221051821983,0.02319079420648
3.1,-0.551686730925599,0.213294761710095,-0.326843020038939,0.251805212003345,0.213294761710081,-0.078189041691056,-0.253205292913545,0.749766283453369,-0.326843020038941,-0.253205292913537,-0.55528668456713,-0.20876481517411,0.25180521200335,0.749766283453374,-0.20876481517411,-0.0847589645791876
3.2,-0.282062405340115,0.0172016553509339,-0.673334958799232,0.108781648155827,0.0172016553509413,0.0243158873391141,-0.115333634809346,0.500280053335751,-0.67333495879924,-0.115333634809336,-0.2939855679366,-0.00869476487044995,0.108781648155832,0.500280053335741,-0.00869476487044783,0.0224804816200739
3.3,-0.371383259372243,0.163072037310115,-0.498504325298226,0.0408236799599773,0.163072037310183,0.145554101398921,-0.0400284100436925,-0.103308683677243,-0.498504325298225,-0.0400284100436892,-0.380569308243218,-0.16162202972767,0.0408236799599943,-0.103308683677288,-0.161622029727664,0.145883153113008
3.4,-0.605375951764279,0.336396863963753,-0.0563427504936269,-0.0383251065044904,0.336396863963808,0.13894882341202,0.0437218365284659,-0.573008239812408,-0.0563427504936517,0.0437218365284569,-0.605097973151783,-0.341379605384988,-0.0383251065044605,-0.573008239812431,-0.341379605384984,0.146587184492677
3.5,-0.57306429552133,0.270170007391364,0.141458328939583,-0.184353487990946,0.270170007391264,0.0076264726564413,0.187909350208293,-0.726291484803566,0.141458328939553,0.187909350208282,-0.569302592373155,-0.278271196162485,-0.184353487990928,-0.726291484803517,-0.278271196162474,0.0196895212525047
3.6,-0.49729154895332,0.100491380643816,0.320914796641279,-0.24746246532094,0.100491380643963,-0.114073025641274,0.247905004340963,-0.650208938059144,0.320914796641213,0.247905004340929,-0.490292214657728,-0.109495112818244,-0.247462465320879,-0.650208938059198,-0.109495112818248,-0.105443461901771
3.7,-0.32265014886353,-0.083188105500332,0.559153905681003,-0.136638248962131,-0.0831881055003336,-0.0202446490478851,0.133094669989222,-0.331410840659691,0.559153905680994,0.133094669989231,-0.310598091377025,0.0770145185304576,-0.136638248962126,-0.33141084065968,0.0770145185304718,-0.0200141815578879
3.8,-0.3008956232631,-0.00823886242380247,0.489114300490992,0.0169690598614686,-0.00823886242378186,0.161147926778386,-0.0170255730557781,0.241845359748713,0.489114300490973,-0.017025573055781,-0.292538444527202,0.00910176610502271,0.0169690598614918,0.24184535974872,0.00910176610502622,0.16089717818977
3.9,-0.527952646251341,0.212657910841715,0.0214833242628929,0.0695438701189127,0.212657910841717,0.118322577173657,-0.0703939891932082,0.671557326927066,0.021483324262893,-0.0703939891932049,-0.527552667678823,-0.214289276406139,0.0695438701189131,0.671557326927067,-0.21428927640614,0.119051255062629
4,-0.45822433875895,0.141645356298348,-0.152779021209671,0.194409343454805,0.141645356298346,-0.0466355803516097,-0.196544114778685,0.694468987440216,-0.152779021209671,-0.196544114778689,-0.456676823662421,-0.146390978643655,0.194409343454805,0.69446898744022,-0.146390978643653,-0.0420523782264646
4.1,-0.373389748928529,-0.0389204299045047,-0.292631609776053,0.234297648009433,-0.0389204299045054,-0.182894175701559,-0.234779912865535,0.515339151370469,-0.292631609776052,-0.234779912865533,-0.368638809756313,0.0313716125080939,0.23429764800943,0.515339151370467,0.0313716125080913,-0.177990402346247
4.2,-0.267479906045779,-0.222586771975851,-0.454053995285307,0.13814008322813,-0.222586771975858,-0.0917741524915985,-0.133835015168557,0.1690210957251,-0.454053995285304,-0.133835015168554,-0.255918168209829,0.214480822145768,0.138140083228125,0.169021095725099,0.214480822145766,-0.0944308331901288
4.3,-0.252684159287158,-0.178159041531797,-0.406717059326743,-0.038861499955562,-0.178159041531789,0.129096887525603,0.0404261556932717,-0.351682995175959,-0.406717059326745,0.0404261556932716,-0.239088357705181,0.179316972479896,-0.0388614999555599,-0.351682995175961,0.179316972479896,0.123800805160006
4.4,-0.365780688961619,0.0623752833522732,-0.0429459500916565,-0.110328444256973,0.0623752833522709,0.0522574652882112,0.107006042665902,-0.720414824141801,-0.0429459500916558,0.107006042665905,-0.365103082808744,-0.0580139258647767,-0.110328444256973,-0.720414824141806,-0.0580139258647799,0.0469459844073947
4.5,-0.266068013744304,0.00882854817728011,0.117084790365923,-0.204483842036716,0.00882854817728148,-0.151493306986945,0.204444811647079,-0.622878022322502,0.117084790365923,0.204444811647081,-0.267255444790637,-0.00499751173152949,-0.204483842036716,-0.622878022322506,-0.00499751173153114,-0.156214777036743
4.6,-0.181416789601338,-0.169629825958415,0.232286940525264,-0.2110334799139,-0.169629825958413,-0.279438310797309,0.212373120926488,-0.372760430982253,0.232286940525268,0.212373120926492,-0.18267858523445,0.172783917069588,-0.211033479913914,-0.372760430982239,0.172783917069594,-0.279967197267814
4.7,-0.130488891546945,-0.341126142495015,0.346418626272204,-0.126602240230515,-0.341126142495029,-0.178623793531797,0.127601056176225,-0.0415457228286465,0.346418626272195,0.12760105617616,-0.131322401863813,0.342938913794864,-0.126602240230478,-0.0415457228286334,0.342938913794843,-0.176348027620559
4.8,-0.1281794040096,-0.307523956852666,0.353048394458442,0.0284610315309495,-0.307523956852617,0.0362700356647829,-0.0292681060046702,0.428881440333646,0.353048394458491,-0.0292681060047061,-0.127968327489142,0.307419303537548,0.0284610315309444,0.428881440333559,0.307419303537543,0.0382642314952122
4.9,-0.121583853542929,-0.0827452299612191,0.144288598369378,0.156060519867177,-0.0827452299611924,-0.0322118082218419,-0.157500645278611,0.732108042774622,0.14428859836936,-0.157500645278641,-0.120708569152379,0.0813081089358711,0.15606051986719,0.732108042774633,0.0813081089358774,-0.0300374542031677
5,-0.0320645908942672,-0.0826470603047358,-0.0503081127125202,0.215054568415041,-0.0826470603047324,-0.250532972987888,-0.21625709324364,0.562777294386333,-0.0503081127125248,-0.216257093243643,-0.0306139524357643,0.0804629077941036,0.215054568415044,0.562777294386338,0.0804629077941063,-0.247776196934408
5.1,0.0274735095060302,-0.239024184867407,-0.187570211306775,0.19089469906963,-0.23902418486741,-0.338300400536436,-0.191317059521466,0.261867294115199,-0.187570211306777,-0.191317059521468,0.0299485461860541,0.235943041766809,0.190894699069629,0.261867294115196,0.235943041766811,-0.336428345955655
5.2,0.0408302185092507,-0.387946329822413,-0.307692172239653,0.118560639691466,-0.387946329822411,-0.232255426711651,-0.117211604211116,-0.0878153680718286,-0.307692172239658,-0.117211604211119,0.0456240523981401,0.384352895300568,0.118560639691469,-0.0878153680718307,0.384352895300569,-0.234310031194692
5.3,0.0466990506872477,-0.376174173289415,-0.378397047636651,-0.0333766651825436,-0.376174173289461,-0.0313619838292078,0.0364937622744527,-0.516508723418386,-0.378397047636662,0.0364937622744856,0.0553530730048343,0.375273842212159,-0.033376665182577,-0.516508723418412,0.375273842212153,-0.038058115020855
5.4,0.114906413110245,-0.175431661581315,-0.251519931059644,-0.207365628371743,-0.175431661581317,-0.0659924239168267,0.20723421705085,-0.732062488820771,-0.251519931059644,0.207234217050847,0.122345280501077,0.180930387441576,-0.207365628371732,-0.732062488820776,0.180930387441566,-0.0705142871259431
5.5,0.172796116882656,-0.113394049894126,0.0203420345246589,-0.208943157246754,-0.113394049894133,-0.313658527442723,0.206799880073111,-0.495286189879206,0.0203420345246584,0.206799880073113,0.172485620249341,0.120293886002959,-0.208943157246753,-0.49528618987921,0.120293886002957,-0.315481022029138
5.6,0.18804030095928,-0.261461441221723,0.215875680475153,-0.154257022288895,-0.261461441221722,-0.388821790344646,0.154240497473497,-0.118033275167385,0.215875680475151,0.154240497473498,0.18403143110709,0.266054081238989,-0.154257022288896,-0.118033275167385,0.266054081238986,-0.387811502841513
5.7,0.194769353215941,-0.426341723641743,0.328603938412466,-0.0992866126713736,-0.426341723641701,-0.286485193470404,0.0996625117552276,0.236917486732241,0.328603938412475,0.0996625117552125,0.190588085020757,0.428310324015418,-0.0992866126713778,0.236917486732242,0.428310324015424,-0.282472768537982
5.8,0.20242851626305,-0.451108715237682,0.392597470093977,0.0235612014382693,-0.451108715237675,-0.0860540658632748,-0.0250412787532425,0.579245115746189,0.392597470093973,-0.0250412787532389,0.200778791857074,0.450938898721471,0.0235612014382652,0.57924511574619,0.450938898721461,-0.0816038241056251
5.9,0.269544512726763,-0.260571432158705,0.300358146875695,0.216749659191096,-0.260571432158697,-0.0740170122804875,-0.217774814839167,0.703531810249764,0.300358146875696,-0.217774814839174,0.272367458603382,0.262491354052943,0.216749659191096,0.703531810249759,0.262491354052944,-0.0686248436307357
6,0.297594743294387,-0.121496712987783,-0.0398939904471121,0.200947496318505,-0.121496712987798,-0.372694791737154,-0.197563748447286,0.380759994101287,-0.0398939904471095,-0.197563748447288,0.297394410748254,0.127578480499665,0.200947496318505,0.380759994101275,0.127578480499659,-0.367605486574364
6.1,0.290784448712638,-0.27481199212628,-0.280030506590564,0.137224749694998,-0.274811992126304,-0.430433309254798,-0.137092925949675,-0.0587969444800214,-0.280030506590555,-0.137092925949672,0.287674754512981,0.279817569315877,0.137224749694995,-0.0587969444800398,0.279817569315872,-0.428495740785752
6.2,0.338488378194899,-0.45671900265427,-0.335174683985814,0.0964589652860294,-0.456719002654262,-0.305930960601984,-0.098036418225954,-0.360978815574326,-0.335174683985807,-0.0980364182259512,0.3359029114111,0.460079209146528,0.096458965286027,-0.360978815574315,0.460079209146518,-0.302275119501543
6.3,0.356748868400587,-0.491115198227749,-0.358918411640958,-0.00877107871421546,-0.491115198227681,-0.106176802103957,0.00809272479859809,-0.582550328159675,-0.358918411640965,0.00809272479860559,0.354054041205581,0.492018497224839,-0.00877107871421218,-0.582550328159657,0.492018497224845,-0.101752010385712
6.4,0.371901693707456,-0.295341761333755,-0.30309697379835,-0.203058290439359,-0.295341761332844,-0.0536074235239813,0.204256081680962,-0.631853887762909,-0.303096973798376,0.204256081681009,0.371503952542371,0.294091305426684,-0.203058290439371,-0.631853887762589,0.294091305426682,-0.0511702959877576
6.5,0.377607086880279,-0.0884917966931187,0.0601929596966005,-0.217630146410369,-0.0884917966931279,-0.378592853832089,0.217245449155501,-0.250443448213887,0.060192959696602,0.217245449155496,0.377972093434881,0.0892949886954089,-0.217630146410365,-0.25044344821389,0.0892949886954095,-0.376779484521115
