"Freq [GHz]","im(S(1,1)) []","im(S(1,2)) []","im(S(1,3)) []","im(S(1,4)) []","im(S(2,1)) []","im(S(2,2)) []","im(S(2,3)) []","im(S(2,4)) []","im(S(3,1)) []","im(S(3,2)) []","im(S(3,3)) []","im(S(3,4)) []","im(S(4,1)) []","im(S(4,2)) []","im(S(4,3)) []","im(S(4,4)) []"
3,-0.650149677237045,-0.367292300473911,0.115569244867155,-0.0110897049221732,-0.367292300473912,0.17568200573823,-0.0179845126471652,-0.171271883323977,0.115569244867155,-0.0179845126471645,-0.648410392342,-0.364783146221247,-0.0110897049221727,-0.171271883323975,-0.364783146221246,0.174878161827204
3.1,-0.648693412766355,-0.423961694499254,-0.045358076008111,0.0779153982176793,-0.423961694499255,0.146499770557697,0.0701419434069187,-0.452730347185378,-0.0453580760081154,0.0701419434069129,-0.651795185801221,-0.418375473640478,0.0779153982176882,-0.452730347185386,-0.418375473640468,0.13835864760235
3.2,-0.592571334236939,-0.400941403425479,-0.168050193262512,0.170309466880283,-0.40094140342548,0.0621601883941643,0.164113599519444,-0.62725452584594,-0.168050193262513,0.164113599519442,-0.599608937442521,-0.391840901871214,0.170309466880288,-0.627254525845945,-0.391840901871212,0.046897916816948
3.3,-0.524389027324164,-0.314226451735664,-0.282764921163567,0.232442194623444,-0.314226451735665,-0.0495759851439926,0.229203228238949,-0.706988417024203,-0.282764921163571,0.229203228238949,-0.535770232285228,-0.301117509599095,0.232442194623444,-0.706988417024196,-0.301117509599093,-0.0689545504557725
3.4,-0.438800838993076,-0.184366798806469,-0.408180417385184,0.244923278047686,-0.184366798806471,-0.134219981948081,0.246761635960115,-0.694942544643133,-0.408180417385189,0.246761635960115,-0.456163304321109,-0.167245319132781,0.24492327804769,-0.694942544643127,-0.167245319132775,-0.152285085806131
3.5,-0.315206207446254,-0.0192011182433624,-0.556292046491514,0.175404194015428,-0.0192011182433671,-0.126811297583259,0.185050143492655,-0.586469698168614,-0.556292046491513,0.185050143492662,-0.341579731025252,0.000503248863917566,0.175404194015422,-0.586469698168606,0.000503248863914805,-0.135548294608939
3.6,-0.184270210961218,0.153878563667451,-0.676318540808862,-0.00378686022228421,0.153878563667451,0.0348382722434556,0.0126034580346167,-0.394659547534297,-0.676318540808864,0.012603458034614,-0.219823914676737,0.16919729177058,-0.00378686022228301,-0.39465954753429,0.169197291770576,0.0416616097365461
3.7,-0.341007595926103,0.122136488048568,-0.447065204473098,-0.0969414364744279,0.122136488048565,0.226930866442283,-0.0924135265771526,-0.0774906867712318,-0.447065204473098,-0.0924135265771574,-0.363661981022827,0.121341923587938,-0.0969414364744286,-0.0774906867712267,0.121341923587932,0.235374543997696
3.8,-0.596294975665762,-0.122022714573064,-0.0483121212330114,-0.045221171634434,-0.122022714573063,0.219224036053466,-0.0531910300908646,0.351288011078135,-0.0483121212330124,-0.0531910300908642,-0.597042461500891,-0.129322093737684,-0.0452211716344335,0.351288011078133,-0.129322093737685,0.224992254762146
3.9,-0.585422514749394,-0.22204030665582,0.128411535623915,-0.0956539426682109,-0.222040306655818,0.122996549384428,-0.101855533437687,0.601231712359278,0.128411535623915,-0.10185553343769,-0.580697592497864,-0.229396229449189,-0.0956539426682112,0.601231712359279,-0.229396229449189,0.134373073126074
4,-0.489876571108643,-0.195955096621046,0.217102705809045,-0.16448595931172,-0.195955096621044,-0.0204831261109542,-0.167168865328022,0.668603196720313,0.217102705809046,-0.167168865328021,-0.484694911549819,-0.203736248455757,-0.164485959311722,0.668603196720313,-0.203736248455754,-0.00694557285375351
4.1,-0.390750249680605,-0.0964815272179272,0.281466648982913,-0.202851327932718,-0.0964815272179322,-0.164913800148949,-0.203405685215838,0.629951226490047,0.281466648982913,-0.203405685215841,-0.38559672078013,-0.104490460299681,-0.202851327932717,0.62995122649005,-0.104490460299681,-0.153917539240117
4.2,-0.303046918822556,0.0423704608799214,0.339611897283655,-0.201626492460547,0.0423704608799202,-0.256683487077055,-0.201272873205549,0.529117799853178,0.339611897283656,-0.201272873205561,-0.297799001257112,0.0350581634981969,-0.201626492460545,0.529117799853181,0.0350581634982005,-0.251012394143187
4.3,-0.226918833422259,0.199117356830168,0.396675257764816,-0.152365656061726,0.199117356830174,-0.247962872746115,-0.152045044136052,0.378733273819483,0.39667525776482,-0.152045044136055,-0.221599405117233,0.194071161498415,-0.152365656061729,0.378733273819485,0.194071161498418,-0.248385683457792
4.4,-0.173897843330677,0.338417200648126,0.43315349859845,-0.0444882677151732,0.338417200648129,-0.098320562733939,-0.0452724849993021,0.17919690454441,0.433153498598432,-0.0452724849993085,-0.169117035926968,0.337731956236758,-0.0444882677151501,0.179196904544401,0.337731956236754,-0.102234709837769
4.5,-0.194578769937474,0.359503284720867,0.363505971899609,0.0833875872674218,0.35950328472087,0.128916374316622,0.0805405690845252,-0.0848768726453549,0.363505971899598,0.080540569084523,-0.192089377463841,0.363444782008971,0.0833875872674243,-0.0848768726453593,0.363444782008973,0.128938337028144
4.6,-0.288458229132324,0.185860796330329,0.141219633898218,0.126888780543617,0.185860796330337,0.189545870095299,0.124846169552244,-0.414266106082682,0.141219633898182,0.124846169552226,-0.288838066678555,0.188188982411108,0.126888780543647,-0.414266106082692,0.188188982411099,0.196178907321935
4.7,-0.278078978937063,0.0242917661187372,-0.0470723937521152,0.151471845112493,0.0242917661187344,0.0256737147753667,0.153441446200499,-0.616864383877581,-0.0470723937521139,0.153441446200504,-0.277563320419441,0.0198169942021077,0.151471845112482,-0.616864383877589,0.0198169942020971,0.0344349782482481
4.8,-0.183976292581816,0.0153526087469247,-0.151499213713196,0.17909553882575,0.0153526087469294,-0.180164894287613,0.182993886541329,-0.610677929933497,-0.151499213713217,0.182993886541321,-0.180222309749286,0.00562340514073625,0.179095538825765,-0.610677929933506,0.00562340514074386,-0.170910063939808
4.9,-0.0886465010133985,0.0969988483409791,-0.213981733836503,0.18237011662384,0.0969988483409907,-0.322083485185587,0.185779003588304,-0.520915064598789,-0.213981733836522,0.185779003588304,-0.0812893916156473,0.0846049272084365,0.182370116623848,-0.520915064598809,0.0846049272084437,-0.313265181718587
5,-0.0157925292075069,0.209928629938219,-0.26028862589061,0.161313828126669,0.209928629938227,-0.376341493645054,0.162815641276767,-0.402011490569966,-0.260288625890603,0.162815641276778,-0.00461449836208476,0.196856403320395,0.161313828126656,-0.402011490569973,0.196856403320389,-0.370699224058297
5.1,0.0306420549578058,0.322925200242314,-0.303296674701045,0.120992096302351,0.322925200242315,-0.342133673375807,0.119911812974721,-0.25063343795741,-0.303296674701037,0.119911812974724,0.0460576178132024,0.311095913341016,0.120992096302344,-0.250633437957409,0.311095913341006,-0.343221403059511
5.2,0.0538779710055355,0.40804106635214,-0.342730124542659,0.0583397100246909,0.40804106635214,-0.232162752951111,0.0546572410104172,-0.0482931713429591,-0.342730124542658,0.0546572410104162,0.0736574745463073,0.399986098959915,0.05833971002469,-0.04829317134296,0.399986098959915,-0.242322204683618
5.3,0.0672368105429866,0.42780403285533,-0.357913129137255,-0.0382829777008344,0.427804032855327,-0.0728885446029673,-0.0432878763934809,0.210142373885209,-0.357913129137253,-0.0432878763934825,0.0896675087336063,0.427016546304205,-0.0382829777008339,0.210142373885211,0.427016546304206,-0.0927734072050381
5.4,0.0951215438492006,0.353948267091656,-0.303513165278247,-0.166687075175262,0.353948267091656,0.0576565913188977,-0.169614735136877,0.471006622233637,-0.303513165278245,-0.169614735136877,0.114495923617,0.363347035363334,-0.16668707517526,0.471006622233635,0.363347035363331,0.0335868942916472
5.5,0.142249638451456,0.224676199686244,-0.14814543826937,-0.263243892420319,0.224676199686247,0.028395133431849,-0.260576128239129,0.616757462115687,-0.14814543826937,-0.260576128239124,0.150587179380431,0.241947389771352,-0.263243892420314,0.616757462115696,0.241947389771348,0.0102093819954783
5.6,0.170686196126385,0.133513025744899,0.0644794890172462,-0.250801677303015,0.133513025744893,-0.172334038006036,-0.243638683922197,0.596777345511008,0.06447948901725,-0.243638683922203,0.165505890945092,0.151002956210391,-0.25080167730301,0.59677734551101,0.151002956210385,-0.180600086442141
5.7,0.174522016222799,0.132563462573626,0.245840214671079,-0.164430150090009,0.132563462573633,-0.384067202217041,-0.157874658073623,0.464602280819495,0.245840214671085,-0.15787465807362,0.161347130284369,0.145194735788528,-0.164430150090001,0.464602280819507,0.145194735788522,-0.386235584965649
5.8,0.192964385928988,0.214154506517316,0.343949118716274,-0.0877878884484328,0.214154506517311,-0.483030708908874,-0.0855141315806606,0.272387806395143,0.343949118716267,-0.0855141315806689,0.178671868651049,0.222121493701053,-0.0877878884484233,0.272387806395153,0.222121493701042,-0.48340271775053
5.9,0.235611287349497,0.329945355963861,0.371978738473747,-0.0410949189568924,0.329945355963868,-0.460749853287573,-0.0434145925343071,0.0593152210355593,0.371978738473753,-0.0434145925342996,0.223203254891343,0.335011983766848,-0.0410949189568963,0.0593152210355628,0.335011983766854,-0.461651271645064
6,0.284123352087875,0.430652025242214,0.365446208012754,-0.00163800461131901,0.430652025242216,-0.357758767146431,-0.00739491745893637,-0.151858601834692,0.365446208012768,-0.00739491745893842,0.273200151666053,0.433780076868113,-0.00163800461131093,-0.151858601834668,0.433780076868112,-0.35181473319211
6.1,0.32646365154605,0.480633576979908,0.34192185388552,0.0557539868452351,0.480633576979909,-0.193526112324598,0.047997830807869,-0.354032134189758,0.341921853885514,0.047997830807878,0.315570685655502,0.481337520966258,0.0557539868452202,-0.354032134189785,0.481337520966266,-0.185103258373817
6.2,0.362045361235958,0.455184524741257,0.293033907610649,0.147781194488238,0.45518452474127,-0.0206499234739488,0.140423116849548,-0.533018640491557,0.293033907610653,0.140423116849568,0.349959813084943,0.450531378445093,0.147781194488225,-0.533018640491465,0.450531378445119,-0.00963301910319155
6.3,0.398589431787591,0.351385183128313,0.18368604565751,0.262181851598405,0.35138518312832,0.0645093357987048,0.260063600229866,-0.598846359101501,0.183686045657494,0.260063600229856,0.387632432085208,0.336044094769551,0.262181851598403,-0.598846359101537,0.336044094769557,0.0719491690123773
6.4,0.441836354655236,0.215267223731175,-0.0254132487935135,0.295389460640448,0.215267223731182,-0.0921728597572551,0.3046386119047,-0.464251931324942,-0.0254132487936282,0.304638611904785,0.443886403414291,0.188692269203036,0.295389460640313,-0.464251931324653,0.188692269203037,-0.100412133729747
6.5,0.353615100931892,0.130931237995005,-0.288919390876141,0.153302176468915,0.130931237995006,-0.401224437010482,0.167690983604347,-0.244328479568415,-0.28891939087613,0.167690983604328,0.370970039790956,0.105869430524157,0.153302176468961,-0.244328479568414,0.105869430524177,-0.418161610231853
