!	The ports are defined by
!	
!	Port 1 -----> |      	| -----> Port 2
!	              |   DUT	| 
!	Port 3 -----> |      	| -----> Port 4
!	
# MHz S DB R 50
! S-Parameters data
!        dbS11  angS11   dbS12  angS12   dbS13  angS13   dbS14  angS14
!        dbS21  angS21   dbS22  angS22   dbS23  angS23   dbS24  angS24
!        dbS31  angS31   dbS32  angS32   dbS33  angS33   dbS34  angS34
!        dbS41  angS41   dbS42  angS42   dbS43  angS43   dbS44  angS44
!     
    50.000   -20.63378871796066     7.07741031427308    -3.58804704725936   -28.65966151904031   -22.00722809435554    22.48820844122307   -28.07488115095765  -125.08466173956737
              -3.46967542661179   -27.88436081306303   -20.52933398619112     4.02333652696784   -27.92400672956173  -121.65270113794389   -22.05949837879935    22.79069318942371
             -22.18786334741029    22.72850527348543   -28.35466221417483  -123.98481395538907   -21.14988535828008     7.41588356759692    -3.52755751119533   -27.84309973446144
             -27.69573636061689  -121.78764338446136   -21.98036972273975    22.52456530212158    -3.49842422025824   -28.05926149685964   -20.96677824874946     3.91604753561977
    60.000   -12.31595548383825   -33.42662605346536    -4.33645216031305  -102.80422421620415   -13.94633710545776   -24.52606330324611   -25.62651078045585   117.91588457039711
              -4.30261011244044  -102.82185358785352   -12.13172436490201   -38.46121438549891   -25.55206744647498   117.47005053931885   -13.96430038186987   -23.63779465571454
             -13.97165061276325   -23.81418829535655   -25.55729676305817   120.10759585131791   -12.68541103744681   -34.79383597597911    -4.27715013859232  -103.09102427742727
             -25.62678118110927   119.19678134043824   -13.95339521807742   -23.41254015822895    -4.27932754801028  -102.90627549392934   -12.64254569928504   -38.35699510263355
    70.000   -10.81308451703019   -85.83189042538832    -4.78606949763307  -174.40995606210097   -12.79274322739056   -80.59670007146936   -25.72569946460165     0.97505963640943
              -4.75651770811294  -174.17547890445414   -10.78140246542560   -90.83549921132368   -25.70794737944243     1.03621896673249   -12.67659805716147   -79.15611815951033
             -12.80261379319111   -81.13601245595139   -25.72615913570074     0.96526956096558   -11.32622068738997   -87.01964925037099    -4.70705779103350  -174.51203125909876
             -25.64966524699485     2.12331894191739   -12.71411186729968   -79.22807128393440    -4.73577867254649  -174.59034731037795   -11.36971190931687   -90.27927730867984
    80.000   -12.88848452385580  -138.06869089728241    -4.70091304186237   113.82391282327785   -15.31238762596379  -137.74216739715746   -27.43549899206533  -115.07700285060183
              -4.70164523881099   113.74562926824817   -12.93583977197399  -142.74505563501214   -27.12553358315937  -118.45734717807207   -15.16837646465182  -136.20997203584710
             -15.27175903034845  -138.18255675134759   -27.14696457053016  -118.36362937279769   -13.59365008270992  -139.78705601162997    -4.63961781614085   112.90585057966744
             -27.24396232502397  -116.38175008743542   -15.16331810190876  -136.21113392824645    -4.67027334633868   113.12670142016441   -13.50300182336201  -141.71667136142247
    90.000   -21.02546622869794   179.14970842464822    -4.45103915570886    38.64436085923511   -24.13133629415188   174.26103838286269   -30.82297403951106   123.46445103717414
              -4.45027382044838    38.31499756650254   -20.97149743222110   175.02104671751758   -30.31980408938416   119.57150322997897   -23.98505309335705   176.56175020126469
             -24.08999812882367   173.46776768999655   -30.40346735511623   120.52537255900964   -21.80833809389662   177.60615070887786    -4.45355476962153    38.04649316984093
             -30.64093052476405   121.32926668700081   -23.93670169611467   176.39135150371371    -4.48474699482525    37.94122369048986   -21.56549515866299   177.20556903185468
   100.000   -25.18590249240872  -137.80982700531294    -4.57886622275952   -37.61830232606451   -29.98875467660070  -145.99881286887634   -34.71913286763658     6.40414466431309
              -4.51883829100422   -37.47057052980833   -25.02055220608835  -141.54397257377127   -34.11212937786068     8.21157917763817   -29.72194682170789  -140.96455144249626
             -29.94146931123534  -145.35411536928547   -34.37963970335184     5.84059177233194   -25.78588978766688  -139.49119720465208    -4.52790486529273   -38.27615430024855
             -34.65248282896309     7.56376055518322   -29.79924689429029  -140.69397571024325    -4.49831192990577   -37.86043800508608   -25.39393469565993  -138.69438681646409
   110.000   -25.08548591947869  -169.28517345608904    -4.76533797241790  -112.97285097036779   -32.15518930464303  -178.17520696693745   -36.42131561434576   -95.11453544949180
              -4.73501174241295  -113.04490513335951   -24.87014276347086  -170.77991250834765   -35.93198701488080   -93.00457395016258   -31.66245156798426  -169.72231656670746
             -32.05046466277899  -178.23958380103434   -36.41659803417138   -93.07469099646681   -25.66794171195917  -171.47465114189234    -4.77001858561323  -113.65010438141063
             -35.90443319749578   -95.64651568065790   -31.64976139479897  -169.82295768463470    -4.73993202630263  -113.57374889231204   -25.13684253324394  -168.53288277400696
   120.000   -31.97515400127058  -148.89863572010162    -4.96251942235474   171.70262388479236   -45.78606810588406  -134.71560473520685   -35.62125662584427   166.48455002468469
              -4.96246269533866   171.61754284243526   -31.61352690655633  -149.21435551312371   -35.53705976834856   167.15875634581806   -42.58254125544436  -119.34146283314624
             -45.52552489726544  -134.18093920573639   -35.62672756485654   166.84724532660195   -32.22037133729686  -151.75781791837400    -4.93378020620531   171.19573630640554
             -35.70272996795328   165.36950773262220   -42.54344106617271  -119.19597578100706    -4.99380447028560   171.03489896448372   -31.65271646923369  -147.65889466171345
   130.000   -28.14035837386436  -148.33792058410387    -5.17419251494992    96.51035886940126   -35.13688949623069   -44.95637063770358   -34.25680664556449    74.16966786446685
              -5.17427655549421    96.59960547179021   -27.61789705879730  -146.76861430281255   -34.55725745322515    73.77240493023618   -32.77093584235641   -62.61523649439963
             -35.19136140081549   -45.06209479086739   -34.55318699136728    74.32185921581868   -27.69480781020052  -157.74647616543018    -5.17336092496458    96.30055962461522
             -34.36123691269425    72.38208190808589   -32.70593169893960   -62.66266218770135    -5.17350317246611    95.87246721930538   -27.13151596616705  -150.13952848156543
   140.000   -29.82904553429859  -142.03771941733496    -5.44752452976812    21.61715177512490   -24.26256267893477   -83.38812928733312   -33.61849957652613   -22.35147811852242
              -5.47754812547540    21.65548663636395   -29.01055395646426  -142.37642885465797   -33.93842710538773   -20.76053881263448   -23.72878818528641   -93.83556476821924
             -24.23396117826044   -82.72540514909719   -34.07382742912127   -21.85930899005145   -30.43567012831754  -169.39080977117743    -5.44669546548091    21.32554904946412
             -33.57084916519017   -21.20188741181491   -23.73769648096729   -94.09421997213693    -5.44628217446750    20.95313458401262   -31.02292143139934  -156.76114119657933
   150.000   -25.68017561728760  -148.44255722114937    -5.66778307807870   -52.54232795166735   -21.88175537819739  -138.26999398601737   -33.56996408202467  -100.79453574203076
              -5.66754514949189   -52.55324339093887   -25.26361459085985  -144.84836903797358   -33.93381545201507  -100.54353424855250   -21.67281382581426  -145.50860397137842
             -21.90821032086305  -138.07090600595998   -33.90863408113010  -100.03320361436560   -28.05889410257837  -162.78476481363452    -5.63345731013554   -53.23908421778405
             -33.50188938111121  -100.77613997793449   -21.66648494112894  -145.10857841246596    -5.63374212568082   -53.41770201617187   -27.35239906872721  -139.48156473260900
   160.000   -26.47990253347079   176.59977657503455    -5.84589598912739  -127.32534172797476   -25.37852899665364   176.47123064778231   -32.55001657301122  -178.60026739830334
              -5.84606128498539  -127.19233218684502   -26.00140493541865  -177.41706477372153   -33.01623428379739  -176.70578082231484   -25.25377295905345   171.32448316403026
             -25.39907544064391   176.60936002956009   -32.95271932241267  -177.34358774988632   -28.22408343882465   167.17632545895938    -5.87813197460891  -128.03190029220281
             -32.62230917167635  -177.06222033075233   -25.21912000732783   170.98766316027022    -5.81758532182418  -127.90448264115683   -27.21285961198622  -169.40869164176286
   170.000   -27.94606902879279  -159.70960259052310    -6.03021856158125   157.79392489117146   -28.43795948922302  -162.04600665247503   -30.86406825917005   101.43177544082971
              -6.00027318823421   157.95608362616042   -27.41609618359124  -152.93009029169178   -31.33311682546417   100.95998602926210   -28.43425878292436  -165.68026019520426
             -28.45888227387347  -162.05503219906328   -31.36840050403720   100.72339393258586   -29.10435350110486  -168.01618349630729    -6.04112236101138   157.30937644634079
             -30.93274185023872   102.03345320965498   -28.39323292994816  -165.42210300430642    -6.01075704180657   157.14268823783726   -27.98258116439313  -145.05213598064327
   180.000   -23.08698052481242   177.06146362169062    -6.28069390314356    83.19377846418151   -24.64695781374725   174.59106046426763   -30.14561300990298    17.93001777006555
              -6.31119962235615    83.01911306065293   -22.80041653564906  -175.01956047092190   -30.49836651753122    16.95783471824614   -24.54422401564054   171.95556307786688
             -24.70374094444039   174.96455627341959   -30.49526957590576    17.19242227912206   -23.92331440714978   168.50462231230040    -6.32479792863304    81.91897982443356
             -29.98968057622721    18.29909391891807   -24.51717683013516   171.91061315220219    -6.29449583343815    82.12817783030776   -23.25584579314378  -168.17818187659512
   190.000   -24.73521067899504   171.72022727887540    -6.53010851861239     7.85341751621022   -27.06988133522413   171.97909429041823   -28.36355083000065   -64.49390077232143
              -6.52967526114864     7.69991271240666   -24.52416660248658   178.99090568623870   -28.94042489895804   -67.01209401899868   -27.12673989185038   169.25529672153459
             -27.06876949732150   172.26583952872207   -28.82038462076126   -67.20448268840801   -25.35456995931266   163.35652658659231    -6.54727889516523     7.00120838127991
             -28.41315947538670   -64.09174088409976   -27.12645236404384   169.55931022091718    -6.54670362561491     6.91257904752866   -24.73555035336783  -173.28474741856473
   200.000   -17.24011537954002   168.41923048221201    -7.06400478246074   -67.38761262763919   -19.68503845928782   167.08025025679970   -27.00684720226360  -160.44917960779890
              -7.03448034349342   -67.74620671367079   -17.29593160570356   174.22784746545335   -27.64129079980052  -165.32317085599306   -19.54080906565788   166.34386411450129
             -19.67196629492530   167.15167124946041   -27.68607012964800  -164.95342439720142   -17.47235099744379   159.26237523601682    -7.04709237719035   -68.37863212807434
             -26.99148553587854  -160.64404702897230   -19.55615989538640   166.41428587824169    -7.07702257934537   -68.29225238148295   -17.33391773196201  -179.42124093524862
   210.000   -13.37248573913623   118.84989906227165    -7.65546536970641  -140.03732253068691   -16.44113225985218   118.27912616221087   -28.07514418437842    95.42934753437217
              -7.65495400309675  -139.78209645981724   -13.62587365323780   123.27632820544042   -28.93074037314503    88.31158191520233   -16.28593696161718   116.96798558221992
             -16.45095289005733   118.38645322067478   -28.95103173506558    88.48507910466805   -13.43136167637548   109.30122121038345    -7.69141178882185  -140.89358756093540
             -28.03117794368654    95.48413151778098   -16.25581604264290   117.01121951862056    -7.66167443796010  -140.98367324915810   -13.59594596351098   129.54435381250110
   220.000   -13.42758611062717    67.04790622830733    -7.87127163299881   149.57543254303718   -16.72464537254746    69.43494435150059   -31.71721491122307   -10.20472994477849
              -7.87027293771485   149.49206512911161   -13.84453856442949    68.59635777334262   -32.93980594344129   -21.44095319508907   -16.75760148950606    68.17808705352427
             -16.76273833865400    69.59864069640722   -32.88572685528301   -21.61500611052525   -13.31291793974250    57.07421602938398    -7.87302258729925   148.52390730152609
             -31.66279827399748   -10.03505750060706   -16.71284598149756    68.20696591690788    -7.84419267746941   148.42027807988572   -13.71157171468594    75.06341219861447
   230.000   -17.27712034449353    19.19624679514857    -7.62308577623083    77.11712551296898   -20.50014554027933    23.05589369798204   -42.72293715278254  -130.37656471660054
              -7.62400391368993    77.27346794337704   -17.70125094397321    16.87252925989376   -42.21774488639612  -169.20115042255370   -20.46396059640259    23.17053761808046
             -20.47636759530971    23.32498584924309   -41.27757176140566  -169.57110273407258   -16.94386956209737     9.53457102284700    -7.64693098195611    76.39438359544757
             -42.81225571181742  -133.43283922472750   -20.41203864970015    22.87143201345506    -7.64599641342570    76.40790701865655   -17.50891220242323    24.29302457444594
   240.000   -24.74582684746328    11.40696396778168    -7.48128737542691     2.06024183405047   -28.19327664411780    17.09873493064313   -41.40702366946481   -17.87868350761496
              -7.51141666600821     2.04548083290647   -25.26842557171132     2.51610372244824   -38.86022484411981    -2.00441663494908   -28.09104308775311    16.91107272225104
             -28.16380544327193    17.25910096092375   -38.97408688482585    -3.19670778527012   -24.07829081092896     1.30603130475459    -7.52504081526572     1.23415119996372
             -41.32561990044404   -17.91099248988541   -28.10926747781566    16.69519420088161    -7.52480961133248     1.33496857977245   -24.79295984702896    12.43221913466758
   250.000   -24.92797072607008    13.86235443530733    -7.61256877198313   -72.95225855573858   -28.52690395536079    21.45217222441398   -35.99407057733450  -112.11685567378882
              -7.58261947632778   -72.82189201851162   -25.45621611962272    -3.43438513921639   -35.42378871038441  -103.66360576764201   -28.42175070695792    21.08990305327020
             -28.50887824863262    21.31782199127580   -35.53890038771807  -102.82635801707572   -23.86001538307301     2.11283157462207    -7.62712910340609   -73.73038441544786
             -36.05392793246151  -112.90315478279570   -28.42148914100690    20.97318060757594    -7.62731661516259   -73.79435539192059   -24.76461712010820     7.68677879822836
   260.000   -29.71863170172009     0.90657579153201    -7.75597521009789  -147.53233057816686   -34.49056851088332    16.59190398527947   -33.67382225250368   166.34804330458041
              -7.75600790178742  -147.40583629954540   -30.10705378785186   -32.06854077899764   -33.39804787923669   172.46391603060150   -34.26582049366964    16.65796562351920
             -34.48405092611662    16.15652386507648   -33.36359517085485   173.13424125926937   -28.11176971464292   -14.12809258538160    -7.77448793470347  -148.20484553263216
             -33.67996026945847   166.47500191639506   -34.26572650449359    16.84319807886395    -7.74463706430376  -148.26600091638409   -29.15269467813136   -16.30461380880823
   270.000   -31.95413370830781    33.99104745715822    -7.91620291731717   137.63227431719960   -35.78841096710703    81.76575319238067   -32.04305011810287    85.92738255291270
              -7.91635096142143   137.81970467285265   -33.23853599344459   -34.19109214767196   -31.97220134895138    89.95611469659485   -35.72571857781736    79.27692991381808
             -35.89732689049367    81.51195948642076   -31.92152666221007    90.33229792445899   -29.93497822256629     7.79901669627070    -7.91264134975052   137.01874826266271
             -32.07627645351498    85.39695947342892   -35.66294439488856    79.30473345531580    -7.94285320315326   136.88844040531725   -31.53153643602114    -7.63944142965154
   280.000   -28.98944542875182    58.68292089599682    -8.16016776592734    63.08849306823934   -25.64086861848445   100.35686840006791   -31.00488961991673     3.59072800886121
              -8.16011528581398    63.20464459525567   -40.36539632099576  -144.05795796732681   -31.03674973088707     6.86130958740404   -25.50087119050824    99.20209727438643
             -25.69447567439264   100.55173879806841   -31.02666598760984     6.96003851822868   -30.87757572002384    18.24870716258706    -8.15676542117405    62.41884636251450
             -31.01550994542177     3.54195194850964   -25.49729918361600    99.16441289607759    -8.15688920875658    62.36835311927933   -39.23920241125000   -24.11457000556970
   290.000   -23.49215272667790    42.87367497728454    -8.44090509231841   -10.91967657780537   -19.67264827927388    63.03847187431845   -31.03381513465931   -77.95925952577765
              -8.41093955622525   -10.73416906152519   -28.61299478844119    74.26115784890254   -31.15113545620289   -76.71182726554237   -19.54035370365037    60.97858272949334
             -19.69227251059241    63.23292611106981   -31.15925406635387   -76.56152134256973   -26.28996248610642    28.77484202436682    -8.46115172499498   -11.71123220767571
             -31.09240565133352   -78.11721766790372   -19.52102724495936    60.82774422246101    -8.43106021780218   -11.67717946850120   -30.63610622829118    52.65756722732656
   300.000   -22.99647913327112     8.00629533896560    -8.57091044063843   -84.31658709067166   -19.23719694941824    20.02468796987218   -31.61015529649248  -151.61057970966402
              -8.63123859105552   -84.17269440312360   -25.86431483021794    12.32849283901230   -31.93179362446875  -150.41441006400805   -19.14317043308028    17.76689222932385
             -19.22797408306860    20.05732890880370   -31.91899933282688  -150.74877715066663   -24.64932957610279    -1.24845431804710    -8.62769337140414   -85.22071485832812
             -31.65734106476617  -151.11928970696025   -19.12087787777735    17.44887835456446    -8.62709828839565   -85.30147808319573   -26.82796298686732     7.60467815806608
   310.000   -26.90128613184136    -2.95675944496759    -8.70769337070892  -158.16973667686128   -22.90745924676317     1.99956225019818   -30.77153557349586   138.64822449058579
              -8.70784485155506  -158.26715186656691   -28.74539138640138   -15.32660339262829   -31.17674941233951   139.15322862849044   -22.83769373574107    -0.44121304066397
             -22.90193502059006     2.00625696743670   -31.08834423020299   139.33930243034706   -28.11543871147704   -11.47455713251854    -8.71566211190649  -159.39867053405115
             -30.77938347497391   138.53705844403865   -22.84566641470202    -0.70069149426453    -8.71545427920659  -159.38717925588233   -29.58112082460625   -12.69936962324440
   320.000   -25.27106188482180     8.85012287979069    -8.89331543789517   127.46623976634849   -21.78163677551853     8.53825244012987   -29.91447731426396    61.03130786902534
