! Created Tue Jan 23 15:54:33 2007
# hz S ri R 50
! 3 Port Network Data from SP1.SP block
! freq  reS11  imS11  reS12  imS12  reS13  imS13  
!       reS21  imS21  reS22  imS22  reS23  imS23  
!       reS31  imS31  reS32  imS32  reS33  imS33  
!     
           2e+009   -0.00731219818      -0.808591361     -0.0317825453       0.420825674       0.111423599       0.302731077
                    0.0869401019       0.323818801       0.143079618      -0.798636156     -0.0701397253        0.42777699
                   -0.0284683888       0.428548093      0.0897871345       0.317661448      0.0502986012      -0.807970069

        2.01e+009    -0.0329666887      -0.806009903    -0.00793512395        0.40731352       0.124916274        0.28292135
                    0.0945595248       0.316932958        0.11751576      -0.800841723     -0.0609821146       0.425800751
                   -0.0202460212        0.42585741        0.10648632       0.299097895      0.0243279895      -0.807248804

        2.02e+009    -0.0586621418      -0.802057908    -0.00498687895       0.422313742       0.132963718       0.288903497
                      0.10810708       0.313294283      0.0912876631      -0.801690928     -0.0466908145       0.431484509
                  -0.00542300307       0.429510129       0.113707596       0.305665534    -0.00221037159      -0.805081023

        2.03e+009    -0.0841634414      -0.797208884    -0.00486847897        0.44149525       0.140564649       0.298507691
                     0.122438087       0.309515263      0.0650352014      -0.801603861     -0.0312676135       0.437774854
                    0.0106447312       0.433528254       0.119870138       0.315825945     -0.0286717321      -0.801952947

        2.04e+009     -0.109413771      -0.791552013    -0.00472011591       0.460676819       0.148343599       0.308000089
                     0.136645709       0.305078943      0.0388845879      -0.800660188      -0.015447168       0.443507839
                    0.0270035046       0.436939841       0.126171815       0.325917756     -0.0549292369      -0.797958239

        2.05e+009     -0.134387637      -0.785098412    -0.00454178963       0.479858414       0.156299186       0.317378313
                     0.150699728       0.299988874      0.0128636751      -0.798866428    0.000750151821       0.448662844
                    0.0436302229       0.439728819       0.132611987        0.33593957      -0.080954606      -0.793106937

        2.06e+009         -0.15906          -0.77786        -0.0043335           0.49904           0.16443           0.32664
                         0.16457           0.29425            -0.013          -0.79623          0.017303           0.45322
                        0.060501           0.44188           0.13919           0.34589          -0.10672          -0.78741

        2.07e+009     -0.183870944       -0.76952857        0.02066917       0.489448868       0.178808607       0.308196412
                     0.175137812         0.2959117     -0.0392174591      -0.792466724       0.025098298       0.465595364
                    0.0704981375       0.453433314       0.156543455       0.328610176      -0.132513284      -0.780617835

        2.08e+009     -0.208307003      -0.760409567      0.0446858996       0.478629921       0.191594777       0.289225931
                     0.185883391        0.29722901      -0.065200087       -0.78784363      0.0332861185       0.477834556
                    0.0809344252       0.464765032       0.172305244       0.310539705      -0.157972251      -0.772984475

        2.09e+009      -0.23234331      -0.750518603      0.0676577189       0.466658548       0.202778307       0.269851491
                     0.196796129        0.29819428     -0.0909198013      -0.782372138      0.0418640585       0.489928308
                    0.0918050349       0.475863023       0.186445945       0.291808451      -0.183069599      -0.764524661

         2.1e+009     -0.255955617      -0.739872065      0.0895307694       0.453612896       0.212357903       0.250195284
                     0.207865151        0.29880017      -0.116349018      -0.776064577      0.0508295206       0.501867394
                     0.103104843        0.48671526       0.198946047        0.27254677      -0.207778632      -0.755254016

        2.11e+009      -0.27913353      -0.728402246       0.108375113       0.444352048       0.220814113       0.233877301
                     0.218377172       0.297914113      -0.141549045      -0.768850745      0.0600884029       0.511910509
                     0.114341966       0.495712654       0.209766198       0.256487841      -0.232146319       -0.74510222

        2.12e+009     -0.301906687      -0.715614969       0.113499629       0.468136789       0.231964523        0.24192723
                     0.223854019       0.288938664      -0.166994234      -0.760218636       0.068843031       0.509670042
                     0.122332104       0.493341182       0.219719516       0.265449785      -0.256555323      -0.733545068

        2.13e+009     -0.324139477      -0.702122282       0.118559436       0.491936297       0.243251474       0.249818699
                     0.229009577       0.279884856      -0.192015764      -0.750749455      0.0775378963       0.507280255
                     0.130275275       0.490841077       0.229785478       0.274302949        -0.2804452      -0.721194295

        2.14e+009     -0.345810292      -0.687945936       0.123554503       0.515750438       0.254673181       0.257550085
                     0.233843609       0.270763384      -0.216586282      -0.740462041      0.0861704591       0.504742548
                     0.138169411        0.48821324       0.239963145        0.28304632      -0.303790372      -0.708071893

        2.15e+009     -0.366898368      -0.673108329       0.128484801       0.539579081       0.266227844       0.265119785
                      0.23835622         0.2615849      -0.240679222      -0.729376117      0.0947382105       0.502058367
                     0.146012462       0.485458605        0.25025157       0.291678889      -0.326566154       -0.69420067

        2.16e+009     -0.387523311      -0.657385393       0.133935571       0.551670447       0.274005086       0.265514458
                     0.243950408       0.252014203      -0.264411881      -0.717326056       0.105146596       0.500041855
                     0.155818467        0.48290091       0.257747519       0.292449383      -0.348927402       -0.67937392

        2.17e+009     -0.407897865      -0.640286754       0.140528688       0.528487783       0.269467317       0.245142398
                     0.253339537       0.241165631      -0.288008297      -0.703938415        0.12132415       0.500084056
                     0.171676347       0.480940484       0.255787964        0.27022654      -0.371162191      -0.663127748

        2.18e+009     -0.427556098      -0.622569184       0.146180558       0.505288479         0.2639309       0.225331058
                     0.262250754       0.229971822      -0.310991806      -0.689783156       0.137602926       0.499600953
                     0.187559899       0.478458669       0.252589907       0.248528726      -0.392683526      -0.646164788

        2.19e+009     -0.446479706      -0.604261674       0.150893774       0.482102425       0.257427009       0.206122722
                     0.270671572       0.218453662       -0.33333777      -0.674886766       0.153965819       0.498586386
                     0.203451969       0.475452068       0.248188757       0.227415338       -0.41346874      -0.628515206

         2.2e+009     -0.464651532      -0.585393741       0.154671782       0.458959387       0.249988474       0.187558259
                     0.278590411       0.206632478      -0.355022656      -0.659276509       0.170395438       0.497034756
                     0.219335218       0.471917847       0.242622562       0.206943898      -0.433496409      -0.610209864

        2.21e+009     -0.481921152      -0.565478958       0.168762485       0.453091119       0.253673813       0.174329076
                     0.286316625       0.194945227      -0.376004577      -0.642450395       0.186917285       0.496161508
                     0.235514496       0.469086262       0.247606371       0.193315171      -0.452575704      -0.590810883

        2.22e+009      -0.49811433      -0.544225406       0.203023238       0.474435517       0.277239528       0.167590424
                     0.294114414       0.183641927      -0.396175317      -0.624090575       0.203662483        0.49677445
                     0.252314348       0.467744067       0.271944207       0.188698839      -0.470509776      -0.570063216

        2.23e+009     -0.513411351      -0.522538983       0.239679791       0.493472622       0.300836046       0.158667417
                     0.301465674       0.172026571      -0.415514311      -0.605117613       0.220595754       0.496829434
                     0.269236015       0.465814696       0.296502746        0.18192643      -0.487538124      -0.548797682

        2.24e+009     -0.527802033      -0.500456333       0.278586689       0.510023727       0.324287188         0.1475363
                     0.308357913       0.160116811      -0.434003788       -0.58556749       0.237698707       0.496316203
                     0.286259351       0.463289912       0.321114868        0.17296102      -0.503646981       -0.52705254

        2.25e+009     -0.541277658      -0.478014272       0.319586946        0.52391891        0.34741427       0.134186523
                     0.314779335       0.147930798      -0.451627486      -0.565476667       0.254952518       0.495225101
                     0.303363836        0.46016216       0.345610142       0.161777745      -0.518824163      -0.504866359

        2.26e+009     -0.553882606      -0.454721919       0.341738462       0.524118966       0.355605706       0.120897089
                     0.321632213       0.135245518      -0.468619817      -0.544186513       0.273886026       0.494981171
                     0.322341619       0.457550464       0.354917201       0.148655069      -0.533197665      -0.481637185

        2.27e+009     -0.565547813      -0.430619787       0.343403801       0.512744219       0.348962261       0.109609015
                     0.328875878       0.121962466      -0.484878977       -0.52171814       0.294632694       0.495419368
                     0.343303786       0.455256142       0.348895188       0.135569018      -0.546678587      -0.457399727

        2.28e+009     -0.576196992      -0.406278005       0.344841352       0.501409149       0.341990562      0.0986991449
                      0.33556888       0.108305706      -0.500114339      -0.498805338       0.315666734       0.495036803
                     0.364448666       0.452075479       0.342439049       0.122899805      -0.559094708      -0.432837882

        2.29e+009     -0.585828407      -0.381738425       0.346052359       0.490117637       0.334704693      0.0881765361
                     0.341692444      0.0942981639      -0.514315805      -0.475493194       0.336956883       0.493816181
                     0.385740565        0.44799446       0.335566468        0.11066099      -0.570441009      -0.407997295

         2.3e+009     -0.594442018      -0.357042698       0.347038129       0.478873534       0.327118981      0.0780497925
                     0.347228751      0.0799636921      -0.527475211      -0.451826918       0.358471084       0.491741366
                     0.407143081        0.44300046       0.328295539      0.0988654936      -0.580714395      -0.382923517

        2.31e+009     -0.601475032      -0.331398631       0.367451677       0.472815753       0.329074926      0.0629919242
                     0.349176433      0.0682014982      -0.539336401       -0.42703067       0.373449744       0.489994796
                     0.422454324       0.439903039       0.331157723      0.0831356474      -0.589464026      -0.356946921

        2.32e+009      -0.60707193      -0.305246794       0.399972646       0.468237035       0.336035963      0.0442816496
                     0.348983175       0.058155258      -0.549906389       -0.40151428       0.384465513       0.488621469
                     0.434118579       0.438115246       0.339413764      0.0642584404      -0.596795642      -0.330452744

        2.33e+009     -0.611561447       -0.27914853       0.432833131       0.461634147       0.341921589      0.0249737406
                     0.348502786      0.0481725835      -0.559315239      -0.375829718       0.395526989       0.487023801
                     0.445829151       0.436068933        0.34658218      0.0446952841      -0.602968266      -0.303932107

        2.34e+009      -0.61495574        -0.2531498       0.465914232       0.452966994       0.346685809      0.0051307078
                     0.347738651      0.0382616312      -0.567566167       -0.35002839       0.406629856       0.485200068
                     0.457580787       0.433762231       0.352610737      0.0245095657       -0.60799107      -0.277434686

        2.35e+009     -0.617268841      -0.227295719       0.499094119       0.442202207       0.350286301     -0.0151816098
                      0.34669439      0.0284304182      -0.574664616      -0.324161187       0.417769754       0.483148625
                     0.469368187       0.431193374       0.357450936     0.00376844817       -0.61187532      -0.251009398

        2.36e+009     -0.617576369      -0.200622579       0.511469059       0.438094926       0.347391131     -0.0251700175
                     0.344615007      0.0139337273      -0.579672239      -0.297300044       0.434750416       0.474849061
                     0.485638165       0.421127876       0.354499741    -0.00707185678      -0.613662588      -0.223772621

        2.37e+009      -0.61642893      -0.173949955       0.516911396       0.436600669       0.342476974     -0.0314739549
                     0.341602285    -0.00189498268      -0.583135898      -0.270246885       0.453468828       0.463881085
                     0.503118713       0.408001408       0.349073175     -0.0143126761      -0.613927665      -0.196497801

        2.38e+009     -0.614153435      -0.147676699       0.522357387        0.43505202       0.337450536     -0.0375976053
                     0.337869856     -0.0174174865      -0.585376482      -0.243396898       0.471931268       0.452193068
                     0.520257665        0.39417663       0.343501158     -0.0213284633       -0.61300661      -0.169562256

        2.39e+009      -0.61077946      -0.121849715       0.527806539        0.43344886       0.332316945     -0.0435390146
                     0.333439484     -0.0326014005      -0.586415952      -0.216804094       0.490110547       0.439790143
                     0.537027866       0.379661932       0.337790755     -0.0281163516      -0.610927071      -0.143016678

         2.4e+009     -0.606338501     -0.0965142007        0.53325836        0.43179107       0.327081361     -0.0492963596
                     0.328334372     -0.0474156932      -0.586278613      -0.190521043        0.50797954       0.426678451
                     0.553402348       0.364466737       0.331949083      -0.034673672      -0.607718829      -0.116910085

        2.41e+009     -0.599821074     -0.0711970085       0.555896223       0.405648363       0.317875001     -0.0687392041
                      0.32355738     -0.0641864925      -0.583997743      -0.163446618       0.531455293       0.412498103
                     0.575096282       0.346986867       0.323252818     -0.0553526441      -0.602377298     -0.0903660261

        2.42e+009     -0.592113165     -0.0464844519       0.579441053       0.374647149       0.306825169     -0.0891059388
                     0.318050915     -0.0809308805      -0.580348254       -0.13673384       0.555434321       0.397036939
                     0.597075653       0.328079632       0.312732198      -0.077014985      -0.595743395     -0.0643379945

        2.43e+009     -0.583404615     -0.0224992765       0.601253713       0.342278261       0.294508702      -0.108275479
                     0.311683974     -0.0972718872      -0.575504958      -0.110609502       0.579007959       0.380317419
                     0.618452836       0.307955001       0.300798976     -0.0974594621      -0.588004277     -0.0390142389

        2.44e+009     -0.573741135    0.000718663282       0.621254712       0.308638677       0.281038068       -0.12617213
                     0.304483837      -0.113165634      -0.569510554     -0.0851259521       0.602113928       0.362347974
                     0.639165042       0.286631312       0.287573137      -0.116597145       -0.57920687     -0.0144409396

        2.45e+009         -0.56317          0.023132           0.63937           0.27383           0.26653          -0.14273
                         0.29648          -0.12857          -0.56241         -0.060333           0.62469           0.34314
                         0.65915           0.26413           0.27318          -0.13435           -0.5694         0.0093384

        2.46e+009     -0.549903104      0.0450540418       0.667491433       0.265029857       0.262315486      -0.154561939
                     0.287983134        -0.1423301      -0.553042211     -0.0352822659       0.647404489       0.326670803
                     0.680146972       0.244228576        0.26857079       -0.14656372      -0.557264463      0.0326789518

        2.47e+009     -0.535804636      0.0659364587       0.695583499       0.254918182       0.257576314      -0.166285849
                     0.278855827      -0.155564991      -0.542581522     -0.0111535612       0.669717888       0.309025501
                     0.700552864       0.223143709       0.263414681      -0.158627049      -0.544193376      0.0550139379

        2.48e+009      -0.52093714      0.0857486853       0.723596082        0.24349068       0.252314357      -0.177878501
                     0.269129196      -0.168246241      -0.531090087      0.0120063822       0.691575482       0.290212473
                      0.72030918       0.200892634       0.257716187      -0.170515469      -0.530249885      0.0763068202

        2.49e+009     -0.505364236        0.10446352       0.751478828       0.230744799       0.246532515      -0.189316641
                     0.258835619      -0.180347207      -0.518632015      0.0341544791       0.712922669       0.270242494
                      0.73935792       0.177495281       0.251480924      -0.182204581      -0.515498517      0.0965245931

         2.5e+009     -0.488992739       0.121997778       0.776824658       0.215053488       0.239060877      -0.200087137
                     0.247971917      -0.191500514      -0.505128075      0.0551891739       0.733313801       0.249727625
                     0.757446749       0.153653945       0.243491362      -0.193235649      -0.499856597       0.115568118

        2.51e+009     -0.470963226       0.137921881       0.785025222       0.187211811        0.22309369      -0.206728286
                      0.23648332      -0.199631371      -0.489798746      0.0746561009       0.750490769       0.232474864
                     0.773533635       0.133626011       0.226636825      -0.200424016      -0.482526012       0.132944831

        2.52e+009     -0.452466033       0.152595064       0.792227011       0.159058231       0.207079316      -0.212281206
                     0.224762236      -0.207130035      -0.473749766      0.0929253094       0.767267402       0.214456866
                      0.78908626       0.112790718       0.209725204      -0.206381411      -0.464636222       0.149084848

