# GHz S RI R 50

1.000000000000000e-01 -9.9981718748929771e-01  1.9120449799795328e-02  7.6467062027952590e-12  3.9985376480001067e-10  7.6467062027952590e-12  3.9985376480001067e-10 -9.9981718748929771e-01  1.9120449799795328e-02
1.004620421000000e-01 -9.9981545882496947e-01  1.9210625798558350e-02  6.7110563954761188e-12  4.7474362377059689e-10  3.8348893688435012e-12  6.2505374453520842e-10 -9.9981545882496958e-01  1.9210625798558350e-02
1.009262191000000e-01 -9.9981371354033521e-01  1.9301244398848182e-02  1.5342039596067980e-12  4.4034379374172015e-10  3.8355098990170154e-12  2.5955254474624122e-10 -9.9981371354033521e-01  1.9301244398848182e-02
1.013925408000000e-01 -9.9981195148235269e-01  1.9392307899657714e-02  4.0170074625118764e-12  5.1718736409307555e-10  3.3475062187598940e-12  5.8266979410948582e-10 -9.9981195148235280e-01  1.9392307899657714e-02
1.018610170000000e-01 -9.9981017231842817e-01  1.9483818698410364e-02  2.1173215954722183e-12  4.1844018607348119e-10  5.2933039886805563e-12  2.8141539917017673e-10 -9.9981017231842828e-01  1.9483818698410368e-02
1.023316578000000e-01 -9.9980837605980710e-01  1.9575779399213043e-02  6.2001232488081413e-12  4.6028049038248257e-10  7.7501540610101786e-12  4.3944636969001999e-10 -9.9980837605980710e-01  1.9575779399213043e-02
1.028044732000000e-01 -9.9980656239335952e-01  1.9668192299869370e-02  6.6405134489229534e-12  4.9986936783202262e-10  6.6405134489229526e-12  4.9986936783202252e-10 -9.9980656239335952e-01  1.9668192299869370e-02
1.032794732000000e-01 -9.9980473116895063e-01  1.9761059999386311e-02  4.8336361052045071e-12  4.6932298065502667e-10  6.0420451315056363e-12  4.3046206235317551e-10 -9.9980473116895063e-01  1.9761059999386311e-02
1.037566679000000e-01 -9.9980288223577152e-01  1.9854384898724532e-02  8.8655577560894326e-12  5.6362637247835730e-10  6.3325412543495918e-12  6.3607181904527444e-10 -9.9980288223577174e-01  1.9854384898724535e-02
1.042360674000000e-01 -9.9980101546717370e-01  1.9948169599345044e-02  9.9720369322720899e-12  4.9980103650895376e-10  9.9720369322720899e-12  4.9980103650895366e-10 -9.9980101546717370e-01  1.9948169599345044e-02
1.047176819000000e-01 -9.9979913057214587e-01  2.0042416499441624e-02  7.5646105744029896e-12  6.2681306323171619e-10  6.4839519209168507e-12  6.7290531302172293e-10 -9.9979913057214598e-01  2.0042416499441624e-02
1.052015218000000e-01 -9.9979722743644484e-01  2.0137128298719921e-02  5.0945514640321893e-12  5.3663632477266449e-10  7.6418271960482823e-12  4.6310714905617176e-10 -9.9979722743644461e-01  2.0137128298719921e-02
1.056875971000000e-01 -9.9979530588243493e-01  2.0232307499644546e-02  4.8126010954210332e-12  6.1689659850869578e-10  4.1250866532180285e-12  6.8292253439917362e-10 -9.9979530588243504e-01  2.0232307499644549e-02
1.061759183000000e-01 -9.9979336569999999e-01  2.0327956700000000e-02  0.0000000000000000e+00  6.0000000000000000e-10  0.0000000000000000e+00  6.0000000000000000e-10 -9.9979336569999999e-01  2.0327956700000000e-02
1.066664958000000e-01 -9.9979140672598199e-01  2.0424078498487937e-02  1.1974706273070222e-11  6.7305858973917070e-10  8.9810297048026583e-12  7.2651331926369584e-10 -9.9979140672598199e-01  2.0424078498487937e-02
1.071593400000000e-01 -9.9978942876612975e-01  2.0520675599304813e-02  1.2309780711031967e-11  5.9974734176045092e-10  1.2309780711031966e-11  5.9974734176045103e-10 -9.9978942876612975e-01  2.0520675599304813e-02
1.076544613000000e-01 -9.9978743158948546e-01  2.0617750399783166e-02  1.0514463104622417e-11  5.9978316932646087e-10  1.0514463104622413e-11  5.9978316932646087e-10 -9.9978743158948569e-01  2.0617750399783169e-02
1.081518703000000e-01 -9.9978541498897833e-01  2.0715305799771634e-02  2.2265485894400576e-12  5.8920323358249474e-10  2.6718583073280687e-12  5.1069527262953771e-10 -9.9978541498897833e-01  2.0715305799771634e-02
1.086515775000000e-01 -9.9978337884207036e-01  2.0813344398794027e-02  5.9833605869799142e-12  6.4236755510648885e-10  8.3767048217718885e-12  5.5733349907906555e-10 -9.9978337884207036e-01  2.0813344398794027e-02
1.091535935000000e-01 -9.9978132295386668e-01  2.0911868899035055e-02  1.1173634861559880e-11  6.5522986130300211e-10  1.3035907338486527e-11  6.4426376113128116e-10 -9.9978132295386668e-01  2.0911868899035055e-02
1.096579291000000e-01 -9.9977924705042420e-01  2.1010881998958141e-02  1.2060327906835231e-11  6.5190232700428190e-10  1.4070382557974434e-11  6.4754852243053749e-10 -9.9977924705042442e-01  2.1010881998958144e-02
1.101645950000000e-01 -9.9977715095477238e-01  2.1110386399045014e-02  1.4566560079173747e-11  7.4282820338017664e-10  1.2745740069277028e-11  7.5659509482495723e-10 -9.9977715095477260e-01  2.1110386399045018e-02
1.106736018000000e-01 -9.9977503446363858e-01  2.1210384999228584e-02  8.9238093661571349e-12  6.6474209850177394e-10  1.0411110927183326e-11  6.3484770806821994e-10 -9.9977503446363847e-01  2.1210384999228581e-02
1.111849605000000e-01 -9.9977289737390052e-01  2.1310880399443670e-02  8.4784101232120508e-12  7.2469018718357112e-10  7.4186088578105400e-12  7.7497095635187449e-10 -9.9977289737390063e-01  2.1310880399443673e-02
1.116986818000000e-01 -9.9977073949812356e-01  2.1411875499959813e-02  1.8764017396643081e-12  7.9995981350488531e-10  1.8764017396643089e-12  7.9995981350488521e-10 -9.9977073949812356e-01  2.1411875499959813e-02
1.122147768000000e-01 -9.9976856059577635e-01  2.1513372999909113e-02  4.2236429095776969e-12  7.9990911415672356e-10  4.2236429095776986e-12  7.9990911415672356e-10 -9.9976856059577635e-01  2.1513372999909113e-02
1.127332564000000e-01 -9.9976636046842837e-01  2.1615375899317408e-02  1.7288238559250744e-11  7.9962622087006659e-10  1.7288238559250734e-11  7.9962622087006649e-10 -9.9976636046842815e-01  2.1615375899317404e-02
1.132541315000000e-01 -9.9976413883741844e-01  2.1717886998640541e-02  1.3342038143039625e-11  8.6115807194762957e-10  1.0673630514431709e-11  9.3832023531456793e-10 -9.9976413883741821e-01  2.1717886998640537e-02
1.137774133000000e-01 -9.9976189559924689e-01  2.1820909099983563e-02  7.5310696141942381e-13  7.9998356260703424e-10  7.5310696141942381e-13  7.9998356260703424e-10 -9.9976189559924689e-01  2.1820909099983563e-02
1.143031129000000e-01 -9.9975963045561533e-01  2.1924445099026656e-02  1.4592392191689044e-11  8.5807146950886839e-10  1.6416441215650180e-11  8.4124851549515897e-10 -9.9975963045561556e-01  2.1924445099026659e-02
1.148312415000000e-01 -9.9975734317118559e-01  2.2028497999365109e-02  1.1712846509037687e-11  9.2633404128783713e-10  1.0541561858133914e-11  9.7317560848039004e-10 -9.9975734317118559e-01  2.2028497999365109e-02
1.153618102000000e-01 -9.9975503358203976e-01  2.2133070799602389e-02  1.7960229052435346e-11  8.9960238756094616e-10  1.7960229052435349e-11  8.9960238756094627e-10 -9.9975503358203976e-01  2.2133070799602389e-02
1.158948303000000e-01 -9.9975270139063821e-01  2.2238166299791758e-02  9.3618603533516406e-12  8.9979175788617596e-10  9.3618603533516390e-12  8.9979175788617586e-10 -9.9975270139063821e-01  2.2238166299791758e-02
1.164303133000000e-01 -9.9975034639814353e-01  2.2343787499958509e-02  1.8564954344673412e-12  8.9995850850034444e-10  1.8564954344673412e-12  8.9995850850034444e-10 -9.9975034639814353e-01  2.2343787499958509e-02
1.169682704000000e-01 -9.9974796838524727e-01  2.2449937499668719e-02  1.4752699225353876e-11  9.9966871931648123e-10  1.4752699225353876e-11  9.9966871931648123e-10 -9.9974796838524727e-01  2.2449937499668719e-02
1.175087131000000e-01 -9.9974556706965312e-01  2.2556619299315305e-02  1.3612651275474621e-11  1.0271311248036014e-09  1.2375137523158748e-11  1.0722825292886007e-09 -9.9974556706965301e-01  2.2556619299315302e-02
1.180516529000000e-01 -9.9974314227903427e-01  2.2663835999524710e-02  2.0965838135317599e-11  9.9952471158044268e-10  2.0965838135317592e-11  9.9952471158044247e-10 -9.9974314227903427e-01  2.2663835999524710e-02
1.185971012000000e-01 -9.9974069369509033e-01  2.2771590499888170e-02  4.9096870840614609e-12  9.9988816961300506e-10  4.9096870840614593e-12  9.9988816961300506e-10 -9.9974069369509022e-01  2.2771590499888170e-02
1.191450698000000e-01 -9.9973822109999999e-01  2.2879886100000000e-02  0.0000000000000000e+00  1.0999999999999999e-09  0.0000000000000000e+00  1.0999999999999999e-09 -9.9973822109999999e-01  2.2879886100000000e-02
1.196955702000000e-01 -9.9973572429835733e-01  2.2988725799962226e-02  1.6426958370850965e-12  1.0999622265314117e-09  1.6426958370850967e-12  1.0999622265314115e-09 -9.9973572429835733e-01  2.2988725799962226e-02
1.202486142000000e-01 -9.9973320297270307e-01  2.3098112799369325e-02  1.3366239073455365e-11  1.1238089648946051e-09  1.2252385817334089e-11  1.1755991352379945e-09 -9.9973320297270296e-01  2.3098112799369325e-02
1.208042135000000e-01 -9.9973065688661211e-01  2.3208050199689211e-02  6.5798250289613774e-12  1.1116635520146871e-09  6.0315062765479315e-12  1.1880436846907202e-09 -9.9973065688661200e-01  2.3208050199689211e-02
1.213623798000000e-01 -9.9972808580000005e-01  2.3318541200000001e-02  0.0000000000000000e+00  1.2000000000000000e-09  0.0000000000000000e+00  1.2000000000000000e-09 -9.9972808580000005e-01  2.3318541200000001e-02
1.219231252000000e-01 -9.9972548947057760e-01  2.3429589099310456e-02  1.5468630058828866e-11  1.2250374388562076e-09  1.4278735438918946e-11  1.2742654011420760e-09 -9.9972548947057760e-01  2.3429589099310456e-02
1.224864614000000e-01 -9.9972286759494866e-01  2.3541197099881055e-02  5.0513357304653335e-12  1.1998810525396940e-09  5.0513357304653343e-12  1.1998810525396940e-09 -9.9972286759494866e-01  2.3541197099881055e-02
1.230524004000000e-01 -9.9972021990000004e-01  2.3653368500000001e-02  0.0000000000000000e+00  1.3000000000000001e-09  0.0000000000000000e+00  1.3000000000000001e-09 -9.9972021990000004e-01  2.3653368500000001e-02
1.236209544000000e-01 -9.9971754618486564e-01  2.3766106499640210e-02  1.5134392122095470e-11  1.2996402127820720e-09  1.5134392122095477e-11  1.2996402127820720e-09 -9.9971754618486564e-01  2.3766106499640210e-02
1.241921353000000e-01 -9.9971484609815964e-01  2.3879414399956039e-02  1.8404468591300231e-12  1.2999560386686320e-09  1.8404468591300227e-12  1.2999560386686320e-09 -9.9971484609815964e-01  2.3879414399956039e-02
1.247659553000000e-01 -9.9971211940000004e-01  2.3993295700000000e-02  0.0000000000000000e+00  1.3999999999999999e-09  0.0000000000000000e+00  1.3999999999999999e-09 -9.9971211940000004e-01  2.3993295700000000e-02
1.253424265000000e-01 -9.9970936585712333e-01  2.4107753598966039e-02  2.2528546568624254e-11  1.3635042106621840e-09  2.4261511689287668e-11  1.3353674580951025e-09 -9.9970936585712333e-01  2.4107753598966039e-02
1.259215614000000e-01 -9.9970658508872645e-01  2.4222791599726845e-02  5.9432484914863103e-12  1.3904163912358983e-09  6.4004214523698728e-12  1.3092845228327651e-09 -9.9970658508872645e-01  2.4222791599726845e-02
1.265033720000000e-01 -9.9970377694964674e-01  2.4338413098774121e-02  3.6496760353901762e-11  1.4991114634892146e-09  3.6496760353901768e-11  1.4991114634892144e-09 -9.9970377694964696e-01  2.4338413098774124e-02
1.270878709000000e-01 -9.9970094098128026e-01  2.4454621499542081e-02  1.1675925730638950e-11  1.5146392453534345e-09  1.0946180372474013e-11  1.5848073740528032e-09 -9.9970094098128037e-01  2.4454621499542081e-02
1.276750704000000e-01 -9.9969807706822078e-01  2.4571420299218903e-02  3.1779196052512133e-11  1.4992189041386009e-09  3.1779196052512127e-11  1.4992189041386013e-09 -9.9969807706822089e-01  2.4571420299218907e-02
1.282649831000000e-01 -9.9969518478023023e-01  2.4688812999511759e-02  1.9769708657928040e-11  1.5995117605054292e-09  1.9769708657928046e-11  1.5995117605054295e-09 -9.9969518478023034e-01  2.4688812999511763e-02
1.288576213000000e-01 -9.9969226388466093e-01  2.4806803099619371e-02  1.5339004470559391e-11  1.5996193711785773e-09  1.5339004470559391e-11  1.5996193711785775e-09 -9.9969226388466104e-01  2.4806803099619371e-02
1.294529978000000e-01 -9.9968931407827055e-01  2.4925394299458219e-02  2.1729304310834513e-11  1.5994582201640650e-09  2.1729304310834507e-11  1.5994582201640650e-09 -9.9968931407827066e-01  2.4925394299458222e-02
1.300511252000000e-01 -9.9968633506012927e-01  2.5044589999001138e-02  3.9870808869330287e-11  1.6990011385633462e-09  3.9870808869330287e-11  1.6990011385633462e-09 -9.9968633506012927e-01  2.5044589999001138e-02
1.306520162000000e-01 -9.9968332647914915e-01  2.5164393799475136e-02  2.0850821901466330e-11  1.6994751354604804e-09  2.0850821901466330e-11  1.6994751354604806e-09 -9.9968332647914926e-01  2.5164393799475136e-02
1.312556836000000e-01 -9.9968028807408915e-01  2.5284809599344638e-02  2.5910869046740388e-11  1.7993446390362441e-09  2.5910869046740382e-11  1.7993446390362441e-09 -9.9968028807408915e-01  2.5284809599344638e-02
1.318621401000000e-01 -9.9967721948294486e-01  2.5405840799566561e-02  1.1011201246255687e-11  1.7869686273489316e-09  1.1658918966623677e-11  1.7124552331597372e-09 -9.9967721948294497e-01  2.5405840799566561e-02
1.324713988000000e-01 -9.9967412047581850e-01  2.5527491199382503e-02  2.4181656384338357e-11  1.7993825017058853e-09  2.4181656384338357e-11  1.7993825017058849e-09 -9.9967412047581827e-01  2.5527491199382499e-02
1.330834725000000e-01 -9.9967099064893927e-01  2.5649764498689876e-02  3.4205353957958859e-11  1.8620669850793587e-09  3.6105651400067702e-11  1.8361289604518268e-09 -9.9967099064893916e-01  2.5649764498689873e-02
1.336983742000000e-01 -9.9966782968227641e-01  2.5772664499543064e-02  1.7723595338321112e-11  1.8995430639093385e-09  1.7723595338321112e-11  1.8995430639093385e-09 -9.9966782968227641e-01  2.5772664499543064e-02
1.343161170000000e-01 -9.9966463727990418e-01  2.5896194999479420e-02  7.9904155394129698e-11  2.0005205804536260e-09  7.9904155394129698e-11  2.0005205804536264e-09 -9.9966463727990418e-01  2.5896194999479420e-02
1.349367141000000e-01 -9.9966141308462886e-01  2.6020359799599900e-02  8.4628839388861979e-11  2.0004000985669967e-09  8.4628839388861979e-11  2.0004000985669967e-09 -9.9966141308462886e-01  2.6020359799599900e-02
1.355601785000000e-01 -9.9965815677871295e-01  2.6145162799443254e-02  7.8712868669043228e-11  2.1005567457891964e-09  7.8712868669043241e-11  2.1005567457891964e-09 -9.9965815677871295e-01  2.6145162799443254e-02
1.361865237000000e-01 -9.9965486798992420e-01  2.6270607799735213e-02  8.9924207926711705e-11  2.1002647885476474e-09  8.9924207926711705e-11  2.1002647885476474e-09 -9.9965486798992420e-01  2.6270607799735213e-02
1.368157628000000e-01 -9.9965154638631515e-01  2.6396698699638638e-02  9.0776562895417173e-11  2.1898839981324701e-09  9.1323288424290442e-11  2.1105886713433921e-09 -9.9965154638631515e-01  2.6396698699638638e-02
1.374479093000000e-01 -9.9964819167476759e-01  2.6523439599330515e-02  7.4767626549478623e-11  2.2006694848079135e-09  7.4767626549478623e-11  2.2006694848079130e-09 -9.9964819167476759e-01  2.6523439599330515e-02
1.380829765000000e-01 -9.9964480339584638e-01  2.6650834399889266e-02  9.5846466175270356e-11  2.3001107344650787e-09  9.5846466175270356e-11  2.3001107344650787e-09 -9.9964480339584638e-01  2.6650834399889266e-02
1.387209781000000e-01 -9.9964138128162661e-01  2.6778886999507805e-02  8.1626516197964029e-11  2.3004921979155996e-09  8.1626516197964004e-11  2.3004921979155992e-09 -9.9964138128162650e-01  2.6778886999507801e-02
1.393619274000000e-01 -9.9963792490000003e-01  2.6907601600000001e-02  1.0000000000000000e-10  2.4000000000000000e-09  1.0000000000000000e-10  2.4000000000000000e-09 -9.9963792490000003e-01  2.6907601600000001e-02
1.400058382000000e-01 -9.9963443397246765e-01  2.7036982199255336e-02  7.2467655773531158e-11  2.5007446636555840e-09  7.2467655773531171e-11  2.5007446636555840e-09 -9.9963443397246765e-01  2.7036982199255336e-02
1.406527242000000e-01 -9.9963090799283461e-01  2.7167032999805267e-02  9.6416853689385015e-11  2.5062082136049187e-09  9.6084949767473320e-11  2.5939955653245997e-09 -9.9963090799283461e-01  2.7167032999805267e-02
1.413025991000000e-01 -9.9962734675442899e-01  2.7297758098755551e-02  7.9045653952914359e-11  2.6404867767965818e-09  7.6867310178816945e-11  2.6607171488488659e-09 -9.9962734675442899e-01  2.7297758098755551e-02
1.419554766000000e-01 -9.9962374976464541e-01  2.7429161599029889e-02  7.1364137687550163e-11  2.6007857532427192e-09  7.1364137687550176e-11  2.6007857532427196e-09 -9.9962374976464541e-01  2.7429161599029889e-02
1.426113707000000e-01 -9.9962011665123307e-01  2.7561247898655411e-02  7.4463028867312298e-11  2.7007040981353215e-09  7.4463028867312298e-11  2.7007040981353211e-09 -9.9962011665123307e-01  2.7561247898655411e-02
1.432702953000000e-01 -9.9961644699281438e-01  2.7694021099800927e-02  9.6730649578965998e-11  2.7935981344750563e-09  9.7090115287086389e-11  2.7065730590153412e-09 -9.9961644699281438e-01  2.7694021099800927e-02
1.439322645000000e-01 -9.9961274050000004e-01  2.7827485600000000e-02  1.0000000000000000e-10  2.7999999999999998e-09  1.0000000000000000e-10  2.7999999999999998e-09 -9.9961274050000004e-01  2.7827485600000000e-02
1.445972922000000e-01 -9.9960899669635683e-01  2.7961645599898090e-02  9.8893834192771298e-11  2.9034727221197763e-09  9.8701433796499578e-11  2.9965945444243958e-09 -9.9960899669635683e-01  2.7961645599898090e-02
1.452653926000000e-01 -9.9960521525302648e-01  2.8096505598679686e-02  8.3563940148942574e-11  2.9559761336817283e-09  8.6062746821479884e-11  2.9448775870363679e-09 -9.9960521525302670e-01  2.8096505598679690e-02
1.459365799000000e-01 -9.9960139566885398e-01  2.8232069999120334e-02  8.7564243795460491e-11  3.1003512270436390e-09  8.7564243795460504e-11  3.1003512270436390e-09 -9.9960139566885398e-01  2.8232069999120334e-02
1.466108684000000e-01 -9.9959753756668013e-01  2.8368343099054387e-02  8.7986894570362127e-11  3.1003409290042436e-09  8.7986894570362127e-11  3.1003409290042436e-09 -9.9959753756668013e-01  2.8368343099054387e-02
1.472882724000000e-01 -9.9959364049999999e-01  2.8505329499999999e-02  1.0000000000000000e-10  3.2000000000000001e-09  1.0000000000000000e-10  3.2000000000000001e-09 -9.9959364049999999e-01  2.8505329499999999e-02
1.479688063000000e-01 -9.9958970410000003e-01  2.8643033700000001e-02  1.0000000000000000e-10  3.3000000000000002e-09  1.0000000000000000e-10  3.3000000000000002e-09 -9.9958970410000003e-01  2.8643033700000001e-02
1.486524845000000e-01 -9.9958572796064893e-01  2.8781460298866947e-02  9.7899218466267023e-11  3.4000604884850905e-09  9.7899218466267023e-11  3.4000604884850905e-09 -9.9958572796064893e-01  2.8781460298866947e-02
1.493393216000000e-01 -9.9958171156591502e-01  2.8920613799013832e-02  9.8372649939890643e-11  3.4000470835411175e-09  9.8372649939890643e-11  3.4000470835411171e-09 -9.9958171156591502e-01  2.8920613799013832e-02
1.500293322000000e-01 -9.9957765450000002e-01  2.9060498899999999e-02  1.0000000000000000e-10  3.4999999999999999e-09  1.0000000000000000e-10  3.4999999999999999e-09 -9.9957765450000002e-01  2.9060498899999999e-02
1.507225309000000e-01 -9.9957355635933565e-01  2.9201120298812052e-02  1.0516455257752191e-10  3.5998491247926116e-09  1.0516455257752188e-10  3.5998491247926108e-09 -9.9957355635933565e-01  2.9201120298812052e-02
1.514189325000000e-01 -9.9956941665624188e-01  2.9342482598715476e-02  1.0860662719532039e-10  3.6997473512429077e-09  1.0860662719532040e-10  3.6997473512429081e-09 -9.9956941665624210e-01  2.9342482598715483e-02
1.521185518000000e-01 -9.9956523489698457e-01  2.9484590699911051e-02  1.0053924033664687e-10  3.7970317755107929e-09  1.0071326043818987e-10  3.7029312789312368e-09 -9.9956523489698457e-01  2.9484590699911051e-02
1.528214036000000e-01 -9.9956101076505977e-01  2.9627449398964355e-02  1.1558401771022140e-10  3.8995380823906294e-09  1.1558401771022140e-10  3.8995380823906294e-09 -9.9956101076505977e-01  2.9627449398964355e-02
