! S-parameters and noise data of an LNA amplifier
# MHz S RI R 50
! S-Parameters data
! Freq   reS11   imS11   reS21   imS21   reS12   imS12   reS22   imS22
10.0000000000                    0.9399741712          -0.0797423862          -5.9115989517           0.9259006621          -0.0004629690          -0.0020863196           0.9985224011          -0.0202466850
100.0000000000                   0.6303336435          -0.3733812536          -0.5724298801           2.9754025674           0.0010391936           0.0017890258           0.9916371549          -0.0775150203
150.0000000000                   0.5577634253          -0.4253059706           0.1108300975           2.4408424395          -0.0023321817           0.0022135303           0.9804633320          -0.1047933512
200.0000000000                   0.4491435931          -0.4800754062           0.6034716459           1.7806072525           0.0024725851           0.0023925722           0.9772106406          -0.1332796700
300.0000000000                   0.2598429800          -0.5552371696           0.9052272733           1.1156221384           0.0011710201           0.0048018124           0.9598395492          -0.1896365081
400.0000000000                   0.0420908277          -0.5806368906           1.0345010987           0.6863391803           0.0012919003           0.0036988665           0.9308039953          -0.2443420587
500.0000000000                  -0.1831005856          -0.5226938375           1.0795674061           0.3583072309           0.0033868654           0.0041687184           0.8994048024          -0.2943483257
600.0000000000                  -0.3811055510          -0.3692378164           1.0617258309           0.0730607828           0.0052542112           0.0056416533           0.8698656492          -0.3388832824
700.0000000000                  -0.4986403618          -0.1684409049           1.0088379500          -0.1559837560           0.0047438183           0.0021806773           0.8515104589          -0.3708420957
800.0000000000                  -0.5394779098           0.0440325488           0.9320118235          -0.3438005212           0.0039527316           0.0057266007           0.8409381525          -0.4027467889
900.0000000000                  -0.5152458594           0.2377193994           0.8338350964          -0.4889516196           0.0045593585           0.0045850726           0.8223973364          -0.4352502448
1000.0000000000                 -0.4266919132           0.4064935580           0.7124949868          -0.6047250496           0.0057888386           0.0066903896           0.8096856198          -0.4713939583
1100.0000000000                 -0.3217669953           0.5397596603           0.5869700542          -0.6884701477           0.0037260404           0.0085902350           0.7908369828          -0.5002071206
1200.0000000000                 -0.1938353401           0.6266296072           0.4566532936          -0.7442177809           0.0043491576           0.0116901288           0.7633928463          -0.5297370916
1300.0000000000                 -0.0576493034           0.6777688964           0.3265921061          -0.7710435511           0.0055631686           0.0134478900           0.7276814328          -0.5631907042
1400.0000000000                  0.0776268720           0.6943639197           0.2125318251          -0.7733964989           0.0068733762           0.0162452672           0.6956417769          -0.5888029961
1500.0000000000                  0.1997511428           0.6883943615           0.1174570652          -0.7606405760           0.0088336187           0.0178728417           0.6749662663          -0.6092826681
1600.0000000000                  0.3099089540           0.6658335941           0.0308205947          -0.7422879041           0.0131254907           0.0203602319           0.6647615448          -0.6302532063
1700.0000000000                  0.4055610425           0.6287850707          -0.0321012194          -0.7160880973           0.0173523592           0.0222790381           0.6564503889          -0.6468393074
1800.0000000000                  0.4883852767           0.5892999223          -0.0911357537          -0.6761078237           0.0205296224           0.0240278458           0.6572875522          -0.6655413329
1900.0000000000                  0.5611569742           0.5469128183          -0.1355883133          -0.6272000721           0.0257014206           0.0248243383           0.6440411091          -0.6896194469
2000.0000000000                  0.6246110661           0.5059781178          -0.1622609359          -0.5703312825           0.0289889814           0.0247202703           0.6244861658          -0.7070326113
! Noise Parameters
! Freq(MHz) Fmin(dB) GammmaOpt(MA:Mag) GammmaOpt(MA:Ang) RN/Zo
200                   0.841           0.341          46.412           0.178
220                   0.832           0.351          49.311           0.170
240                   0.821           0.342          52.711           0.162
260                   0.813           0.342          56.222           0.156
280                   0.813           0.331          59.833           0.150
300                   0.813           0.321          63.411           0.142
