# Hz S DB R 50
! S-Parameters data
! FREQ  dbS11  angS11  dbS21  angS21  dbS12  angS12  dbS22  angS22
315074.664 -32.011276 81.287455 -0.028742 -1.459208 -0.031265 -1.437659 -31.974521 81.496348
330906.814 -31.594941 81.598929 -0.031430 -1.529429 -0.029042 -1.493026 -31.551296 81.761300
347534.511 -31.172861 81.595916 -0.034712 -1.633690 -0.029344 -1.594147 -31.129483 81.749231
364997.732 -30.763404 82.015269 -0.030490 -1.666770 -0.032052 -1.641998 -30.712533 82.128319
383338.459 -30.331287 82.211962 -0.030952 -1.728808 -0.032797 -1.714526 -30.292668 82.302513
402600.788 -29.911032 82.423109 -0.036414 -1.824428 -0.028914 -1.801974 -29.866519 82.426969
422831.028 -29.489258 82.427427 -0.036440 -1.922764 -0.031157 -1.883582 -29.452330 82.464374
444077.814 -29.064412 82.418322 -0.036146 -2.008920 -0.034897 -2.026181 -29.034473 82.428862
466392.227 -28.646855 82.517856 -0.038248 -2.111028 -0.033580 -2.120932 -28.610445 82.606009
489827.915 -28.214425 82.622187 -0.040285 -2.187000 -0.034618 -2.225415 -28.186914 82.628003
514441.220 -27.803086 82.918419 -0.040549 -2.355418 -0.033008 -2.322830 -27.773108 82.926130
540291.316 -27.381006 82.867354 -0.042535 -2.450518 -0.034737 -2.433048 -27.348088 82.882767
567440.350 -26.952843 82.753458 -0.043324 -2.545755 -0.038874 -2.553115 -26.933825 82.799417
595953.593 -26.536346 82.899508 -0.043562 -2.661844 -0.039084 -2.686324 -26.513038 82.928655
625899.595 -26.118021 82.886856 -0.042565 -2.849855 -0.042608 -2.833059 -26.090351 82.930433
657350.349 -25.698540 83.023078 -0.047917 -3.029871 -0.039067 -2.942311 -25.672868 83.029906
690381.469 -25.273494 82.865854 -0.048232 -3.135904 -0.043871 -3.097655 -25.248966 82.922634
725072.366 -24.853370 82.795755 -0.047171 -3.292374 -0.049608 -3.252111 -24.830671 82.811937
761506.441 -24.434980 82.846978 -0.047933 -3.441059 -0.051663 -3.400417 -24.411227 82.850302
799771.288 -24.011799 82.860998 -0.053796 -3.635536 -0.049062 -3.575183 -23.988961 82.825274
839958.901 -23.593942 82.545185 -0.057681 -3.808373 -0.053584 -3.789161 -23.572737 82.598424
882165.896 -23.172307 82.684015 -0.058306 -3.959827 -0.054862 -3.976680 -23.145087 82.655838
926493.745 -22.750129 82.465127 -0.063410 -4.146524 -0.058522 -4.169265 -22.725503 82.418161
973049.020 -22.335639 82.298551 -0.064974 -4.370220 -0.063575 -4.357330 -22.303264 82.319161
1021943.640 -21.917807 82.157785 -0.068545 -4.565985 -0.066812 -4.590761 -21.894312 82.202477
1073295.170 -21.500608 81.978294 -0.073069 -4.788516 -0.070614 -4.846125 -21.477991 82.004572
1127227.050 -21.085793 81.910105 -0.076020 -5.069995 -0.073207 -5.065315 -21.057401 81.930538
1183868.950 -20.664816 81.819714 -0.078727 -5.305781 -0.077807 -5.284449 -20.642264 81.819818
1243357.040 -20.244054 81.480700 -0.090040 -5.548489 -0.081676 -5.545154 -20.225456 81.445782
1305834.340 -19.828001 81.201675 -0.091958 -5.854344 -0.090231 -5.831510 -19.812580 81.250879
1371451.060 -19.413410 81.035186 -0.098198 -6.096674 -0.095522 -6.113327 -19.397612 81.026662
1440364.940 -19.003431 80.816084 -0.104988 -6.402720 -0.100780 -6.394222 -18.985272 80.811572
1512741.670 -18.583911 80.533389 -0.114761 -6.726600 -0.105843 -6.695243 -18.567615 80.551640
1588755.240 -18.171108 80.235568 -0.120232 -7.040697 -0.115285 -7.083554 -18.151973 80.250639
1668588.420 -17.763860 79.906120 -0.128932 -7.401765 -0.124221 -7.403133 -17.739551 79.935029
1752433.120 -17.345535 79.688705 -0.135506 -7.753507 -0.132816 -7.754315 -17.324982 79.689417
1840490.920 -16.936710 79.283321 -0.143242 -8.161226 -0.146800 -8.135295 -16.916381 79.291129
1932973.530 -16.526459 78.867082 -0.160270 -8.582702 -0.153324 -8.532864 -16.507095 78.885824
2030103.290 -16.112546 78.544884 -0.171231 -8.958796 -0.163883 -8.956170 -16.094346 78.582272
2132113.710 -15.707454 78.097509 -0.183871 -9.398922 -0.179485 -9.403976 -15.685840 78.100514
2239250.040 -15.300966 77.692625 -0.198371 -9.862602 -0.192751 -9.832358 -15.275465 77.700201
2351769.850 -14.893705 77.212568 -0.212749 -10.336048 -0.209385 -10.331828 -14.877875 77.242695
2469943.650 -14.485946 76.726575 -0.228826 -10.837814 -0.227421 -10.850377 -14.470954 76.752717
2594055.560 -14.079097 76.316687 -0.244447 -11.378525 -0.243120 -11.362527 -14.066261 76.344821
2724403.950 -13.682886 75.755794 -0.265389 -11.920159 -0.264657 -11.926824 -13.662293 75.759261
2861302.200 -13.283044 75.202620 -0.289849 -12.480730 -0.284324 -12.479530 -13.264584 75.224190
3005079.440 -12.883046 74.602387 -0.310996 -13.092367 -0.310654 -13.119078 -12.865889 74.616299
3156081.320 -12.488904 74.037995 -0.337849 -13.686586 -0.333902 -13.715168 -12.470099 74.071756
3314670.870 -12.091420 73.364984 -0.370078 -14.372293 -0.361499 -14.353515 -12.074876 73.380964
3481229.380 -11.694930 72.689356 -0.398511 -15.056263 -0.394065 -15.046041 -11.680158 72.740258
3656157.260 -11.305951 71.993373 -0.430671 -15.782265 -0.429972 -15.744485 -11.291761 72.017340
3839875.070 -10.918511 71.290166 -0.469244 -16.525144 -0.462685 -16.488576 -10.903663 71.312354
4032824.500 -10.536574 70.484027 -0.510154 -17.286420 -0.504984 -17.262482 -10.521550 70.524263
4235469.420 -10.156211 69.715289 -0.550372 -18.050076 -0.551396 -18.066290 -10.140644 69.752143
4448297.020 -9.779783 68.921137 -0.598385 -18.882157 -0.596622 -18.875293 -9.764001 68.946638
4671818.970 -9.407334 68.028896 -0.652582 -19.780782 -0.645349 -19.775752 -9.393153 68.045249
4906572.650 -9.038941 67.169111 -0.707888 -20.639981 -0.699117 -20.672511 -9.024352 67.203825
5153122.440 -8.674025 66.240561 -0.768697 -21.574291 -0.762857 -21.546164 -8.660940 66.270108
5412061.080 -8.316178 65.246973 -0.832019 -22.569181 -0.831860 -22.530236 -8.299419 65.275187
5684011.090 -7.959031 64.286746 -0.903247 -23.546471 -0.899905 -23.538737 -7.944362 64.309619
5969626.290 -7.609461 63.232910 -0.981002 -24.594121 -0.977430 -24.565134 -7.594687 63.274650
6269593.340 -7.264288 62.167300 -1.065617 -25.661592 -1.059349 -25.640803 -7.252146 62.199237
6584633.390 -6.925109 61.061799 -1.157836 -26.769125 -1.150306 -26.714089 -6.911855 61.095297
6915503.850 -6.591245 59.919355 -1.252732 -27.905289 -1.248574 -27.871220 -6.579018 59.970024
7263000.190 -6.264739 58.723571 -1.358876 -29.106020 -1.354573 -29.063114 -6.251543 58.755003
7627957.820 -5.945698 57.526249 -1.470593 -30.286377 -1.469996 -30.257911 -5.933826 57.559372
8011254.170 -5.633311 56.293324 -1.590900 -31.543614 -1.592823 -31.467931 -5.621245 56.331429
8413810.730 -5.328293 55.008739 -1.725607 -32.823956 -1.721076 -32.746948 -5.314641 55.053441
8836595.310 -5.033024 53.715027 -1.868605 -34.051854 -1.864428 -34.062353 -5.019310 53.734489
9280624.340 -4.744451 52.360916 -2.023578 -35.362252 -2.015815 -35.407568 -4.731049 52.381599
9746965.340 -4.464367 50.980625 -2.185928 -36.739186 -2.181650 -36.743988 -4.450697 50.996700
10236739.400 -4.192822 49.567817 -2.361164 -38.123550 -2.357869 -38.121744 -4.179189 49.591472
10751124.100 -3.930584 48.150572 -2.546540 -39.511615 -2.546888 -39.522249 -3.918586 48.157412
11291356.100 -3.676151 46.724610 -2.747752 -40.892665 -2.748013 -40.932563 -3.665829 46.720849
11858734.100 -3.430123 45.240377 -2.963226 -42.344780 -2.964970 -42.378857 -3.418577 45.239553
12454622.300 -3.198360 43.711742 -3.195971 -43.777600 -3.202025 -43.803815 -3.185608 43.715066
13080453.100 -2.977620 42.149509 -3.446697 -45.236829 -3.448733 -45.241561 -2.967118 42.149628
13737731.200 -2.764729 40.575778 -3.714124 -46.707174 -3.714877 -46.709330 -2.754095 40.560925
14428036.900 -2.564292 39.016338 -3.996404 -48.112421 -4.001155 -48.139170 -2.554034 38.995456
15153029.600 -2.374983 37.413263 -4.303770 -49.524960 -4.306623 -49.536179 -2.365978 37.401426
15914452.400 -2.200734 35.799524 -4.632897 -50.889289 -4.636694 -50.868486 -2.191689 35.779519
16714135.800 -2.042867 34.147630 -4.983861 -52.202455 -4.986931 -52.172923 -2.032096 34.120386
17554002.400 -1.897044 32.484981 -5.355317 -53.407078 -5.363386 -53.419170 -1.889516 32.464634
18436071.400 -1.771888 30.831606 -5.751199 -54.485086 -5.760395 -54.506405 -1.764619 30.815194
19362463.400 -1.660823 29.216895 -6.164685 -55.435690 -6.174011 -55.461493 -1.654655 29.187624
20335405.500 -1.572708 27.609795 -6.595647 -56.184694 -6.605239 -56.225635 -1.564128 27.576189
21357236.900 -1.505364 26.051735 -7.038460 -56.699211 -7.043404 -56.722248 -1.495319 26.020797
22430414.200 -1.451884 24.553861 -7.488794 -56.974090 -7.488888 -57.010968 -1.443882 24.532005
23557517.400 -1.412636 23.151740 -7.930592 -57.047565 -7.932986 -57.071972 -1.406543 23.123309
24741256.300 -1.390135 21.827479 -8.366578 -56.877650 -8.367109 -56.914796 -1.380900 21.784062
25984476.700 -1.372967 20.589333 -8.789658 -56.530757 -8.795306 -56.560226 -1.365889 20.557192
27290167.600 -1.365756 19.439298 -9.199006 -56.010438 -9.201501 -56.014331 -1.359636 19.400659
28661468.000 -1.361998 18.359185 -9.588782 -55.355008 -9.601741 -55.363399 -1.357309 18.321395
30101674.700 -1.364795 17.371329 -9.968673 -54.513704 -9.979584 -54.567120 -1.358989 17.324623
31614250.200 -1.370838 16.445266 -10.323911 -53.627127 -10.336964 -53.640672 -1.364459 16.387423
33202830.900 -1.372233 15.558128 -10.677111 -52.717896 -10.683738 -52.767538 -1.366473 15.506847
34871236.100 -1.372847 14.722432 -11.013271 -51.805488 -11.023948 -51.857045 -1.367110 14.687664
36623476.700 -1.371269 13.955683 -11.345032 -50.833961 -11.350890 -50.889896 -1.366271 13.904583
38463765.400 -1.371510 13.208176 -11.666680 -49.800215 -11.669155 -49.881552 -1.366128 13.162004
40396526.600 -1.370079 12.510302 -11.971114 -48.791833 -11.979483 -48.869823 -1.363710 12.472716
42426406.900 -1.369473 11.837580 -12.274073 -47.716805 -12.284480 -47.791027 -1.361800 11.793979
44558286.400 -1.363735 11.198297 -12.563874 -46.650211 -12.584002 -46.766704 -1.358302 11.152477
46797290.400 -1.360848 10.593283 -12.854089 -45.570927 -12.864981 -45.639444 -1.353957 10.546593
49148801.900 -1.355324 10.004941 -13.137285 -44.471818 -13.142554 -44.523543 -1.349390 9.970014
51618474.200 -1.349783 9.465955 -13.401601 -43.334688 -13.416446 -43.389864 -1.345098 9.415399
54212244.800 -1.344818 8.946223 -13.663637 -42.177379 -13.679166 -42.215015 -1.339379 8.899510
56936349.500 -1.340497 8.426823 -13.913105 -40.988166 -13.934874 -41.039377 -1.333979 8.385386
59797337.400 -1.336618 7.927483 -14.158185 -39.787876 -14.177694 -39.846066 -1.330729 7.880241
62802086.700 -1.329378 7.467899 -14.390738 -38.592262 -14.415509 -38.702586 -1.322197 7.421087
65957821.300 -1.323994 7.017105 -14.620745 -37.404085 -14.639798 -37.436060 -1.316580 6.971167
69272128.100 -1.317141 6.599338 -14.845660 -36.207419 -14.859632 -36.189136 -1.309286 6.577982
72752975.000 -1.309195 6.175134 -15.059918 -35.009455 -15.077131 -34.994172 -1.302380 6.159393
76408730.700 -1.305343 5.797635 -15.256561 -33.722153 -15.269146 -33.692022 -1.298235 5.767826
80248183.900 -1.299060 5.421893 -15.455648 -32.466695 -15.468753 -32.432385 -1.291495 5.389152
84280565.400 -1.290609 5.039529 -15.646751 -31.226341 -15.662343 -31.203483 -1.284436 5.026604
88515569.500 -1.282841 4.691967 -15.835978 -29.973455 -15.847373 -29.983823 -1.276450 4.668152
92963377.900 -1.277123 4.347693 -16.013175 -28.685210 -16.019185 -28.686256 -1.269569 4.330226
97634683.700 -1.270268 3.979409 -16.187740 -27.426598 -16.197216 -27.461810 -1.260413 3.961948
102540717.000 -1.265081 3.649183 -16.363815 -26.168291 -16.370172 -26.159565 -1.253209 3.617942
107693274.000 -1.252798 3.317679 -16.538135 -24.881641 -16.546647 -24.881678 -1.240822 3.289481
113104740.000 -1.245007 2.976869 -16.695642 -23.535650 -16.700604 -23.541832 -1.234436 2.957849
118788127.000 -1.235573 2.677059 -16.863346 -22.214854 -16.862565 -22.215425 -1.223894 2.641709
124757097.000 -1.229186 2.335079 -17.003907 -20.877404 -17.003602 -20.863653 -1.216682 2.305055
131026002.000 -1.219155 2.030483 -17.155954 -19.500206 -17.162135 -19.506101 -1.206631 1.980581
137609912.000 -1.207033 1.695652 -17.306900 -18.127138 -17.318007 -18.129579 -1.197709 1.647263
144524656.000 -1.198515 1.404219 -17.443937 -16.619981 -17.456271 -16.630453 -1.189035 1.359607
151786859.000 -1.189090 1.106704 -17.582188 -15.091744 -17.585799 -15.099741 -1.180811 1.026251
159413978.000 -1.176657 0.754577 -17.723126 -13.554076 -17.727589 -13.561766 -1.171434 0.714838
167424353.000 -1.166441 0.442946 -17.851379 -11.932111 -17.848810 -11.896944 -1.163148 0.411596
175837239.000 -1.156091 0.116211 -17.976044 -10.236793 -17.983482 -10.175177 -1.153582 0.064164
184672864.000 -1.143493 -0.190290 -18.106344 -8.427398 -18.110544 -8.433787 -1.140738 -0.240278
193952468.000 -1.131704 -0.563079 -18.217666 -6.581431 -18.229172 -6.554680 -1.130719 -0.629410
203698363.000 -1.123533 -0.889209 -18.313608 -4.626267 -18.321432 -4.540094 -1.119988 -0.947093
213933978.000 -1.112813 -1.272211 -18.394850 -2.580088 -18.409171 -2.553689 -1.114850 -1.366861
224683921.000 -1.104634 -1.632285 -18.480757 -0.394341 -18.487467 -0.388387 -1.104820 -1.723948
235974037.000 -1.093969 -2.030516 -18.533516 1.822709 -18.542092 1.860619 -1.089009 -2.173328
247831468.000 -1.081499 -2.419117 -18.587031 4.224611 -18.596140 4.210771 -1.077896 -2.598276
260284722.000 -1.075091 -2.818527 -18.596931 6.626938 -18.616453 6.725741 -1.065825 -3.020561
273363739.000 -1.064952 -3.262056 -18.585865 9.179535 -18.595103 9.159666 -1.060097 -3.466976
287099961.000 -1.058114 -3.699088 -18.539365 11.737670 -18.549783 11.727990 -1.052966 -3.882258
301526413.000 -1.051237 -4.164818 -18.476864 14.329779 -18.483309 14.345612 -1.045124 -4.353064
316677777.000 -1.046419 -4.648717 -18.377109 16.907442 -18.392682 17.046394 -1.043641 -4.830787
332590482.000 -1.038702 -5.169762 -18.244837 19.500759 -18.254758 19.637462 -1.036567 -5.366426
349302781.000 -1.034867 -5.718598 -18.082956 22.066666 -18.098991 22.177976 -1.034226 -5.953892
366854855.000 -1.029002 -6.269877 -17.888779 24.642252 -17.900848 24.672415 -1.027708 -6.537134
385288902.000 -1.060444 -7.155630 -17.349113 26.705340 -17.364507 26.653963 -1.067565 -7.447033
404649238.000 -1.093181 -8.060643 -16.822449 28.729977 -16.837922 28.649351 -1.106151 -8.390917
424982410.000 -1.105042 -8.698754 -16.548632 30.871121 -16.542057 30.874431 -1.109677 -9.115849
446337300.000 -1.107669 -9.372868 -16.233656 32.788602 -16.227567 32.864832 -1.112955 -9.827212
468765250.000 -1.114979 -10.047173 -15.898214 34.630691 -15.893481 34.688663 -1.119740 -10.527470
492320180.000 -1.126130 -10.748543 -15.547565 36.343553 -15.544284 36.352589 -1.129421 -11.254758
517058718.000 -1.135194 -11.517551 -15.184708 37.833904 -15.185750 37.869634 -1.138747 -12.055099
543040341.000 -1.146894 -12.297202 -14.813593 39.162864 -14.814181 39.201382 -1.147919 -12.865560
570327510.000 -1.159231 -13.115216 -14.425154 40.304247 -14.427728 40.335704 -1.160527 -13.674693
598985830.000 -1.175968 -13.957981 -14.031889 41.247211 -14.038380 41.262327 -1.179216 -14.535536
629084198.000 -1.199732 -14.820181 -13.638367 42.025454 -13.641549 42.068651 -1.204000 -15.447879
660694975.000 -1.221850 -15.675709 -13.241799 42.651601 -13.241562 42.714740 -1.224612 -16.357663
693894159.000 -1.253205 -16.654774 -12.845798 43.113563 -12.854349 43.094273 -1.253614 -17.392776
728761564.000 -1.284432 -17.614431 -12.453773 43.434281 -12.457174 43.444468 -1.285375 -18.370287
765381018.000 -1.315960 -18.568791 -12.057645 43.652823 -12.060413 43.696582 -1.317565 -19.327999
803840558.000 -1.351601 -19.476433 -11.694861 43.736243 -11.694620 43.771058 -1.350487 -20.298229
844232647.000 -1.387232 -20.391433 -11.340933 43.733683 -11.338597 43.767542 -1.385215 -21.288960
886654393.000 -1.436482 -21.453343 -10.964987 43.532975 -10.964947 43.579326 -1.436788 -22.399042
931207784.000 -1.489483 -22.584157 -10.594865 43.242507 -10.590743 43.287779 -1.490042 -23.573309
977999934.000 -1.548315 -23.686785 -10.232625 42.748135 -10.232470 42.828085 -1.547978 -24.759879
1027143340.000 -1.607556 -24.780591 -9.876477 42.235848 -9.871090 42.265808 -1.606552 -25.898026
1078756140.000 -1.683987 -26.103024 -9.538035 41.467480 -9.544688 41.381560 -1.684654 -27.356828
1132962430.000 -1.748341 -27.175150 -9.190193 40.847798 -9.190796 40.867673 -1.749938 -28.411830
1189892520.000 -1.816068 -28.345049 -8.866697 39.957075 -8.865990 40.042419 -1.813692 -29.661164
1249683290.000 -1.901052 -29.568747 -8.545080 39.014423 -8.538505 39.093212 -1.909307 -30.930568
1312478480.000 -1.992770 -30.810086 -8.238872 38.089325 -8.240635 38.117846 -1.997246 -32.289254
1378429060.000 -2.097295 -32.064446 -7.947025 36.999091 -7.946425 37.056900 -2.100025 -33.632986
1447693580.000 -2.186273 -33.368011 -7.660707 35.883325 -7.662481 35.929875 -2.190815 -35.028940
1520438560.000 -2.288610 -34.664725 -7.389895 34.671226 -7.390761 34.722603 -2.297775 -36.409799
1596838900.000 -2.398825 -35.944969 -7.126745 33.433508 -7.129569 33.481112 -2.406063 -37.786225
1677078260.000 -2.510297 -37.286087 -6.873592 32.151135 -6.875704 32.199363 -2.516825 -39.249575
1761349570.000 -2.626331 -38.603060 -6.634069 30.810985 -6.632939 30.837882 -2.634339 -40.658625
1849855420.000 -2.748487 -39.965880 -6.403758 29.378010 -6.402231 29.428830 -2.762879 -42.156009
1942808580.000 -2.877633 -41.353288 -6.181200 27.928771 -6.182483 27.973594 -2.894248 -43.675937
2040432540.000 -3.014643 -42.635544 -5.969226 26.444012 -5.970099 26.495046 -3.036633 -45.082837
2142961990.000 -3.151260 -44.073004 -5.775255 24.865230 -5.780737 24.811141 -3.172907 -46.618526
2250643440.000 -3.284150 -45.381930 -5.585594 23.313494 -5.584416 23.392677 -3.319969 -48.052814
2363735750.000 -3.419323 -46.740598 -5.404991 21.735828 -5.406959 21.790903 -3.457398 -49.526239
2482510830.000 -3.572690 -48.130059 -5.241336 20.107963 -5.236024 20.172114 -3.619111 -51.009552
2607254220.000 -3.716246 -49.441853 -5.082840 18.408744 -5.081648 18.498602 -3.763120 -52.471202
2738265830.000 -3.864703 -50.903510 -4.934477 16.730650 -4.935141 16.768983 -3.913082 -54.031493
2875860630.000 -4.024915 -52.326258 -4.795724 15.005064 -4.792614 15.036347 -4.081182 -55.528461
3020369410.000 -4.174176 -53.711975 -4.664810 13.219011 -4.664415 13.200447 -4.241338 -57.012373
3172139590.000 -4.329545 -55.047091 -4.538893 11.456327 -4.541092 11.531381 -4.397610 -58.418158
3331536060.000 -4.487697 -56.435133 -4.425350 9.645427 -4.425960 9.719031 -4.564879 -59.857864
3498942020.000 -4.639292 -57.897101 -4.316002 7.832339 -4.315438 7.881895 -4.720637 -61.337231
3674759940.000 -4.795015 -59.320047 -4.215093 6.032532 -4.215891 6.073952 -4.887670 -62.824376
3859412520.000 -4.940541 -60.839826 -4.118109 4.163314 -4.116951 4.252397 -5.040048 -64.315599
4053343680.000 -5.070122 -62.470052 -4.013299 2.324866 -4.013111 2.368970 -5.182733 -65.944939
4257019670.000 -5.245903 -64.232861 -3.917243 0.327156 -3.916465 0.377286 -5.344154 -67.615160
4470930140.000 -5.436920 -66.012879 -3.852345 -1.622970 -3.849477 -1.580391 -5.524095 -69.459349
4695589380.000 -5.557382 -67.622247 -3.736177 -3.623686 -3.736994 -3.583245 -5.684296 -71.103050
4931537500.000 -5.682697 -69.566482 -3.637079 -5.776477 -3.640643 -5.718697 -5.821891 -73.101527
5179341740.000 -5.853960 -71.486923 -3.561174 -7.963708 -3.561388 -7.900899 -6.008578 -75.229632
5439597870.000 -5.996934 -73.578257 -3.481810 -10.206439 -3.485492 -10.173525 -6.183678 -77.586518
5712931580.000 -6.131287 -75.522979 -3.410374 -12.441754 -3.407780 -12.414615 -6.360596 -80.070907
6000000000.000 -6.252717 -77.329385 -3.331660 -14.710207 -3.341467 -14.716583 -6.551535 -82.755903
