# MHz S RI R 50
! S-Parameters data
! Freq   reS11   imS11   reS21   imS21   reS12   imS12   reS22   imS22
2000.000    -0.27202414  -0.63297476   2.47623253   7.66758238   0.00388457   0.00000597   0.58266257  -0.61262464
2050.000    -0.28802482  -0.62577004   2.68296608   7.57135903   0.00368545   0.00000579   0.57308123  -0.62624667
2100.000    -0.30362316  -0.62286055   2.80726891   7.33937219   0.00328711   0.00000528   0.56201207  -0.63987478
2150.000    -0.31682214  -0.61905344   2.95007519   7.12522855   0.00298836   0.00000491   0.55193742  -0.65409650
2200.000    -0.33022073  -0.61534665   3.07148963   6.91155920   0.00268960   0.00000451   0.54116900  -0.66842122
2250.000    -0.34261657  -0.61213894   3.17004824   6.63350176   0.00229103   0.00010354   0.52950451  -0.68175819
2300.000    -0.35701317  -0.60623387   3.27913164   6.44572229   0.00199207   0.00020272   0.51724615  -0.69549577
2350.000    -0.37090966  -0.59962915   3.37810522   6.26231483   0.00169308   0.00030188   0.50339399  -0.70755345
2400.000    -0.38360368  -0.59562388   3.44859421   6.02217155   0.00129426   0.00050048   0.48934632  -0.72050684
2450.000    -0.39839857  -0.58692094   3.54958518   5.88977571   0.00099503   0.00069925   0.47539922  -0.73385873
2500.000    -0.41109203  -0.57961916   3.64735436   5.73995011   0.00069558   0.00099766   0.46016003  -0.74682026
2550.000    -0.42328428  -0.57291863   3.73554035   5.55740185   0.00039590   0.00139570   0.44571209  -0.75908578
2600.000    -0.43667921  -0.56601876   3.78559000   5.33712362   0.00019601   0.00169431   0.42917425  -0.77016973
2650.000    -0.44867174  -0.55902096   3.81043803   5.13859478  -0.00000429   0.00219224   0.41173383  -0.77917381
2700.000    -0.46126663  -0.54972599   3.84993707   4.94408123  -0.00000532   0.00269059   0.39350061  -0.78887775
2750.000    -0.47216310  -0.53813025   3.90360051   4.76172216  -0.00000617   0.00308934   0.37506001  -0.79669730
2800.000    -0.48195918  -0.52593906   3.97243703   4.62809361   0.00019189   0.00368785   0.35710901  -0.80312578
2850.000    -0.49136130  -0.51224872   3.99233078   4.45687025   0.00068937   0.00408769   0.33945137  -0.80875955
2900.000    -0.49726676  -0.49815735   4.03172305   4.31104971   0.00128697   0.00428841   0.32327349  -0.81220278
2950.000    -0.49957536  -0.48456490   4.08681854   4.19282781   0.00198471   0.00429000   0.30837856  -0.81385304
3000.000    -0.50108811  -0.47176922   4.08744307   4.04995238   0.00278279   0.00399276   0.29427533  -0.81500352
3050.000    -0.49990231  -0.46146715   4.08839043   3.93216846   0.00338236   0.00329636   0.28235824  -0.81644330
3100.000    -0.49751502  -0.45476173   4.08711064   3.80889101   0.00378278   0.00249984   0.27283460  -0.82015884
3150.000    -0.49362619  -0.44905136   4.10524809   3.68905934   0.00388459   0.00150332   0.26312006  -0.82586293
3200.000    -0.48993568  -0.44563625   4.14825841   3.58264477   0.00368777   0.00030677   0.25420807  -0.83345237
3250.000    -0.48823952  -0.44522040   4.18141779   3.46504408   0.00319151  -0.00069109   0.24579580  -0.84173602
3300.000    -0.48593977  -0.44530391   4.23081719   3.33255660   0.00249569  -0.00158976   0.23271125  -0.84974214
3350.000    -0.48693544  -0.44648826   4.26457100   3.19626925   0.00160007  -0.00228955   0.21893984  -0.85993890
3400.000    -0.48832782  -0.44827454   4.29198233   3.05417974   0.00060428  -0.00279027   0.20407202  -0.86954545
3450.000    -0.48971896  -0.45076236   4.34144271   2.91223647  -0.00039178  -0.00319137   0.18850858  -0.87935531
3500.000    -0.49320886  -0.45235219   4.36105196   2.75666727  -0.00138812  -0.00349286   0.17125348  -0.88897541
3550.000    -0.49579664  -0.45474307   4.39382297   2.60608264  -0.00248448  -0.00369493   0.15458807  -0.89730198
3600.000    -0.49998355  -0.45683599   4.41556846   2.45157950  -0.00358118  -0.00379735   0.13593071  -0.90514181
3650.000    -0.50406930  -0.45753219   4.41821176   2.29301059  -0.00467846  -0.00370038   0.11606770  -0.91060196
3700.000    -0.50815592  -0.46062948   4.44587409   2.14106590  -0.00567613  -0.00360319   0.09630276  -0.91616218
3750.000    -0.51524251  -0.46092784   4.40047398   1.97975638  -0.00677365  -0.00350624   0.07583565  -0.92083156
3800.000    -0.52202712  -0.46242839   4.37578738   1.83005285  -0.00797148  -0.00321008   0.05546879  -0.92609827
3850.000    -0.52631448  -0.46463084   4.39021969   1.67791984  -0.00887024  -0.00291319   0.03439758  -0.93007602
3900.000    -0.53320155  -0.46453366   4.33472825   1.52658046  -0.00996858  -0.00261671   0.01431030  -0.93215958
3950.000    -0.53908825  -0.46704046   4.31455364   1.38048875  -0.01096804  -0.00202070  -0.00737616  -0.93315647
4000.000    -0.54487472  -0.46934545   4.30454846   1.23409486  -0.01206687  -0.00162435  -0.02837209  -0.93335419
4050.000    -0.55206497  -0.46855368   4.23935541   1.09902686  -0.01296679  -0.00102795  -0.05006877  -0.93315711
4100.000    -0.55955538  -0.46996217   4.18961274   0.96795859  -0.01386681  -0.00043145  -0.07177339  -0.93176556
4150.000    -0.56694554  -0.46997205   4.12979018   0.83355422  -0.01486691   0.00026468  -0.09298494  -0.92987364
4200.000    -0.57493830  -0.46918208   4.04868035   0.70984896  -0.01576731   0.00096118  -0.11380652  -0.92668522
4250.000    -0.58313102  -0.46919334   3.98401925   0.58895522  -0.01666802   0.00175759  -0.13463437  -0.92260003
4300.000    -0.59092714  -0.46840475   3.90307133   0.47398550  -0.01736922   0.00255462  -0.15547117  -0.91702031
4350.000    -0.59892163  -0.46831677   3.82887928   0.36569106  -0.01827025   0.00345117  -0.17581977  -0.90974416
4400.000    -0.60701830  -0.46702859   3.74448515   0.26396359  -0.01907158   0.00434801  -0.19666276  -0.90366395
4450.000    -0.61561698  -0.46574074   3.65025456   0.17247762  -0.01977326   0.00534502  -0.21522034  -0.89677531
4500.000    -0.62401591  -0.46455308   3.56760023   0.07801095  -0.02047498   0.00634218  -0.23418143  -0.88909022
4550.000    -0.63201604  -0.46256456   3.47292565  -0.00592159  -0.02117665   0.00733954  -0.25225441  -0.87980569
4600.000    -0.64031777  -0.45997613   3.37522180  -0.08088692  -0.02177870   0.00843709  -0.27003315  -0.86972109
4650.000    -0.64882021  -0.45698770   3.27468689  -0.14807932  -0.02238090   0.00963461  -0.28701882  -0.85893376
4700.000    -0.65722383  -0.45419779   3.17632380  -0.21008186  -0.02288303   0.01073269  -0.30390865  -0.84744661
4750.000    -0.66572822  -0.45020828   3.07213840  -0.26241254  -0.02338555   0.01203055  -0.32079926  -0.83595751
4800.000    -0.67333318  -0.44661757   2.97800522  -0.31183027  -0.02378788   0.01322891  -0.33599957  -0.82366213
4850.000    -0.68263970  -0.44232606   2.87365319  -0.35159189  -0.02409044   0.01452750  -0.35060787  -0.80996699
4900.000    -0.69064586  -0.43863429   2.78066035  -0.38941494  -0.02439291   0.01582602  -0.36371350  -0.79815784
4950.000    -0.69815279  -0.43394047   2.68433961  -0.41817309  -0.02459514   0.01702514  -0.37623176  -0.78365321
5000.000    -0.70565948  -0.42924625   2.59058144  -0.43684013  -0.02479740   0.01832420  -0.38795487  -0.76844583
5050.000    -0.71246740  -0.42375173   2.49940590  -0.45169494  -0.02480011   0.01972351  -0.39957367  -0.75433298
5100.000    -0.71967426  -0.41835578   2.40999722  -0.46034445  -0.02490228   0.02102272  -0.40899679  -0.74070889
5150.000    -0.72688176  -0.41245916   2.32725907  -0.46518243  -0.02480456   0.02232230  -0.41712466  -0.72667996
5200.000    -0.73308882  -0.40656100   2.24340539  -0.46362728  -0.02470652   0.02352208  -0.42495379  -0.71234968
5250.000    -0.73959607  -0.39996262   2.16202663  -0.45777114  -0.02450854   0.02482189  -0.43099081  -0.69701485
5300.000    -0.74520303  -0.39316379   2.08713052  -0.44740468  -0.02421060   0.02612191  -0.43732633  -0.68158040
5350.000    -0.75080861  -0.38716398   2.01581640  -0.43152959  -0.02401226   0.02732184  -0.44306019  -0.66684103
5400.000    -0.75601394  -0.38006390   1.95038175  -0.41263376  -0.02371398   0.02852174  -0.44709261  -0.65369085
5450.000    -0.76051899  -0.37316357   1.89023350  -0.39052990  -0.02331572   0.02972179  -0.45092542  -0.64034005
5500.000    -0.76502385  -0.36676303   1.83417181  -0.36641451  -0.02281748   0.03092188  -0.45355913  -0.62748362
5550.000    -0.76892809  -0.35966260   1.78329355  -0.34168162  -0.02231911   0.03212172  -0.45389525  -0.61561706
5600.000    -0.77313156  -0.35236173   1.73660721  -0.31474718  -0.02182043   0.03322173  -0.45433369  -0.60265377
5650.000    -0.77673478  -0.34506032   1.69291569  -0.28580409  -0.02122174   0.03422194  -0.45466892  -0.59058767
5700.000    -0.77933822  -0.33785910   1.65471638  -0.25625015  -0.02042326   0.03522236  -0.45470366  -0.57872012
5750.000    -0.78224013  -0.33075798   1.62210633  -0.22568236  -0.01982436   0.03612245  -0.45373731  -0.56794673
5800.000    -0.78424151  -0.32395702   1.59588969  -0.19579815  -0.01922537   0.03692255  -0.45246786  -0.55836932
5850.000    -0.78634304  -0.31735672   1.57276811  -0.16650351  -0.01852667   0.03782249  -0.45029768  -0.54978683
5900.000    -0.78754453  -0.31045611   1.55454141  -0.13800234  -0.01772775   0.03852280  -0.44792907  -0.54070536
5950.000    -0.78894547  -0.30405627   1.53891422  -0.11039021  -0.01702895   0.03932273  -0.44555608  -0.53311995
6000.000    -0.78994594  -0.29805643   1.52888504  -0.08626597  -0.01642971   0.03992278  -0.44318310  -0.52543500
6050.000    -0.79134683  -0.29145718   1.52015547  -0.06383598  -0.01573075   0.04062271  -0.44031021  -0.51814782
6100.000    -0.79254800  -0.28555880   1.51202521  -0.04160114  -0.01493227   0.04152240  -0.43713539  -0.51185726
6150.000    -0.79344909  -0.28006005   1.51098045  -0.01875860  -0.01403347   0.04212247  -0.43276407  -0.50546417
6200.000    -0.79344990  -0.27396129   1.51153510   0.00210040  -0.01323474   0.04262236  -0.42798579  -0.50226121
6250.000    -0.79395086  -0.26886320   1.51668648   0.01966558  -0.01243590   0.04312223  -0.42291093  -0.49806053
6300.000    -0.79355239  -0.26326512   1.52404806   0.03483971  -0.01153726   0.04352262  -0.42052629  -0.49466442
6350.000    -0.79335396  -0.25806713   1.53391102   0.04562873  -0.01073851   0.04382295  -0.41803824  -0.49276377
6400.000    -0.79315590  -0.25346944   1.54537326   0.05292297  -0.00993971   0.04412320  -0.41485322  -0.49046262
6450.000    -0.79295816  -0.24867226   1.56004407   0.05703334  -0.00914119   0.04442368  -0.41415624  -0.49006208
6500.000    -0.79356056  -0.24407444   1.57181437   0.05754740  -0.00844242   0.04462390  -0.41116456  -0.49025415
6550.000    -0.79256312  -0.24047693   1.58588459   0.05656459  -0.00774361   0.04482418  -0.40857297  -0.48994868
6600.000    -0.79196612  -0.23647914   1.60056388   0.05218815  -0.00704473   0.04492477  -0.40747671  -0.48974658
6650.000    -0.79136938  -0.23338102   1.61554520   0.04601598  -0.00634576   0.04492551  -0.40647943  -0.48984384
6700.000    -0.79057233  -0.22998314   1.62903543   0.03595071  -0.00584671   0.04502591  -0.40597896  -0.49064024
6750.000    -0.78997609  -0.22648419   1.63993962   0.02298836  -0.00524762   0.04492690  -0.40707275  -0.49183937
6800.000    -0.78947918  -0.22358622   1.65254095   0.00873332  -0.00484857   0.04502729  -0.40766605  -0.49383493
6850.000    -0.78868266  -0.22108775   1.66434748  -0.00861721  -0.00444942   0.04502782  -0.40825884  -0.49602990
6900.000    -0.78798652  -0.21898853   1.67326712  -0.02886917  -0.00405010   0.04492865  -0.41004931  -0.49772934
6950.000    -0.78769004  -0.21849083   1.68478370  -0.04981483  -0.00375105   0.04512890  -0.41173882  -0.49992710
7000.000    -0.78759374  -0.21769266   1.69211123  -0.07156310  -0.00345206   0.04532924  -0.41422498  -0.50252572
7050.000    -0.78849844  -0.21579401   1.69954215  -0.09461258  -0.00295315   0.04543004  -0.41711173  -0.50442746
7100.000    -0.78880300  -0.21419540   1.70757646  -0.11994974  -0.00255432   0.04553071  -0.42009315  -0.50832371
7150.000    -0.79010885  -0.21239619   1.71151686  -0.14489725  -0.00185581   0.04563180  -0.42317681  -0.51122322
7200.000    -0.79081280  -0.20979573   1.71456497  -0.17284648  -0.00165608   0.04543275  -0.42686131  -0.51312722
7250.000    -0.79061726  -0.20859523   1.71432314  -0.20119823  -0.00135667   0.04533380  -0.43154174  -0.51553244
7300.000    -0.79102112  -0.20709496   1.71218091  -0.22755887  -0.00115716   0.04533458  -0.43612433  -0.51723949
7350.000    -0.79112554  -0.20579498   1.71274388  -0.25900370  -0.00095780   0.04533538  -0.44100255  -0.52034348
7400.000    -0.79222980  -0.20519440   1.70831737  -0.28886375  -0.00075832   0.04533635  -0.44727984  -0.52235432
7450.000    -0.79353383  -0.20369431   1.70408750  -0.31991802  -0.00065893   0.04543691  -0.45225850  -0.52525942
7500.000    -0.79433817  -0.20289362   1.69906042  -0.35048013  -0.00045941   0.04543781  -0.45793824  -0.52706949
7550.000    -0.79514130  -0.20239328   1.69123761  -0.38085215  -0.00055950   0.04553824  -0.46401996  -0.52778367
7600.000    -0.79644624  -0.20139243   1.68251663  -0.41212502  -0.00026012   0.04563918  -0.47000212  -0.52849763
7650.000    -0.79794974  -0.20019142   1.66990301  -0.44171059  -0.00026025   0.04573988  -0.47728291  -0.52851689
7700.000    -0.79885284  -0.19919087   1.65668886  -0.47030080  -0.00036036   0.04594035  -0.48476424  -0.52823746
7750.000    -0.80015746  -0.19809038   1.64367362  -0.49998583  -0.00016109   0.04624101  -0.49154525  -0.52885387
7800.000    -0.80236109  -0.19708971   1.62725697  -0.52788221  -0.00016144   0.04654138  -0.49793014  -0.52847178
7850.000    -0.80426649  -0.19638844   1.61414056  -0.55797440   0.00023788   0.04674247  -0.50491453  -0.52779198
7900.000    -0.80607033  -0.19478643   1.59842612  -0.58747136   0.00033783   0.04674342  -0.51189890  -0.52721190
7950.000    -0.80757341  -0.19458526   1.58051061  -0.61467859   0.00023785   0.04694390  -0.51918490  -0.52583448
8000.000    -0.80957775  -0.19508480   1.56489639  -0.64288165   0.00033732   0.04734449  -0.52716819  -0.52495762
8050.000    -0.81158247  -0.19318269   1.54508719  -0.67029304   0.00063682   0.04754566  -0.53565063  -0.52408200
8100.000    -0.81378596  -0.19128113   1.52277418  -0.69561258   0.00063662   0.04784626  -0.54363613  -0.52260636
8150.000    -0.81519022  -0.18977837   1.50135936  -0.72053539   0.00093642   0.04794756  -0.55212238  -0.52053325
8200.000    -0.81669344  -0.18737613   1.47714277  -0.74476343   0.00093646   0.04814828  -0.56001107  -0.51815907
8250.000    -0.81839680  -0.18647286   1.45361672  -0.76709576   0.00113668   0.04814938  -0.56710460  -0.51468502
8300.000    -0.82009948  -0.18637082   1.42979785  -0.78963387   0.00103700   0.04835016  -0.57649395  -0.51101702
8350.000    -0.82160358  -0.18406873   1.40467652  -0.81157261   0.00123672   0.04875105  -0.58528415  -0.50764654
8400.000    -0.82330649  -0.18406581   1.38014837  -0.83161071   0.00133690   0.04885204  -0.59327581  -0.50447334
8450.000    -0.82500881  -0.18476265   1.35481773  -0.85125300   0.00133741   0.04885301  -0.60126948  -0.50060127
8500.000    -0.82781020  -0.18395992   1.32778085  -0.87159596   0.00103829   0.04885339  -0.60756871  -0.49592625
8550.000    -0.83221220  -0.18245786   1.29964289  -0.88844414   0.00083866   0.04915371  -0.61466551  -0.49165212
8600.000    -0.83541443  -0.18235719   1.27339537  -0.90379248   0.00053887   0.04975354  -0.62096617  -0.48647745
8650.000    -0.83851714  -0.17935553   1.24604963  -0.91914772   0.00043912   0.05025389  -0.62856664  -0.48040725
8700.000    -0.84191980  -0.17725400   1.21750445  -0.93189804   0.00033897   0.05085411  -0.63566242  -0.47673104
8750.000    -0.84602333  -0.17555231   1.18985212  -0.94454627   0.00043861   0.05155435  -0.64156195  -0.47245280
8800.000    -0.84842630  -0.17234989   1.16180156  -0.95630186   0.00053858   0.05205502  -0.64926003  -0.46747974
8850.000    -0.85182953  -0.16994719   1.13414710  -0.96775055   0.00073836   0.05255562  -0.65545856  -0.46350111
8900.000    -0.85433153  -0.16774451   1.10747910  -0.97779814   0.00073876   0.05285588  -0.65946459  -0.45791992
8950.000    -0.85723396  -0.16564213   1.07942160  -0.98726307   0.00073911   0.05335666  -0.66856474  -0.45115201
9000.000    -0.86053697  -0.16193949   1.05165568  -0.99510401   0.00093865   0.05395685  -0.67206526  -0.44836450
9050.000    -0.86344017  -0.15953707   1.02629187  -1.00436547   0.00113881   0.05455778  -0.68096664  -0.44129576
9100.000    -0.86504320  -0.15703318   0.99813126  -1.01242616   0.00153883   0.05495909  -0.68976484  -0.43582369
9150.000    -0.86934507  -0.15172990   0.96915784  -1.01767852   0.00163906   0.05535953  -0.69456870  -0.43064209
9200.000    -0.87184683  -0.15022643   0.94098709  -1.02402918   0.00173934   0.05566015  -0.70007043  -0.42596097
9250.000    -0.87344864  -0.14702314   0.91460446  -1.02718725   0.00193984   0.05606086  -0.70597749  -0.41848456
9300.000    -0.87675018  -0.14271994   0.88742733  -1.03024335   0.00204020   0.05646157  -0.71257994  -0.41270670
9350.000    -0.87885134  -0.14181705   0.86093993  -1.03210084   0.00204093   0.05686204  -0.71818810  -0.40482938
9400.000    -0.88125305  -0.13851401   0.83416587  -1.03454943   0.00214086   0.05736267  -0.72448597  -0.40154668
9450.000    -0.88385468  -0.13491078   0.80817095  -1.03510394   0.00234149   0.05786312  -0.72889702  -0.39296717
9500.000    -0.88625593  -0.13200801   0.78398558  -1.03445303   0.00244168   0.05836371  -0.73479867  -0.38808525
9550.000    -0.88765746  -0.12810506   0.75929372  -1.03580222   0.00254222   0.05886413  -0.73960619  -0.38090394
9600.000    -0.89025884  -0.12530089   0.73289688  -1.03435437   0.00294279   0.05926485  -0.74401558  -0.37292256
9650.000    -0.89115971  -0.12169752   0.70870403  -1.03210583   0.00314332   0.05966564  -0.75012005  -0.36634218
9700.000    -0.89236007  -0.11849512   0.68620768  -1.02994754   0.00304392   0.06006582  -0.75392587  -0.36055626
9750.000    -0.89416134  -0.11729243   0.66210928  -1.02659500   0.00314433   0.06076614  -0.75863263  -0.35357319
9800.000    -0.89536200  -0.11528892   0.64241012  -1.02273667   0.00354478   0.06106699  -0.76343741  -0.34758877
9850.000    -0.89786227  -0.11218524   0.61950812  -1.02047699   0.00374562   0.06126746  -0.76654614  -0.34040255
9900.000    -0.90056234  -0.10968255   0.59770319  -1.01562481   0.00374663   0.06166798  -0.77195419  -0.33192144
9950.000    -0.90146199  -0.10797956   0.57879697  -1.01195931   0.00384760   0.06176834  -0.77456273  -0.32493364
10000.000   -0.90546153  -0.10427728   0.53608647  -1.00334328   0.00274989   0.06286816  -0.78377775  -0.30906579
! Noise Parameters
! Freq(MHz) Fmin(dB) GammmaOpt(MA:Mag) GammmaOpt(MA:Ang) RN/Zo
4900.0000      1.68000000   0.60000000 156.80000000   0.07700000
5000.0000      1.72000000   0.60000000 157.70000000   0.07600000
5100.0000      1.75000000   0.60000000 158.50000000   0.07600000
5200.0000      1.79000000   0.61000000 159.40000000   0.07500000
5300.0000      1.84000000   0.61000000 160.20000000   0.07500000
5400.0000      1.89000000   0.62000000 161.10000000   0.07400000
5500.0000      1.94000000   0.62000000 162.00000000   0.07400000
5600.0000      2.01000000   0.63000000 162.90000000   0.07400000
5700.0000      2.07000000   0.63000000 164.00000000   0.07300000
5800.0000      2.10000000   0.63000000 164.80000000   0.07200000
5900.0000      2.12000000   0.63000000 165.40000000   0.07200000
6000.0000      2.17000000   0.63000000 166.10000000   0.07100000