! Copyright 2010-2015 The MathWorks, Inc.
!  
# MHz S RI R 50
! S-Parameters data
! Freq   reS11   imS11   reS21   imS21   reS12   imS12   reS22   imS22
1943   -0.8753124300  -0.3626468244   0.0368182320  -0.0148805174   0.0368182320  -0.0148805174  -0.8460743984  -0.4264695671
1946   -0.8760250264  -0.3590148908   0.0367764137  -0.0148815543   0.0367764137  -0.0148815543  -0.8473346173  -0.4230371795
1949   -0.8771112295  -0.3545326244   0.0367754000  -0.0148547205   0.0367754000  -0.0148547205  -0.8489877842  -0.4191528722
1952   -0.8787197171  -0.3505148915   0.0368447461  -0.0148992345   0.0368447461  -0.0148992345  -0.8507463502  -0.4151714847
1955   -0.8800304512  -0.3462315714   0.0369330610  -0.0150090176   0.0369330610  -0.0150090176  -0.8527545616  -0.4114589410
1958   -0.8816969053  -0.3415791031   0.0370133842  -0.0152277602   0.0370133842  -0.0152277602  -0.8546592493  -0.4074184094
1961   -0.8806608933  -0.3368865448   0.0368888532  -0.0156386693   0.0368888532  -0.0156386693  -0.8542108354  -0.4021574464
1964   -0.8822791089  -0.3336580652   0.0367965594  -0.0158462139   0.0367965594  -0.0158462139  -0.8561113859  -0.3992306232
1967   -0.8862028342  -0.3302153283   0.0368062581  -0.0159906133   0.0368062581  -0.0159906133  -0.8597729825  -0.3964149416
1970   -0.8883742416  -0.3252227971   0.0367304293  -0.0163340564   0.0367304293  -0.0163340564  -0.8619617607  -0.3915612924
1973   -0.8898907719  -0.3200700242   0.0365614271  -0.0166726678   0.0365614271  -0.0166726678  -0.8638741262  -0.3870013189
1976   -0.8910097639  -0.3150961104   0.0363175548  -0.0169559146   0.0363175548  -0.0169559146  -0.8656043667  -0.3825323591
1979   -0.8922227109  -0.3103556902   0.0360091226  -0.0171874645   0.0360091226  -0.0171874645  -0.8671289131  -0.3779870472
1982   -0.8935236781  -0.3060143550   0.0356879716  -0.0173384847   0.0356879716  -0.0173384847  -0.8685202526  -0.3738889363
1985   -0.8946290357  -0.3014686768   0.0354225018  -0.0174904721   0.0354225018  -0.0174904721  -0.8700147749  -0.3700648145
1988   -0.8959786271  -0.2966115330   0.0351538109  -0.0176377887   0.0351538109  -0.0176377887  -0.8718824585  -0.3656713497
1991   -0.8972011039  -0.2925698125   0.0348261312  -0.0178213368   0.0348261312  -0.0178213368  -0.8734261896  -0.3614068873
1994   -0.8990032356  -0.2884147953   0.0346185015  -0.0178469971   0.0346185015  -0.0178469971  -0.8750511236  -0.3581044282
1997   -0.9009022405  -0.2836506173   0.0343772295  -0.0180019470   0.0343772295  -0.0180019470  -0.8776692620  -0.3541036888
2000   -0.9015132330  -0.2791364376   0.0340442621  -0.0181165843   0.0340442621  -0.0181165843  -0.8794827961  -0.3496214688
2003   -0.9039174368  -0.2739669987   0.0337471663  -0.0182644470   0.0337471663  -0.0182644470  -0.8815452165  -0.3445162618
2006   -0.9052613375  -0.2690015547   0.0332861480  -0.0183210089   0.0332861480  -0.0183210089  -0.8829886701  -0.3395383017
2009   -0.9061780537  -0.2639627941   0.0328916580  -0.0183423562   0.0328916580  -0.0183423562  -0.8840769656  -0.3345705243
2012   -0.9074085263  -0.2589102006   0.0324885629  -0.0182323396   0.0324885629  -0.0182323396  -0.8856753346  -0.3303032984
2015   -0.9080490457  -0.2537274042   0.0320950192  -0.0180355825   0.0320950192  -0.0180355825  -0.8865542635  -0.3258349366
2018   -0.9083642402  -0.2491202737   0.0318212926  -0.0178312188   0.0318212926  -0.0178312188  -0.8871552565  -0.3215823644
2021   -0.9091642575  -0.2447854831   0.0315799209  -0.0175387402   0.0315799209  -0.0175387402  -0.8881048740  -0.3177241999
2024   -0.9105974093  -0.2409577082   0.0314610623  -0.0172990365   0.0314610623  -0.0172990365  -0.8897809692  -0.3137483353
2027   -0.9121458199  -0.2365299718   0.0314340992  -0.0170977974   0.0314340992  -0.0170977974  -0.8916914973  -0.3092320710
2030   -0.9138108953  -0.2317431833   0.0313986529  -0.0169314321   0.0313986529  -0.0169314321  -0.8935018868  -0.3049374553
2033   -0.9153313721  -0.2266172672   0.0314186828  -0.0168160405   0.0314186828  -0.0168160405  -0.8955811597  -0.3002112124
2036   -0.9166244464  -0.2213230475   0.0314388646  -0.0167369056   0.0314388646  -0.0167369056  -0.8971264671  -0.2950380370
2039   -0.9177805312  -0.2158631291   0.0314505304  -0.0167022804   0.0314505304  -0.0167022804  -0.8984388630  -0.2898170305
2042   -0.9185625278  -0.2101333271   0.0314208721  -0.0166779590   0.0314208721  -0.0166779590  -0.8996661561  -0.2844040910
2045   -0.9190007618  -0.2045675044   0.0313550159  -0.0166490957   0.0313550159  -0.0166490957  -0.9006074021  -0.2791312951
2048   -0.9194958648  -0.1993517735   0.0313452896  -0.0166084236   0.0313452896  -0.0166084236  -0.9012632493  -0.2743023184
2051   -0.9201085495  -0.1943849977   0.0313715150  -0.0165449139   0.0313715150  -0.0165449139  -0.9021595218  -0.2697989132
2054   -0.9207888518  -0.1898039580   0.0314161486  -0.0165315504   0.0314161486  -0.0165315504  -0.9034648384  -0.2653573387
2057   -0.9217037035  -0.1852828297   0.0315381246  -0.0166055970   0.0315381246  -0.0166055970  -0.9047596325  -0.2606968710
2060   -0.9227420866  -0.1803496176   0.0316427379  -0.0167192957   0.0316427379  -0.0167192957  -0.9061698359  -0.2561084633
2063   -0.9238060812  -0.1753339633   0.0316782264  -0.0169191493   0.0316782264  -0.0169191493  -0.9074770616  -0.2516104874
2066   -0.9251217879  -0.1702650181   0.0316820946  -0.0171704143   0.0316820946  -0.0171704143  -0.9090984536  -0.2467259734
2069   -0.9265256717  -0.1647253471   0.0316144453  -0.0174289370   0.0316144453  -0.0174289370  -0.9110126475  -0.2416534960
2072   -0.9278440991  -0.1589539661   0.0314415078  -0.0176698285   0.0314415078  -0.0176698285  -0.9127359268  -0.2361560927
2075   -0.9283020194  -0.1531638430   0.0312452600  -0.0178574107   0.0312452600  -0.0178574107  -0.9135426049  -0.2306518436
2078   -0.9288579962  -0.1472202107   0.0310093178  -0.0180040758   0.0310093178  -0.0180040758  -0.9142234053  -0.2252088869
2081   -0.9288178829  -0.1413954723   0.0307770261  -0.0180766962   0.0307770261  -0.0180766962  -0.9146751006  -0.2198897654
2084   -0.9290981470  -0.1363557801   0.0305587247  -0.0181144682   0.0305587247  -0.0181144682  -0.9152500931  -0.2153284673
2087   -0.9294018734  -0.1314819532   0.0304610066  -0.0181707315   0.0304610066  -0.0181707315  -0.9155053726  -0.2098323223
2090   -0.9298031621  -0.1264093212   0.0303846272  -0.0182532381   0.0303846272  -0.0182532381  -0.9164154357  -0.2050832739
2093   -0.9305313378  -0.1217737688   0.0303075074  -0.0184200542   0.0303075074  -0.0184200542  -0.9177829497  -0.2004983813
2096   -0.9320930796  -0.1164359621   0.0301032096  -0.0186601288   0.0301032096  -0.0186601288  -0.9189207237  -0.1952319303
2099   -0.9332544883  -0.1104171867   0.0298469154  -0.0188864075   0.0298469154  -0.0188864075  -0.9203523222  -0.1899032211
2102   -0.9337069061  -0.1041535592   0.0295682132  -0.0190201365   0.0295682132  -0.0190201365  -0.9215016682  -0.1842508540
2105   -0.9338587252  -0.0979663411   0.0293077937  -0.0191256828   0.0293077937  -0.0191256828  -0.9223591582  -0.1781648778
2108   -0.9340057247  -0.0920131227   0.0290243024  -0.0192270403   0.0290243024  -0.0192270403  -0.9227330472  -0.1726896825
2111   -0.9344651768  -0.0861582744   0.0287577213  -0.0193267090   0.0287577213  -0.0193267090  -0.9236566465  -0.1669892997
2114   -0.9347551377  -0.0803125611   0.0284705558  -0.0193992086   0.0284705558  -0.0193992086  -0.9247095325  -0.1613735549
2117   -0.9346695127  -0.0741678144   0.0281608323  -0.0194214064   0.0281608323  -0.0194214064  -0.9251965602  -0.1554709040
2120   -0.9345186349  -0.0681222928   0.0278766664  -0.0194606838   0.0278766664  -0.0194606838  -0.9253099700  -0.1497942189
2123   -0.9343640023  -0.0624745584   0.0276410603  -0.0195310001   0.0276410603  -0.0195310001  -0.9257644234  -0.1443668979
2126   -0.9346074513  -0.0568692552   0.0273984975  -0.0196501035   0.0273984975  -0.0196501035  -0.9266146932  -0.1389026459
2129   -0.9352113025  -0.0510675415   0.0270615225  -0.0197935499   0.0270615225  -0.0197935499  -0.9276938202  -0.1333780120
2132   -0.9357980609  -0.0449214788   0.0266420712  -0.0198832118   0.0266420712  -0.0198832118  -0.9287129356  -0.1276177542
2135   -0.9363025129  -0.0384471664   0.0262302957  -0.0198996583   0.0262302957  -0.0198996583  -0.9293680784  -0.1215035357
2138   -0.9362001013  -0.0319549117   0.0258213665  -0.0198677280   0.0258213665  -0.0198677280  -0.9299483632  -0.1151189198
2141   -0.9356864169  -0.0253106923   0.0253796769  -0.0198281965   0.0253796769  -0.0198281965  -0.9303782469  -0.1088439792
2144   -0.9352700920  -0.0186131147   0.0249846292  -0.0197178075   0.0249846292  -0.0197178075  -0.9307975759  -0.1023202386
2147   -0.9346175843  -0.0119775646   0.0245960838  -0.0196107956   0.0245960838  -0.0196107956  -0.9306594920  -0.0960011223
2150   -0.9341712500  -0.0056647752   0.0242127287  -0.0193977702   0.0242127287  -0.0193977702  -0.9300232436  -0.0896109515
2153   -0.9338032462  -0.0000680382   0.0239041604  -0.0191701811   0.0239041604  -0.0191701811  -0.9297369968  -0.0846475612
2156   -0.9333110039   0.0054736002   0.0236827333  -0.0190249064   0.0236827333  -0.0190249064  -0.9303039545  -0.0789632016
2159   -0.9335757890   0.0120217575   0.0234509831  -0.0188794945   0.0234509831  -0.0188794945  -0.9317408860  -0.0728243411
2162   -0.9337308390   0.0189982960   0.0232402186  -0.0188452340   0.0232402186  -0.0188452340  -0.9321481195  -0.0659347137
2165   -0.9334481304   0.0258919885   0.0229659960  -0.0188568858   0.0229659960  -0.0188568858  -0.9320746962  -0.0592819359
2168   -0.9329921270   0.0327196748   0.0225750331  -0.0188455022   0.0225750331  -0.0188455022  -0.9327193540  -0.0522650347
2171   -0.9324515006   0.0398998287   0.0221143171  -0.0187700361   0.0221143171  -0.0187700361  -0.9328808106  -0.0454160191
2174   -0.9315592126   0.0471824777   0.0216456116  -0.0186030269   0.0216456116  -0.0186030269  -0.9328155125  -0.0386405570
2177   -0.9307614284   0.0545821967   0.0211897557  -0.0183338661   0.0211897557  -0.0183338661  -0.9322898023  -0.0314770212
2180   -0.9298761488   0.0613278601   0.0207636103  -0.0178993120   0.0207636103  -0.0178993120  -0.9316893327  -0.0247996723
2183   -0.9291394848   0.0682080915   0.0205502555  -0.0174048982   0.0205502555  -0.0174048982  -0.9313458248  -0.0183787987
2186   -0.9279272409   0.0760134518   0.0204677319  -0.0170120208   0.0204677319  -0.0170120208  -0.9307907583  -0.0113498952
2189   -0.9264505577   0.0835551108   0.0204295598  -0.0166620214   0.0204295598  -0.0166620214  -0.9303606104  -0.0041322653
2192   -0.9245225267   0.0904111111   0.0204736076  -0.0163886168   0.0204736076  -0.0163886168  -0.9292879427   0.0024731520
2195   -0.9231676091   0.0963995404   0.0206138840  -0.0163501542   0.0206138840  -0.0163501542  -0.9289188657   0.0080326491
2198   -0.9233552679   0.1029406340   0.0206014213  -0.0164725971   0.0206014213  -0.0164725971  -0.9297729615   0.0146612524
2201   -0.9239801255   0.1107180276   0.0203568707  -0.0166571781   0.0203568707  -0.0166571781  -0.9306503257   0.0229341964
2204   -0.9237849009   0.1196913104   0.0199780561  -0.0167571190   0.0199780561  -0.0167571190  -0.9308858922   0.0322443430
2207   -0.9222137366   0.1294001122   0.0194867257  -0.0166927091   0.0194867257  -0.0166927091  -0.9298283226   0.0415895783
2210   -0.9194166907   0.1386907445   0.0189535835  -0.0165043517   0.0189535835  -0.0165043517  -0.9277012927   0.0503601303
2213   -0.9160169376   0.1470100459   0.0184959589  -0.0161726893   0.0184959589  -0.0161726893  -0.9255407424   0.0582872873
2216   -0.9124982605   0.1543236059   0.0181968771  -0.0157122560   0.0181968771  -0.0157122560  -0.9231332919   0.0651211374
2219   -0.9098415949   0.1608866054   0.0181462821  -0.0152777622   0.0181462821  -0.0152777622  -0.9209327634   0.0718156721
2222   -0.9083108811   0.1674181672   0.0182003259  -0.0151118114   0.0182003259  -0.0151118114  -0.9202085961   0.0776531323
2225   -0.9077853177   0.1740766166   0.0181391115  -0.0151609205   0.0181391115  -0.0151609205  -0.9211157877   0.0852928576
2228   -0.9078029529   0.1832167296   0.0179539617  -0.0151858197   0.0179539617  -0.0151858197  -0.9214851813   0.0940935795
2231   -0.9073600358   0.1934338475   0.0176704374  -0.0153294723   0.0176704374  -0.0153294723  -0.9214999371   0.1042209463
2234   -0.9052108721   0.2041603684   0.0171798752  -0.0154739389   0.0171798752  -0.0154739389  -0.9204643522   0.1146928237
2237   -0.9015164132   0.2153014502   0.0165886283  -0.0154346177   0.0165886283  -0.0154346177  -0.9180961070   0.1256292812
2240   -0.8977282734   0.2256951254   0.0159765086  -0.0152603421   0.0159765086  -0.0152603421  -0.9153699277   0.1351365904
2243   -0.8938012179   0.2349373676   0.0154149184  -0.0150062462   0.0154149184  -0.0150062462  -0.9118119241   0.1451897906
2246   -0.8887964021   0.2435525712   0.0149276181  -0.0147147963   0.0149276181  -0.0147147963  -0.9081789067   0.1534606813
2249   -0.8859099715   0.2515484335   0.0144474772  -0.0145446253   0.0144474772  -0.0145446253  -0.9055090586   0.1611860895
2252   -0.8839322141   0.2608997584   0.0138382727  -0.0143597881   0.0138382727  -0.0143597881  -0.9045911145   0.1701318118
2255   -0.8808625496   0.2711829759   0.0131744709  -0.0140133626   0.0131744709  -0.0140133626  -0.9031318035   0.1804596064
2258   -0.8780661717   0.2817975349   0.0125937294  -0.0136069484   0.0125937294  -0.0136069484  -0.9014612100   0.1914378343
2261   -0.8750527653   0.2933234069   0.0118971389  -0.0132137151   0.0118971389  -0.0132137151  -0.8991519733   0.2030351131
2264   -0.8715852474   0.3058827252   0.0111654385  -0.0126883608   0.0111654385  -0.0126883608  -0.8965580423   0.2155423940
2267   -0.8665042641   0.3195076776   0.0105301454  -0.0119952493   0.0105301454  -0.0119952493  -0.8927024691   0.2286565719
2270   -0.8595971333   0.3327411637   0.0100076531  -0.0112671424   0.0100076531  -0.0112671424  -0.8876347439   0.2419755707
2273   -0.8519042670   0.3452642418   0.0096022102  -0.0105929720   0.0096022102  -0.0105929720  -0.8812309728   0.2547142385
2276   -0.8436161465   0.3565732007   0.0091948035  -0.0099427238   0.0091948035  -0.0099427238  -0.8739576618   0.2663778891
2279   -0.8353029452   0.3670109995   0.0088017179  -0.0092492864   0.0088017179  -0.0092492864  -0.8671145805   0.2769419033
2282   -0.8281500542   0.3768602687   0.0085344635  -0.0085123085   0.0085344635  -0.0085123085  -0.8613074962   0.2870620915
2285   -0.8222945177   0.3864027363   0.0084209407  -0.0079472253   0.0084209407  -0.0079472253  -0.8568104956   0.2970088581
2288   -0.8183597916   0.3973584627   0.0082393697  -0.0077243721   0.0082393697  -0.0077243721  -0.8548475391   0.3088804036
2291   -0.8151521562   0.4127935833   0.0076171466  -0.0076221504   0.0076171466  -0.0076221504  -0.8530682932   0.3256421009
2294   -0.8079640726   0.4325322647   0.0065987532  -0.0072018998   0.0065987532  -0.0072018998  -0.8464140740   0.3456379016
2297   -0.7955799314   0.4515895103   0.0056626389  -0.0063022616   0.0056626389  -0.0063022616  -0.8352657749   0.3650603862
2300   -0.7799449959   0.4684027236   0.0050506926  -0.0052233778   0.0050506926  -0.0052233778  -0.8209289509   0.3826303810
2303   -0.7614990709   0.4821992094   0.0047285139  -0.0041411869   0.0047285139  -0.0041411869  -0.8033871377   0.3968201450
2306   -0.7427944061   0.4889219610   0.0046327171  -0.0031750313   0.0046327171  -0.0031750313  -0.7869294090   0.4027309413
2309   -0.7333083864   0.4893150978   0.0048040801  -0.0025807779   0.0048040801  -0.0025807779  -0.7818555694   0.4045352684
2312   -0.7378748031   0.5026435713   0.0045146649  -0.0025051980   0.0045146649  -0.0025051980  -0.7865300953   0.4220186247
2315   -0.7312095468   0.5300273139   0.0039947102  -0.0021090844   0.0039947102  -0.0021090844  -0.7791029038   0.4506562119
2318   -0.7151587204   0.5569949804   0.0035804018  -0.0021023084   0.0035804018  -0.0021023084  -0.7640401218   0.4785946728
2321   -0.6927443183   0.5824428735   0.0025731870  -0.0018674030   0.0025731870  -0.0018674030  -0.7418751044   0.5057740703
2324   -0.6603339755   0.6039418398   0.0016163789  -0.0013457244   0.0016163789  -0.0013457244  -0.7082497257   0.5269862787
2327   -0.6293705346   0.6053313934   0.0011407573  -0.0006082432   0.0011407573  -0.0006082432  -0.6836256793   0.5249070447
2330   -0.6206075591   0.6170771675   0.0007320806  -0.0007292899   0.0007320806  -0.0007292899  -0.6782126033   0.5426701707
2333   -0.6034301134   0.6416492579  -0.0000228502  -0.0010153298  -0.0000228502  -0.0010153298  -0.6605296231   0.5714571221
2336   -0.5773743309   0.6687244798  -0.0009180578  -0.0016362744  -0.0009180578  -0.0016362744  -0.6346617535   0.6017811253
2339   -0.5443435650   0.6970363657  -0.0020809212  -0.0026079678  -0.0020809212  -0.0026079678  -0.6003531022   0.6336497483
2342   -0.5026272458   0.7224737467  -0.0036950576  -0.0039727063  -0.0036950576  -0.0039727063  -0.5571912883   0.6609676577
2345   -0.4570796432   0.7463990426  -0.0056567916  -0.0058587976  -0.0056567916  -0.0058587976  -0.5087520305   0.6887521903
2348   -0.4028540716   0.7700832008  -0.0084195719  -0.0084749459  -0.0084195719  -0.0084749459  -0.4485186887   0.7153742592
2351   -0.3379627014   0.7877236242  -0.0121376554  -0.0112525629  -0.0121376554  -0.0112525629  -0.3784287547   0.7314449330
2354   -0.2659200812   0.8032660779  -0.0163404151  -0.0149910043  -0.0163404151  -0.0149910043  -0.2953441921   0.7471454658
2357   -0.1777816116   0.8129066023  -0.0216207696  -0.0194052134  -0.0216207696  -0.0194052134  -0.1879881303   0.7521864087
2360   -0.0684838127   0.8049779398  -0.0262056197  -0.0242696470  -0.0262056197  -0.0242696470  -0.0534010363   0.7199364632
2363    0.0592023988   0.7646935344  -0.0253045332  -0.0348578662  -0.0253045332  -0.0348578662   0.0941255544   0.6193571520
2366    0.1898836464   0.6717398730  -0.0229999565  -0.0715832456  -0.0229999565  -0.0715832456   0.1921586374   0.4211386011
2369    0.2937817654   0.5207884624  -0.0579234291  -0.1481845330  -0.0579234291  -0.1481845330   0.1343904917   0.1866671207
2372    0.3281142188   0.3248181503  -0.1936660588  -0.2174494344  -0.1936660588  -0.2174494344  -0.0553403183   0.0864914265
2375    0.2610983555   0.1306366246  -0.4097368113  -0.1705807121  -0.4097368113  -0.1705807121  -0.1745360972   0.1532654196
2378    0.1315410421   0.0150850986  -0.5630910487   0.0351239571  -0.5630910487   0.0351239571  -0.1620279456   0.2012851123
2381   -0.0036470084  -0.0290053524  -0.5759362711   0.2854468573  -0.5759362711   0.2854468573  -0.1513094327   0.1863916266
2384   -0.1204296098  -0.0080946741  -0.4787959636   0.4959546840  -0.4787959636   0.4959546840  -0.1682626324   0.1711380660
2387   -0.1877797749   0.0514628843  -0.3275356380   0.6339296743  -0.3275356380   0.6339296743  -0.1841905038   0.1785210375
2390   -0.2062932301   0.1125099246  -0.1665662092   0.7088438355  -0.1665662092   0.7088438355  -0.1805973821   0.1949276054
2393   -0.1894004500   0.1626052777  -0.0100439115   0.7397997444  -0.0100439115   0.7397997444  -0.1594747491   0.2061427252
2396   -0.1429474254   0.1877136399   0.1366244990   0.7374106752   0.1366244990   0.7374106752  -0.1222130785   0.2066514088
2399   -0.0793388405   0.1731447452   0.2678793266   0.7036312488   0.2678793266   0.7036312488  -0.0743916881   0.1821819306
2402   -0.0488670812   0.1050264373   0.3694121838   0.6694749076   0.3694121838   0.6694749076  -0.0359850593   0.1231458487
2405   -0.0554839472   0.0582120410   0.4954971784   0.6225927381   0.4954971784   0.6225927381  -0.0375652804   0.0598804373
2408   -0.0635770977   0.0139161785   0.6062711125   0.5359344134   0.6062711125   0.5359344134  -0.0340912849  -0.0268707441
2411   -0.0819197973  -0.0315264393   0.6845675025   0.4294936789   0.6845675025   0.4294936789  -0.0656939152  -0.0470194716
