# GHz S DB R 50
! S-Parameters data
! Freq   dbS11  angS11   dbS21  angS21   dbS12  angS12   dbS22  angS22
1.6000000000                   -15.7730569315        -117.0412452552          41.3941334067         140.7355925577         -42.5626605334         143.4266560529          -7.1434595036         -78.5957687305
1.6266666667                   -16.7275105954        -117.5993368524          40.9181693086         132.7408856580         -42.7727985211         141.1306520130          -6.5504103809         -86.4551817678
1.6533333333                   -17.6665216702        -119.5805482308          40.3705654630         123.1771385018         -42.6209567114         139.0730540729          -6.1325742590         -94.0347666047
1.6800000000                   -18.4512305406        -119.2104006776          40.5889461393         106.7775952778         -42.7021262840         135.9841240403          -5.8563017569        -101.1862062351
1.7066666667                   -19.5502624312        -118.4576008739          39.2032693319          99.3307937121         -42.5632394519         132.1884483145          -5.5528326741        -109.7357305833
1.7333333333                   -20.7340460834        -117.9895569184          39.5473537459          83.7185333078         -42.1001630740         128.0406815438          -5.4409859622        -117.9896208795
1.7600000000                   -21.3491066336        -116.2635090480          38.3622884793          70.0141820530         -42.7444934005         123.9933756724          -5.1973441185        -127.8762984614
1.7866666667                   -22.1866994724        -109.5484685299          38.6083853359          55.6236492819         -42.8568670220         122.0398342763          -5.0841152133        -136.6951346971
1.8133333333                   -23.2204263072        -106.2819847146          39.2022225587          40.6488657571         -42.7382020563         118.5874106937          -5.2410459844        -145.2354057083
1.8400000000                   -23.6956622948         -92.8569357975          39.1610115055          27.0049658085         -42.8632054190         116.5341980210          -5.2291694481        -154.6368012823
1.8666666667                   -23.8505732738         -82.5532130121          39.0224161326           8.0319125506         -42.8639028165         114.2786806701          -5.3128461936        -164.3586791935
1.8933333333                   -23.0146711801         -76.1083574001          38.8435781045         -12.7916559779         -42.8980091770         108.1328609762          -5.6368279784        -174.0389979943
1.9200000000                   -21.5702716331         -69.2429324171          39.5926287010         -22.3706322773         -43.2098094042         105.1537136523          -6.0041215721         175.4457725601
1.9466666667                   -19.9542516259         -64.9468436302          39.8622960619         -39.8707236153         -43.3320960432         102.5209595699          -6.2005178544         165.1265210906
1.9733333333                   -18.6131598945         -67.7646704531          40.2212798839         -49.6794798029         -43.4479841723          96.9228257756          -6.7754500066         154.1094017574
2.0000000000                   -17.3745140659         -70.8686259628          40.6784465851         -67.0639000239         -43.7356678870          93.8268976533          -7.1877451034         143.8408602828
2.0266666667                   -16.3888856148         -76.6708870639          40.8987301503         -77.8327718314         -44.2711963262          91.2708839015          -8.1064271949         131.3265438003
2.0533333333                   -15.5189605426         -82.5116178239          41.1259249848         -91.6855996576         -45.1127841449          85.5003595263          -8.9266761940         120.7929598682
2.0800000000                   -14.6984407913         -89.5534224826          41.3605406998        -103.5287102043         -45.5675903906          83.0003594883          -9.6284989233         108.7166646593
2.1066666667                   -14.2865816318         -97.2435806243          42.2665205341        -116.0808085395         -46.2354795711          80.9659037799         -10.4189268434          96.2207560001
2.1333333333                   -14.1302206898        -104.7896731366          41.9127639542        -127.6747507847         -46.7776065386          76.3688565614         -11.1017823001          83.5230272817
2.1600000000                   -14.1078990271        -111.7504399968          42.4825229820        -138.7194693061         -47.9669881904          73.5970611614         -11.5714806616          71.7351087398
2.1866666667                   -14.1649430742        -117.9342050833          42.4593359916        -151.0842047730         -48.2831416051          77.3393943704         -11.9491981137          57.6124205987
2.2133333333                   -14.2922415787        -122.9487618424          43.0030555164        -160.1927878847         -49.2375104798          76.8915830405         -12.4082378551          45.6240170737
2.2400000000                   -14.3876982011        -128.2923629785          42.9791861206        -172.2539605404         -50.0670715364          78.9824661847         -12.3925405549          30.9355197766
2.2666666667                   -14.5899939751        -133.3738040578          42.7201285486         171.9700086378         -50.9809963158          71.8653834171         -12.6503698481          17.0842321935
2.2933333333                   -14.9990914865        -137.6256929729          42.8589633810         161.3684701262         -52.2724904464          71.9978065646         -12.2700302727           2.5401473063
2.3200000000                   -15.1850172062        -143.4891129218          42.6814106110         150.9957448229         -52.6748893214          81.2547724684         -12.3203668947         -10.7155835225
2.3466666667                   -15.5827000129        -148.1348575541          42.5039177928         136.4308908523         -53.7201654471          78.9963070173         -11.8014253357         -23.5034778372
2.3733333333                   -16.0836718789        -151.8448994460          42.2380310724         123.4016815282         -54.7737548902          88.1151883605         -11.2597360781         -34.6080287824
2.4000000000                   -16.5880537802        -151.6694113434          41.8447764571         108.7589673765         -54.7274067499          90.6271983390         -10.9189469608         -47.2900354341
