"Freq [GHz]","im(S(1,1)) []","im(S(1,2)) []","im(S(1,3)) []","im(S(1,4)) []","im(S(2,1)) []","im(S(2,2)) []","im(S(2,3)) []","im(S(2,4)) []","im(S(3,1)) []","im(S(3,2)) []","im(S(3,3)) []","im(S(3,4)) []","im(S(4,1)) []","im(S(4,2)) []","im(S(4,3)) []","im(S(4,4)) []"
3,-0.445988744198959,0.00540012076978753,-0.279339677192534,-0.125739067929914,0.00540012076978579,0.253721982311582,-0.125738587527811,0.323936807029027,-0.279339677192531,-0.125738587527821,-0.44584587839903,0.00525895130781179,-0.125739067929919,0.323936807029035,0.00525895130781537,0.254438440242464
3.1,-0.440506031879115,0.0496805659224011,-0.16179939328388,-0.257568701217986,0.0496805659223876,0.336301068413484,-0.257787587021521,0.375293987297363,-0.161799393283891,-0.257787587021525,-0.440358047116797,0.0491969456072632,-0.257568701217995,0.375293987297376,0.0491969456072723,0.337496688436779
3.2,-0.43281796562306,0.0757217331511574,-0.0165186321005745,-0.365759159112445,0.0757217331511471,0.411543263982668,-0.366246074556831,0.380487589296909,-0.0165186321005851,-0.366246074556832,-0.432388604352174,0.0745747718198427,-0.365759159112448,0.380487589296918,0.0745747718198474,0.413241508892643
3.3,-0.418194979646691,0.0832953443505484,0.146727442061214,-0.430951332801728,0.0832953443505441,0.458559590905264,-0.431726214403134,0.337596103590035,0.146727442061212,-0.431726214403137,-0.416964070219866,0.0811695122270911,-0.43095133280173,0.337596103590039,0.0811695122270949,0.460584122797924
3.4,-0.388277044120759,0.0804623906962277,0.310737889402287,-0.43475793538099,0.080462390696221,0.455560035569069,-0.435740706433176,0.249351923681687,0.310737889402289,-0.435740706433187,-0.385413846648666,0.0771815849617287,-0.434757935380995,0.24935192368169,0.0771815849617357,0.457462209928617
3.5,-0.336007094629017,0.0845467890686417,0.445557768840138,-0.35592590362676,0.0845467890686317,0.393427738924977,-0.356782490749476,0.117972105165669,0.445557768840139,-0.356782490749491,-0.330409359680612,0.0803289590984009,-0.355925903626755,0.11797210516567,0.0803289590984004,0.394325784004003
3.6,-0.261195879710523,0.108988336432525,0.481254163115497,-0.151799136957618,0.108988336432525,0.300970516940659,-0.151599468308364,-0.0573335485951783,0.481254163115493,-0.151599468308367,-0.251595444553954,0.105514342237718,-0.15179913695761,-0.0573335485951742,0.105514342237709,0.298633838963712
3.7,-0.226190960540684,0.165862205756658,-0.0336064127415829,0.372365491567421,0.165862205756663,0.321714887640083,0.37424603768983,-0.17611612678146,-0.0336064127415807,0.374246037689831,-0.227623697011988,0.180464117697282,0.3723654915674,-0.176116126781448,0.180464117697276,0.309323850862865
3.8,-0.0944628562512394,0.331015702935966,0.0407666127111657,0.152303835795284,0.331015702935975,-0.0522700060597895,0.151555950565011,0.0543245287566967,0.0407666127111661,0.15155595056501,-0.100751109975001,0.335414220216694,0.152303835795287,0.0543245287566949,0.335414220216692,-0.0523957202886253
3.9,-0.518311319241027,0.502800661534686,-0.0014005491337495,0.0779955080601251,0.502800661534694,-0.0536502253563634,0.07785055559718,0.159398709284179,-0.00140054913373631,0.0778505555971788,-0.519924128993144,0.502488588425969,0.0779955080601161,0.159398709284185,0.502488588425961,-0.0527399501472868
4,-0.599536710124545,0.44219482075772,-0.0546134322428749,0.00798906442962345,0.442194820757723,-0.0500647265117517,0.00822513223934049,0.119396184059972,-0.0546134322428752,0.00822513223934182,-0.599802876133291,0.442453981527669,0.00798906442962679,0.119396184059969,0.442453981527667,-0.050573127604643
4.1,-0.489650244284588,0.254224241944928,-0.105384253982817,0.0170322419465309,0.254224241944928,0.0302574648044358,0.0162363381721095,-0.0866790320966937,-0.105384253982818,0.0162363381721105,-0.492275237875928,0.25711214180331,0.0170322419465344,-0.0866790320966943,0.257112141803311,0.0294303127220016
4.2,-0.387596720901207,0.2934762882748,0.00500656653005832,-0.134498027454979,0.293476288274798,-0.113020441799934,-0.134437966644228,-0.0499884446989836,0.00500656653006003,-0.134437966644228,-0.387750907730834,0.293869129292288,-0.13449802745498,-0.0499884446989832,0.293869129292285,-0.111835120180018
4.3,0.0563437544696572,0.116480692533549,0.249256079225672,-0.102446469040409,0.116480692533546,0.0126276231410564,-0.106027230228435,-0.262755500629747,0.249256079225671,-0.106027230228428,0.0509551956638247,0.122692893063013,-0.102446469040408,-0.262755500629747,0.122692893063013,0.0105782491472804
4.4,0.0557275938805283,0.130773959397561,-0.389989559230596,0.11504434045176,0.130773959397496,0.0410860508861614,0.120083561448626,-0.0847926812877906,-0.389989559230595,0.120083561448444,0.0538770890139973,0.135870981839746,0.115044340451803,-0.0847926812877311,0.135870981839747,0.043046137108733
4.5,-0.0456257664265531,0.079256752691129,0.080236017383503,-0.140444652872553,0.0792567526911295,0.218518995889905,-0.144037664922565,0.0688084618051839,0.0802360173835037,-0.144037664922571,-0.0441887241281337,0.0761837668438396,-0.140444652872553,0.0688084618051893,0.0761837668438399,0.217660742926105
4.6,0.159410718588438,0.225636154021071,-0.0994740979746384,0.0311807881747307,0.22563615402242,-0.38127785358902,0.0279428195825306,-0.0741495463115916,-0.0994740979747986,0.0279428195836227,0.160111372683244,0.402297665099373,0.0311807881748232,-0.0741495463134456,0.40229766512038,-0.361698614540044
4.7,0.240414424518868,0.344309214207239,-0.190097269582655,-0.0159901867301956,0.344309214212858,-0.54702021797503,-0.00694747791490347,-0.00318280554053358,-0.190097269583608,-0.00694747791249007,0.270361617447759,0.234461997077826,-0.0159901867307992,-0.0031828055369653,0.234461997076082,-0.555549919548645
4.8,0.28229590175754,0.335509960544641,-0.103210093615102,-0.0502788375067875,0.335509960545166,-0.42450690221215,-0.0329186903311937,0.0130048068020587,-0.10321009361428,-0.0329186903299638,0.3594757726318,0.239194161897688,-0.0502788375078042,0.013004806808033,0.23919416189786,-0.523654371896223
4.9,0.306783629760045,0.320591752620093,-0.0220341561224724,-0.0655103070311418,0.320591752618121,-0.349167878143189,-0.0454299136104718,0.00997994181731179,-0.0220341561208707,-0.0454299136103873,0.433380010756805,0.244918979415643,-0.065510307032273,0.00997994182323642,0.244918979416166,-0.455994209340429
5,0.321241194489346,0.308458677448558,0.0225304623525324,-0.0717731927094733,0.308458677445425,-0.304976452934147,-0.0514455952988669,0.00280926211014088,0.0225304623540937,-0.0514455952995834,0.492151831747716,0.247050493133753,-0.0717731927105899,0.00280926211524623,0.247050493134393,-0.390602681780581
5.1,0.329316534712471,0.298521720357153,0.0472554429594619,-0.0739452608050428,0.298521720353417,-0.275577611304857,-0.0543270116155076,-0.00444692183500764,0.0472554429608045,-0.0543270116167616,0.536404986818654,0.24698189463296,-0.0739452608060947,-0.00444692183087947,0.246981894633649,-0.333927557451316
5.2,0.333175569373404,0.290046820045325,0.0619776225330863,-0.0741932703903653,0.290046820041246,-0.254123683660946,-0.0556088109188,-0.0107979996212279,0.0619776225342048,-0.0556088109204163,0.567414283521002,0.24564821711867,-0.0741932703913359,-0.0107979996180395,0.245648217119383,-0.286049242063808
5.3,0.334201861680557,0.28257912276623,0.0712880701733542,-0.0735233976904456,0.282579122761945,-0.237494994193541,-0.0560330901470738,-0.0161118571478839,0.0712880701742776,-0.0560330901489367,0.586801881714943,0.243574111238695,-0.0735233976913316,-0.0161118571455422,0.243574111239418,-0.245753896523697
5.4,0.333309693906073,0.275843609431193,0.0774318212285027,-0.0724272735231106,0.275843609426781,-0.224079510375932,-0.0559815444460269,-0.020489357043541,0.0774318212292614,-0.0559815444480589,0.596292485306575,0.241059108049754,-0.0724272735239158,-0.0204893570419441,0.241059108050481,-0.211715789084936
5.5,0.331115527011843,0.269667087473336,0.0815954914307099,-0.071154586385295,0.269667087468845,-0.21295015881499,-0.0556609547798195,-0.0240784520173926,0.0815954914313304,-0.0556609547819672,0.597559270915575,0.238281207092349,-0.0711545863860249,-0.0240784520164453,0.238281207093076,-0.182778067318848
5.6,0.328041136728682,0.263935083717458,0.0844533501520332,-0.069835005435216,0.263935083712922,-0.203527050594468,-0.0551880443179439,-0.027019413933796,0.0844533501525368,-0.0551880443201695,0.592137698757278,0.235350393005023,-0.0698350054358773,-0.0270194139334141,0.235350393005749,-0.157995255664968
5.7,0.324378509456412,0.25856844847317,0.0864128046956698,-0.0685360303249306,0.258568448468612,-0.195423174055878,-0.0546308038997342,-0.0294312135067197,0.0864128046960734,-0.0546308039020107,0.581385272301788,0.232336923599664,-0.0685360303255298,-0.0294312135068305,0.232336923600386,-0.136611912076108
5.8,0.320331751583946,0.253510234832911,0.0877329104368634,-0.0672918908011056,0.253510234828346,-0.188366985585754,-0.0540297505402742,-0.0314108237980219,0.0877329104371802,-0.0540297505425817,0.566470552864147,0.229286901403028,-0.0672918908016487,-0.0314108237985628,0.229286901403746,-0.118028229202681
5.9,0.316044660762368,0.248718026228266,0.0885855235209879,-0.0661186160157264,0.248718026223706,-0.182160376509208,-0.0534093848200392,-0.0330361741112137,0.0885855235212299,-0.053409384822363,0.548379535217814,0.226231209285723,-0.0661186160162194,-0.0330361741121312,0.226231209286436,-0.101767505926025
6,0.311619145037186,0.24415926309197,0.0890887598827363,-0.0650221698619588,0.244159263087424,-0.17665428304194,-0.0527846139155623,-0.0343696910203773,0.0890887598829134,-0.0527846139178912,0.527931307859196,0.223190839413029,-0.0650221698624067,-0.0343696910216253,0.223190839413736,-0.0874491731247302
6.1,0.307127697591045,0.239808288412746,0.0893262535226449,-0.0640029644291411,0.239808288408221,-0.171733726320316,-0.052164474043803,-0.0354614825740462,0.0893262535227644,-0.0521644740461286,0.505797776267863,0.220180182958132,-0.0640029644295491,-0.0354614825755851,0.220180182958834,-0.0747675087576524
6.2,0.302621952737281,0.235644416865257,0.0893587368066347,-0.0630584153628038,0.235644416860759,-0.167308200517917,-0.0515543491160367,-0.0363519509339111,0.0893587368067032,-0.0515543491183525,0.482524258278573,0.217209124151546,-0.0630584153631759,-0.0363519509357066,0.217209124152242,-0.0634751824784812
6.3,0.298138623350551,0.231650635062349,0.0892312727390636,-0.0621844079192674,0.231650635057881,-0.163305251907308,-0.0509573246331576,-0.0370738581822726,0.0892312727390868,-0.0509573246354587,0.458549140267876,0.214284409887464,-0.0621844079196076,-0.0370738581842949,0.214284409888153,-0.0533706278051635
6.4,0.293703666291595,0.227812703303543,0.0889779231900087,-0.0613761427209273,0.227812703299108,-0.159666046447498,-0.0503750302769895,-0.0376539352339576,0.0889779231899912,-0.0503750302792719,0.434221678929287,0.211410567267714,-0.0613761427212393,-0.0376539352361808,0.211410567268397,-0.0442883595066028
6.5,0.289335234347206,0.224118519983089,0.088624850383764,-0.0606286217100706,0.22411851997869,-0.156342223753162,-0.0498081728231818,-0.0381141289069299,0.0886248503837106,-0.0498081728254426,0.409817588440867,0.208590531494565,-0.0606286217103575,-0.0381141289093313,0.208590531495242,-0.036091529065684
