"Freq [GHz]","re(S(1,1)) []","re(S(1,2)) []","re(S(1,3)) []","re(S(1,4)) []","re(S(2,1)) []","re(S(2,2)) []","re(S(2,3)) []","re(S(2,4)) []","re(S(3,1)) []","re(S(3,2)) []","re(S(3,3)) []","re(S(3,4)) []","re(S(4,1)) []","re(S(4,2)) []","re(S(4,3)) []","re(S(4,4)) []"
3,-0.0978824561104126,-0.0449339152143857,-0.746361883921327,-0.0432520365524579,-0.0449339152143859,-0.151315142009291,0.0433305400598255,0.715655898858051,-0.746361883921326,0.0433305400598258,-0.096100409447212,0.0450051831206331,-0.0432520365524583,0.715655898858052,0.0450051831206331,-0.151657507331333
3.1,-0.15865871862274,-0.0482495807658307,-0.730916080103205,-0.042503342534088,-0.0482495807658313,-0.167513268360695,0.0426033816608011,0.642276724248323,-0.730916080103208,0.0426033816608015,-0.157020565750444,0.0483087930840399,-0.0425033425340882,0.642276724248325,0.0483087930840401,-0.167851038581244
3.2,-0.21724718059211,-0.0492045512484516,-0.710303816928376,-0.0389067945844121,-0.0492045512484525,-0.174419887112036,0.039023980486178,0.562514877603087,-0.71030381692838,0.0390239804861779,-0.215782556905585,0.0492472963808119,-0.0389067945844128,0.562514877603089,0.0492472963808124,-0.174726647566261
3.3,-0.273148972435071,-0.0480688779503637,-0.684528708004002,-0.0328197364281846,-0.0480688779503644,-0.172755674173303,0.0329473627122938,0.476665099997723,-0.684528708004004,0.0329473627122926,-0.271881860707915,0.0480940602349429,-0.032819736428186,0.476665099997725,0.0480940602349436,-0.17301127336535
3.4,-0.32598821067214,-0.045603403491979,-0.653462831122573,-0.0250944698857613,-0.0456034034919795,-0.164576480429166,0.0252245520869224,0.384604796877517,-0.653462831122572,0.0252245520869213,-0.324936623868007,0.0456137075605873,-0.0250944698857624,0.384604796877519,0.0456137075605879,-0.164764508178639
3.5,-0.375467913367189,-0.0427549532837078,-0.616948045422602,-0.0167606209780916,-0.0427549532837084,-0.152610326941181,0.0168855309839284,0.286108469995484,-0.6169480454226,0.0168855309839292,-0.374643791592824,0.042755824412273,-0.016760620978091,0.286108469995486,0.0427558244122735,-0.152713857934867
3.6,-0.421325482915496,-0.0403068518528832,-0.574896906819392,-0.00870138707440794,-0.0403068518528839,-0.139570658872251,0.00881629905888777,0.181217364454199,-0.574896906819392,0.00881629905888911,-0.42073431243004,0.0403048437194383,-0.00870138707440791,0.1812173644542,0.0403048437194387,-0.13956963246277
3.7,-0.463272368137075,-0.0386818706476553,-0.5273600894652,-0.00145234667027057,-0.0386818706476558,-0.127708187751077,0.00155316485875723,0.0706267854081796,-0.527360089465203,0.00155316485875619,-0.462911101029979,0.0386832752597723,-0.00145234667027323,0.0706267854081803,0.0386832752597727,-0.127579510767451
3.8,-0.500875817044581,-0.0379413017974527,-0.474545914163921,0.00476792691792266,-0.0379413017974526,-0.118646211175403,-0.00468689299244876,-0.0439966067885639,-0.474545914163924,-0.00468689299244937,-0.500727490352872,0.0379513416809125,0.00476792691792058,-0.0439966067885638,0.0379513416809129,-0.118365763732351
3.9,-0.533411889718667,-0.037897157954083,-0.4167992036032,0.00991487417720361,-0.0378971579540824,-0.113403552909775,-0.00985812717016732,-0.159897088183526,-0.416799203603197,-0.00985812717016598,-0.533445026969639,0.0379195867461461,0.0099148741772034,-0.159897088183526,0.0379195867461465,-0.112948884895787
4,-0.560103234855123,-0.038238829861848,-0.354558903987588,0.0140450883909875,-0.0382388298618475,-0.112482050166603,-0.0140156510672484,-0.273420316979627,-0.354558903987572,-0.014015651067245,-0.560287414960688,0.0382757668125636,0.0140450883909898,-0.273420316979626,0.0382757668125643,-0.111835077473339
4.1,-0.580723484180859,-0.038621293040406,-0.288314037221033,0.0172717847577262,-0.0386212930404067,-0.115924787553198,-0.0172720222537972,-0.380496790037422,-0.288314037220999,-0.0172720222537935,-0.581020466653865,0.0386732327011361,0.0172717847577303,-0.380496790037418,0.0386732327011374,-0.115074411600858
4.2,-0.595300251998215,-0.0387048837477738,-0.21857067650537,0.0197341405674151,-0.0387048837477762,-0.123281305810334,-0.0197661334011898,-0.47721376734014,-0.218570676505315,-0.0197661334011859,-0.595644907043596,0.038770889441298,0.0197341405674193,-0.477213767340133,0.0387708894413005,-0.12222624604195
4.3,-0.60359198409577,-0.0381558055458528,-0.14583521367779,0.0215869516192568,-0.0381558055458569,-0.133422722907899,-0.0216524698023811,-0.560134685791876,-0.145835213677715,-0.0216524698023782,-0.603906170574772,0.0382339150593904,0.0215869516192601,-0.560134685791866,0.0382339150593938,-0.132174972967313
4.4,-0.605229590650755,-0.0366186467873623,-0.0706154495431865,0.0230083231790242,-0.0366186467873671,-0.144131519318813,-0.0231084552254027,-0.626037993076048,-0.0706154495431087,-0.0231084552254013,-0.605432198578719,0.0367065423795567,0.0230083231790259,-0.626037993076037,0.0367065423795606,-0.142720779979031
4.5,-0.599944200157378,-0.0336691748443672,0.00655523129524747,0.024221505660276,-0.0336691748443713,-0.151366284241304,-0.0243558048302463,-0.670884690650816,0.00655523129526512,-0.0243558048302465,-0.599951255274243,0.0337652200215188,0.0242215056602757,-0.670884690650808,0.0337652200215223,-0.149845452354683
4.6,-0.587661036192297,-0.0287595611509527,0.0850930558411946,0.0255235685451971,-0.0287595611509546,-0.148154789086402,-0.0256884152094444,-0.688042619762592,0.0850930558406999,-0.0256884152094454,-0.587384932755075,0.0288643526822646,0.0255235685451954,-0.688042619762587,0.0288643526822666,-0.146605858415748
4.7,-0.568523770755881,-0.0211999762442862,0.166539682447606,0.0272928042704292,-0.021199976244286,-0.123512134873317,-0.0274786546350933,-0.666417637264008,0.166539682447939,-0.0274786546350938,-0.567873653941332,0.0213184394797335,0.0272928042704275,-0.666417637264007,0.0213184394797339,-0.122050257336661
4.8,-0.542885087077648,-0.0103177400691579,0.246644596850238,0.0298801268391585,-0.0103177400691582,-0.0634487430439928,-0.0300680555322326,-0.59134199361354,0.246644596850166,-0.0300680555322299,-0.541767954670382,0.0104609743228623,0.029880126839159,-0.591341993613539,0.0104609743228627,-0.0622194621713397
4.9,-0.511273378756325,0.00392963267352891,0.326337303672067,0.0331700280077518,0.00392963267352476,0.0404080000804439,-0.0333310563495756,-0.455422853165914,0.32633730367204,-0.0333310563495699,-0.509595674536874,-0.00374616645078235,0.0331700280077558,-0.455422853165906,-0.00374616645077954,0.0412469379239281
5,-0.474345768429885,0.0199090030576529,0.40514688286231,0.0357033337357737,0.0199090030576463,0.170533758977894,-0.0358088124107644,-0.282659271478956,0.405146882862309,-0.0358088124107583,-0.472015687421102,-0.0196779425672997,0.0357033337357801,-0.282659271478945,-0.0196779425672944,0.170861817087658
5.1,-0.432843267110751,0.0343162824065441,0.482122510222567,0.0343956384447491,0.0343162824065405,0.273250214222195,-0.0344389587647128,-0.13520385662212,0.482122510222574,-0.0344389587647102,-0.429774124589403,-0.0340612189503109,0.0343956384447543,-0.135203856622115,-0.034061218950306,0.27307879687419
5.2,-0.387564783149113,0.0447682947773278,0.556258900216948,0.0267772213773188,0.0447682947773278,0.298199915792654,-0.0267794144148043,-0.0650256029146745,0.556258900216955,-0.026779414414804,-0.383679548442099,-0.0445504807194447,0.026777221377323,-0.0650256029146739,-0.0445504807194411,0.297731091822396
5.3,-0.339369488516116,0.0518545458152192,0.626455864900758,0.0136035997613303,0.0518545458152191,0.246451979118693,-0.0135902167141893,-0.0714674545403376,0.626455864900762,-0.0135902167141881,-0.3346061129717,-0.0517451288399908,0.013603599761335,-0.0714674545403337,-0.051745128839987,0.24596878392283
5.4,-0.289203303775948,0.057614094956239,0.691519243430938,-0.00235692949993431,0.0576140949562375,0.155151563756343,0.00237436169490372,-0.123602942032239,0.69151924343094,0.00237436169490578,-0.283520097414213,-0.0576651264861999,-0.00235692949992979,-0.123602942032226,-0.0576651264861958,0.154869578290453
5.5,-0.238130675797819,0.0634226546071565,0.750183068950423,-0.0187572936671978,0.0634226546071551,0.0591405516845856,0.0187820601284186,-0.194028108268775,0.750183068950423,0.0187820601284201,-0.231510982176899,-0.0636613333199278,-0.018757293667195,-0.194028108268758,-0.063661333319925,0.0591845488007761
5.6,-0.187345140154438,0.0694923619233855,0.801148371751582,-0.0341740624265565,0.0694923619233852,-0.022158069685098,0.034218698339021,-0.268118154216599,0.801148371751581,0.0342186983390213,-0.179800917218844,-0.0699263114518415,-0.0341740624265557,-0.268118154216595,-0.0699263114518405,-0.021713623888267
5.7,-0.138137209098411,0.0751955550994876,0.843136540178228,-0.0475953905014285,0.0751955550994878,-0.081357944934237,0.04767578056514,-0.333925619397804,0.843136540178227,0.0476757805651399,-0.129711519535028,-0.0758165350588278,-0.0475953905014288,-0.333925619397802,-0.075816535058828,-0.0804641985724849
5.8,-0.0918154740499189,0.0794339552965954,0.874953981221857,-0.0580331021898049,0.0794339552965951,-0.117981846698563,0.058162997824609,-0.395055524786352,0.874953981221855,0.0581629978246093,-0.0825839512227721,-0.0802181348293703,-0.0580331021898051,-0.395055524786357,-0.0802181348293705,-0.116615107325144
5.9,-0.0495983476276597,0.0809282890540865,0.895562633345815,-0.0644509223272211,0.0809282890540854,-0.135293352822317,0.0646371168922304,-0.448254139162323,0.895562633345813,0.0646371168922311,-0.0396693953447305,-0.0818353615836737,-0.0644509223272209,-0.448254139162322,-0.0818353615836734,-0.133462985737516
6,-0.0125079364107821,0.0784905641783757,0.904148718464729,-0.0659051437742803,0.078490564178375,-0.138594736183335,0.0661439978827729,-0.490776493417863,0.904148718464725,0.0661439978827733,-0.00202111576860094,-0.0794642251253235,-0.0659051437742802,-0.490776493417863,-0.0794642251253234,-0.136348624096776
6.1,0.0187033277255639,0.07130311618297,0.900180752943951,-0.0617846919053698,0.0713031161829707,-0.134218872640696,0.0620607556216384,-0.520259109477798,0.900180752943946,0.0620607556216377,0.0295811511631576,-0.0722746202755266,-0.0617846919053706,-0.5202591094778,-0.0722746202755274,-0.131643826305989
6.2,0.0435766979081853,0.0591644007011324,0.883447895640766,-0.0520503453096078,0.0591644007011344,-0.128749253175103,0.0523373425369664,-0.533581114821808,0.88344789564076,0.0523373425369647,0.0546572842488103,-0.0600596789129626,-0.0520503453096095,-0.53358111482181,-0.0600596789129642,-0.125966821936627
6.3,0.0619235288756814,0.042631943909962,0.854071506710809,-0.0373839544750308,0.0426319439099636,-0.128174104247469,0.0376478581505049,-0.52725071895442,0.854071506710805,0.0376478581505032,0.0730044198648342,-0.0433813165106381,-0.0373839544750325,-0.527250718954422,-0.0433813165106393,-0.125330408237712
6.4,0.07376957613969,0.0230070546787756,0.812486155704699,-0.0191845110727837,0.0230070546787758,-0.13683527507404,0.0193883437409675,-0.498276578537088,0.812486155704699,0.0193883437409669,0.08464126982437,-0.0235553849504285,-0.0191845110727843,-0.498276578537089,-0.0235553849504284,-0.134081122139215
6.5,0.0792878733110227,0.00214725124733811,0.759390579573967,0.000610922060709673,0.00214725124733893,-0.156348382340512,-0.000500786615890929,-0.445435109241754,0.75939057957397,-0.000500786615890946,0.089739953782161,-0.0024619255866013,0.000610922060709792,-0.445435109241756,-0.0024619255866014,-0.153809194499942
