"Freq [GHz]","im(S(1,1)) []","im(S(1,2)) []","im(S(1,3)) []","im(S(1,4)) []","im(S(2,1)) []","im(S(2,2)) []","im(S(2,3)) []","im(S(2,4)) []","im(S(3,1)) []","im(S(3,2)) []","im(S(3,3)) []","im(S(3,4)) []","im(S(4,1)) []","im(S(4,2)) []","im(S(4,3)) []","im(S(4,4)) []"
3,-0.362959908119759,-0.0363127990684212,-0.4522213343622,-0.0215764377360125,-0.0363127990684213,-0.0516674167461492,0.0217437602422996,0.147527577523058,-0.452221334362201,0.0217437602422999,-0.3609006828739,0.0362678814118263,-0.0215764377360125,0.147527577523055,0.0362678814118262,-0.0515978167723158
3.1,-0.388289219210078,-0.0387104109776719,-0.382083767899073,-0.0223562560988662,-0.0387104109776702,-0.0455443404471834,0.0225699632213899,0.0438609165524449,-0.382083767899076,0.0225699632213903,-0.386487451873159,0.0386396873235974,-0.022356256098867,0.0438609165524428,0.0386396873235969,-0.0452175376144428
3.2,-0.411070367537869,-0.0406463989974964,-0.310297720310408,-0.0227217759820957,-0.040646398997494,-0.0385143316699047,0.0229889334946007,-0.0604423905702273,-0.310297720310412,0.0229889334946012,-0.409561608756078,0.0405411508780972,-0.0227217759820965,-0.0604423905702272,0.0405411508780961,-0.0379662670859532
3.3,-0.430865892139717,-0.0418902480221785,-0.237555978825602,-0.022508789338966,-0.0418902480221767,-0.0313119102295909,0.0228355837835954,-0.163674420265976,-0.237555978825604,0.0228355837835958,-0.429680253027003,0.0417418551943148,-0.0225087893389664,-0.163674420265974,0.0417418551943136,-0.0304979733016675
3.4,-0.447221718211777,-0.0421553472167364,-0.164589773867625,-0.0215025410338338,-0.0421553472167358,-0.02431953562078,0.021891352168758,-0.263648383306285,-0.164589773867625,0.0218913521687584,-0.446382689990279,0.0419570767415593,-0.0215025410338339,-0.263648383306282,0.0419570767415587,-0.0231774151266279
3.5,-0.459673976804067,-0.0411058263872151,-0.0921610180295157,-0.0194432218183013,-0.0411058263872154,-0.0179579970626244,0.0198888870216543,-0.357867613844772,-0.0921610180295137,0.0198888870216545,-0.459197338811422,0.0408553626440255,-0.0194432218183011,-0.35786761384477,0.0408553626440259,-0.0164490370937837
3.6,-0.467775861406187,-0.0383845029573406,-0.0210344778154004,-0.0160554579486784,-0.038384502957341,-0.0128814687479147,0.0165409755408493,-0.443745776264197,-0.0210344778153981,0.0165409755408494,-0.467668863723294,0.0380872789956698,-0.0160554579486784,-0.443745776264195,0.038087278995671,-0.0110083398069081
3.7,-0.471158740888518,-0.0336773075472396,0.0480846605820249,-0.0111180547281068,-0.0336773075472392,-0.0100660751607825,0.0116106085764709,-0.518847840939762,0.0480846605820259,0.011610608576471,-0.471419892646807,0.033350403640569,-0.0111180547281071,-0.518847840939761,0.0333504036405702,-0.00787946047200324
3.8,-0.469634554918318,-0.0268266446219912,0.114655371442557,-0.00458221594818197,-0.0268266446219906,-0.0108325887615175,0.00503137994800523,-0.581117300293289,0.114655371442557,0.00503137994800528,-0.470254453748655,0.0265021819299851,-0.00458221594818235,-0.581117300293288,0.0265021819299855,-0.00843098426509592
3.9,-0.463317195245658,-0.0179807137132833,0.178425483076029,0.00328648318898905,-0.0179807137132839,-0.0167925623944398,-0.00294568051382127,-0.629059655080884,0.178425483076031,-0.00294568051382131,-0.464280700628333,0.0177062394249999,0.00328648318898915,-0.629059655080883,0.017706239425,-0.0143141241043335
4,-0.45269232047881,-0.0077086983837471,0.239505149421508,0.0118225759640467,-0.0077086983837496,-0.0296873316956808,-0.011659584880907,-0.661863909348255,0.239505149421515,-0.0116595848809072,-0.453981799232225,0.00754121804017705,0.0118225759640477,-0.661863909348253,0.00754121804017812,-0.0272920097138588
4.1,-0.438544548567861,0.00303833572004701,0.298296253120242,0.0200394124056472,0.00303833572004372,-0.0510996249490438,-0.0201120455214088,-0.679457954505825,0.298296253120257,-0.0201120455214092,-0.44014305509794,-0.00304574267635834,0.0200394124056487,-0.679457954505822,-0.00304574267635538,-0.0489425162994693
4.2,-0.421724145696098,0.0131854305783912,0.355259065259624,0.0269023362855189,0.0131854305783894,-0.0820597007431711,-0.027240266682313,-0.682504832041929,0.355259065259643,-0.0272402666823133,-0.423616994275742,-0.0129996820373134,0.0269023362855203,-0.682504832041925,-0.0129996820373091,-0.0802612664103319
4.3,-0.402873181674145,0.0218914072715664,0.410637986118649,0.0316652526967305,0.021891407271567,-0.122632669921481,-0.0322610163657924,-0.672351393036499,0.410637986118668,-0.0322610163657926,-0.405047128569681,-0.0215096232889561,0.0316652526967311,-0.672351393036494,-0.0215096232889522,-0.121255373865562
4.4,-0.382280197440879,0.0287689306601182,0.464317749604554,0.0340660203559413,0.0287689306601205,-0.171627332158864,-0.03487778316712,-0.650938666444818,0.464317749604568,-0.03487778316712,-0.384720919907958,-0.0282178473109809,0.0340660203559409,-0.650938666444813,-0.0282178473109787,-0.17066776703662
4.5,-0.359921205016343,0.0338534428612405,0.51586766349227,0.0342934811784607,0.0338534428612427,-0.226562291482956,-0.0352569838071053,-0.620677384363614,0.515867663492278,-0.0352569838071052,-0.362610612337337,-0.0331804244826728,0.0342934811784599,-0.62067738436361,-0.0331804244826722,-0.225961618594897
4.6,-0.335606993206596,0.0374194099676138,0.564691958520094,0.0328093200058551,0.0374194099676149,-0.283941024082163,-0.0338524748444406,-0.584287474123936,0.564691958520097,-0.0338524748444405,-0.338521558079573,-0.0366808585061048,0.0328093200058545,-0.584287474123933,-0.0366808585061049,-0.28360795380691
4.7,-0.309127542436845,0.0398009257157267,0.610176134507343,0.0301591156240011,0.0398009257157269,-0.339762043548699,-0.0312138623277014,-0.544601456625923,0.610176134507344,-0.0312138623277014,-0.312237956505937,-0.0390524095931462,0.0301591156240009,-0.544601456625921,-0.0390524095931465,-0.339597630221609
4.8,-0.280339745026718,0.0412912494890119,0.651775942071293,0.0268475331281155,0.0412912494890116,-0.390100635554383,-0.0278569334766173,-0.504340412035469,0.651775942071294,-0.0278569334766174,-0.283611583915479,-0.0405809652174472,0.0268475331281158,-0.504340412035467,-0.0405809652174472,-0.390015968458566
4.9,-0.249199580682094,0.0421133910690765,0.689050838154439,0.0232833138156679,0.0421133910690763,-0.431596219398165,-0.0242043972824803,-0.465884818096675,0.689050838154442,-0.0242043972824806,-0.252594509813809,-0.0414788510938504,0.0232833138156684,-0.465884818096674,-0.04147885109385,-0.431520158791277
5,-0.215760573696197,0.0424279150907075,0.721664048695808,0.0197699018986946,0.0424279150907075,-0.46174928190378,-0.0205736779717663,-0.431074194527776,0.721664048695812,-0.0205736779717666,-0.219237733504348,-0.0418950947712243,0.019769901898695,-0.431074194527775,-0.0418950947712239,-0.461628737433093
5.1,-0.180158092373594,0.0423521654546345,0.749368783500543,0.0165178545614414,0.0423521654546346,-0.479017465024528,-0.0171878072278353,-0.401071108702683,0.749368783500549,-0.0171878072278355,-0.18367545787487,-0.041936245431024,0.0165178545614417,-0.401071108702683,-0.0419362454310236,-0.478814547730995
5.2,-0.142590750708776,0.0419788280322311,0.771991742391621,0.0136647162078337,0.0419788280322312,-0.48275590499554,-0.0141946887989111,-0.37631270834853,0.771991742391626,-0.0141946887989112,-0.146106374105582,-0.041685797410378,0.0136647162078338,-0.37631270834853,-0.0416857974103777,-0.482445207157431
5.3,-0.103303630319991,0.041390673570253,0.789418523261694,0.0112960898758239,0.0413906735702529,-0.473061822897584,-0.0116881003865074,-0.356549795934325,0.789418523261698,-0.0116881003865074,-0.106776736591452,-0.041219252879899,0.0112960898758239,-0.356549795934326,-0.0412192528798988,-0.472629146482756
5.4,-0.0625744591111414,0.0406724589643327,0.801582001145227,0.00946626887737635,0.0406724589643326,-0.450571287600589,-0.00972855368441544,-0.340948306777873,0.801582001145229,-0.00972855368441538,-0.0659663904421649,-0.0406159865163182,0.00946626887737635,-0.340948306777873,-0.0406159865163182,-0.450013836926645
5.5,-0.0207023028016024,0.0399227721217463,0.80845319729126,0.00821933491208019,0.0399227721217462,-0.416233398265303,-0.00836478937161037,-0.328208930572651,0.80845319729126,-0.00836478937161031,-0.0239773153147699,-0.0399708407212904,0.00821933491208025,-0.328208930572651,-0.0399708407212904,-0.415561165349171
5.6,0.0220023236904105,0.0392702801149951,0.810033524130661,0.00761394163611473,0.039270280114995,-0.371060452846752,-0.00765908431253812,-0.316647913628274,0.810033524130658,-0.00765908431253812,0.0188764067613062,-0.0394099976527439,0.00761394163611485,-0.316647913628274,-0.039409997652744,-0.370299052796358
5.7,0.0652274852182055,0.0389025771538445,0.806346832960243,0.0077592253594913,0.0389025771538447,-0.31581408977359,-0.00772385731435284,-0.304162910743382,0.806346832960239,-0.00772385731435297,0.0622787572389185,-0.0391193326461246,0.00775922535949139,-0.304162910743381,-0.0391193326461247,-0.315010554281344
5.8,0.108672309665786,0.0391254046068781,0.797428950008891,0.00887915249459893,0.0391254046068785,-0.2505046498254,-0.00878705447649886,-0.287945285560721,0.797428950008887,-0.00878705447649913,0.105924369768441,-0.0394028669948091,0.00887915249459886,-0.28794528556072,-0.0394028669948093,-0.24974041424759
5.9,0.152064311567668,0.0404910271419715,0.783312379724926,0.0114435892215764,0.0404910271419719,-0.173363882119526,-0.0113249290588247,-0.26360146125198,0.783312379724923,-0.0113249290588251,0.149535773117926,-0.0408094103279094,0.0114435892215761,-0.26360146125198,-0.0408094103279097,-0.17278668237773
6,0.195162469890663,0.0440150509215197,0.76402578453531,0.0163844386582287,0.04401505092152,-0.0785361942117354,-0.0162797540488807,-0.222947854427829,0.76402578453531,-0.0162797540488812,0.192865142373017,-0.0443435103498899,0.0163844386582283,-0.22294785442783,-0.0443435103498901,-0.0784449024310658
6.1,0.237354002668598,0.0499769309037441,0.74000484638677,0.0238990873153579,0.0499769309037442,0.043195273674515,-0.0238363630319653,-0.154793850638729,0.74000484638677,-0.0238363630319658,0.235279453246047,-0.0502404617083173,0.0238990873153578,-0.15479385063873,-0.0502404617083174,0.0421812357680607
6.2,0.272799808127557,0.0311469611806824,0.716977462915469,0.00688779613642021,0.0311469611806833,0.0666828926672414,-0.0064563614906968,-0.181625843466999,0.71697746291547,-0.00645636149069746,0.27084748526266,-0.0312116521891725,0.00688779613641878,-0.181625843466999,-0.0312116521891734,0.0654454120984707
6.3,0.305177426720818,-0.0110994794455552,0.691051334935094,-0.0331665781396568,-0.0110994794455539,-0.109514202509548,0.0341779287243056,-0.401669526906116,0.691051334935096,0.0341779287243044,0.303425882370875,0.0108482168763181,-0.0331665781396563,-0.401669526906114,0.0108482168763182,-0.106764505584484
6.4,0.343568412115181,-0.00953081949215065,0.653048049540018,-0.0297342339738904,-0.00953081949214915,-0.0602630635647502,0.0306599815157358,-0.392338507222728,0.653048049540023,0.0306599815157348,0.34210281609183,0.00914182594462068,-0.0297342339738907,-0.392338507222727,0.00914182594462044,-0.0568903677821764
6.5,0.379507817000821,-0.00593221130299615,0.611436484705322,-0.0243354053225059,-0.00593221130299514,0.0156366534207341,0.0251691907028426,-0.350076466171159,0.611436484705324,0.0251691907028416,0.378288926719558,0.00550685726003255,-0.024335405322506,-0.35007646617116,0.00550685726003246,0.0188289167367982
