"Freq [GHz]","im(S(1,1)) []","im(S(1,2)) []","im(S(1,3)) []","im(S(1,4)) []","im(S(2,1)) []","im(S(2,2)) []","im(S(2,3)) []","im(S(2,4)) []","im(S(3,1)) []","im(S(3,2)) []","im(S(3,3)) []","im(S(3,4)) []","im(S(4,1)) []","im(S(4,2)) []","im(S(4,3)) []","im(S(4,4)) []"
3,-0.374262145246433,-0.163950591382488,0.555077077308515,-0.220920014255814,-0.163950591382495,-0.107612742174098,-0.224769756654785,0.747455220182021,0.555077077308522,-0.224769756654796,-0.380230473328923,-0.158134436938501,-0.220920014255816,0.747455220182024,-0.1581344369385,-0.112860030298365
3.1,-0.193666566622523,0.0119974503285113,0.763754708963647,-0.0794781841527135,0.0119974503285071,-0.00871976523394058,-0.0849865231766054,0.661837658896778,0.763754708963651,-0.084986523176604,-0.201001366651457,0.0173723009974978,-0.0794781841527128,0.661837658896781,0.0173723009975019,-0.0100037543066955
3.2,-0.21502307481662,0.0737787447904288,0.71740356888953,0.046202809534664,0.0737787447904291,0.151331982702057,0.0431024356093115,0.462846428268656,0.717403568889527,0.0431024356093306,-0.219857895220262,0.0760441839516,0.0462028095346806,0.46284642826866,0.0760441839516038,0.15161735019226
3.3,-0.530799747972012,-0.121761510381405,0.31385976097742,-0.00266923226293502,-0.121761510381397,0.196990484044087,-0.00196393753111426,0.0867889355220647,0.31385976097742,-0.00196393753112842,-0.531485881617092,-0.122532923288804,-0.00266923226295147,0.0867889355220557,-0.122532923288803,0.196392092772591
3.4,-0.659741236433574,-0.28254830128017,0.0432319074748541,0.00297821085860889,-0.282548301280171,0.187265460236662,0.00459290575931057,-0.268893010510082,0.0432319074748534,0.00459290575932511,-0.659168366655893,-0.284468901782123,0.00297821085861977,-0.268893010510072,-0.28446890178212,0.187634051263262
3.5,-0.637577304300684,-0.338995089272283,-0.0974961481723835,0.0757468110825966,-0.338995089272278,0.143849593161823,0.0773193908940374,-0.50408394441817,-0.0974961481723819,0.0773193908940229,-0.636764658612734,-0.341247754356567,0.0757468110825858,-0.504083944418173,-0.341247754356568,0.144635123166116
3.6,-0.567966639133543,-0.320279578970911,-0.191766930469463,0.151506431888406,-0.32027957897091,0.0566044952697929,0.153179063834669,-0.63368245813039,-0.191766930469464,0.153179063834663,-0.567063443162787,-0.32246859297988,0.151506431888403,-0.633682458130387,-0.322468592979878,0.05733230913402
3.7,-0.488026087927345,-0.246947594003871,-0.270004763997071,0.204665048225841,-0.246947594003873,-0.0530256958753522,0.206484318047813,-0.677188199076259,-0.270004763997073,0.206484318047812,-0.4870705264815,-0.248711845940852,0.204665048225841,-0.677188199076264,-0.248711845940852,-0.0528166711073054
3.8,-0.407493409593663,-0.13236139609485,-0.344248710372809,0.226112278669824,-0.132361396094844,-0.153810955432897,0.228000548048121,-0.651985358764253,-0.344248710372802,0.228000548048111,-0.406493752840528,-0.133467553707834,0.226112278669814,-0.651985358764256,-0.133467553707842,-0.154052348080288
3.9,-0.325064365637592,0.0122800117374954,-0.422788919712554,0.205352435006217,0.0122800117375066,-0.204805813911336,0.207079627531211,-0.565024719924982,-0.422788919712543,0.207079627531199,-0.32395968331448,0.011864301677149,0.205352435006209,-0.565024719924976,0.0118643016771417,-0.205208889307246
4,-0.240891741048892,0.172912817889009,-0.503299209580518,0.125582528619566,0.172912817889013,-0.159122100127154,0.126613620238667,-0.41883444425885,-0.503299209580514,0.126613620238666,-0.239477252300804,0.173039175791715,0.125582528619572,-0.418834444258864,0.173039175791715,-0.159537008852076
4.1,-0.196213614546778,0.309438979828563,-0.52753667192753,-0.0145174536500655,0.309438979828566,0.0112635009695115,-0.0148928167369349,-0.228999805339834,-0.527536671927532,-0.0148928167369293,-0.19429800922609,0.309722796395805,-0.0145174536500679,-0.228999805339834,0.30972279639581,0.0110586113038287
4.2,-0.31871546522068,0.277992578471963,-0.338515495204844,-0.101875364570118,0.277992578471961,0.20260468867054,-0.103340123474793,0.0352736328158686,-0.33851549520483,-0.103340123474783,-0.317484840281092,0.278010544849337,-0.101875364570103,0.0352736328158415,0.278010544849335,0.202642280030974
4.3,-0.481359769290543,0.0618051524105632,-0.0403461984616623,-0.0751261655770497,0.061805152410562,0.199036041011752,-0.0762084590050984,0.380612377447852,-0.0403461984616644,-0.0762084590051007,-0.482026007393415,0.061051019015545,-0.0751261655770455,0.380612377447849,0.0610510190155426,0.200848892199426
4.4,-0.44950369618975,-0.0669790089222341,0.107855437982255,-0.104286684802105,-0.0669790089222355,0.0751110758128229,-0.105097703526106,0.594926348215429,0.107855437982256,-0.105097703526101,-0.450574127486424,-0.0684894332411521,-0.104286684802095,0.59492634821542,-0.0684894332411557,0.0782079510311846
4.5,-0.336184726654228,-0.0713941153231014,0.176351035417746,-0.156713138305183,-0.0713941153230978,-0.0831701702506151,-0.157655404404166,0.635648242537299,0.176351035417745,-0.157655404404164,-0.336670659950967,-0.0731328263266632,-0.156713138305179,0.635648242537296,-0.0731328263266646,-0.0793581892172719
4.6,-0.22157351315919,-0.00223140565180235,0.218783483026427,-0.186582264438634,-0.00223140565180278,-0.225083846803075,-0.187649234223959,0.587044763553116,0.21878348302643,-0.187649234223957,-0.221325683832065,-0.0037346874446797,-0.186582264438635,0.587044763553115,-0.00373468744468051,-0.220811570572399
4.7,-0.126848239883059,0.104447801660666,0.252245579635142,-0.187243639921054,0.104447801660665,-0.315895771061266,-0.188351671678877,0.501669103618249,0.252245579635143,-0.188351671678874,-0.125992811369425,0.103411186689219,-0.187243639921052,0.501669103618242,0.103411186689217,-0.311136939958497
4.8,-0.0572546733681539,0.225628059919496,0.28358673167358,-0.162641817924703,0.225628059919497,-0.338700005596795,-0.163677857512693,0.394250626974238,0.28358673167358,-0.163677857512693,-0.0558714107042864,0.225066183889304,-0.162641817924702,0.394250626974234,0.225066183889303,-0.333596742352472
4.9,-0.0153161881738316,0.340012094503666,0.314818337089806,-0.115527876328991,0.340012094503664,-0.287190972805079,-0.116297628183653,0.258324670735132,0.314818337089811,-0.116297628183657,-0.0133377702385117,0.339821230718523,-0.115527876328999,0.258324670735133,0.339821230718524,-0.28238394175687
5,-0.00265814507156873,0.416509014572915,0.338376780598108,-0.0457584651897554,0.416509014572907,-0.168918432947825,-0.0459649215900868,0.0769187166182423,0.338376780598115,-0.0459649215900898,3.26407709479648E-05,0.416612084885987,-0.0457584651897663,0.0769187166182382,0.416612084885985,-0.165771394310318
5.1,-0.0104396319538535,0.41440487032605,0.328479075558377,0.0457165799494985,0.414404870326046,-0.0243745666566126,0.0463703184345323,-0.158130933924244,0.328479075558378,0.0463703184345361,-0.00712479804610059,0.414973444176234,0.0457165799494948,-0.158130933924255,0.41497344417623,-0.0248044464716027
5.2,-0.00608436920301152,0.32065743816642,0.253142798399431,0.146030920669845,0.320657438166419,0.0627280314677444,0.147499791509453,-0.406665164127997,0.253142798399432,0.147499791509451,-0.00285709012495788,0.322296532691034,0.146030920669844,-0.406665164127995,0.322296532691035,0.057640463374453
5.3,0.0329759294083324,0.194053170506611,0.116405275052974,0.220416409898388,0.194053170506602,0.0206805076298414,0.222013816223366,-0.578661597518351,0.116405275052977,0.222013816223343,0.0345674631463331,0.19733814784687,0.220416409898366,-0.578661597518355,0.19733814784687,0.0123602180984246
5.4,0.0870441554279699,0.115154137265692,-0.0386856472106823,0.234133424420213,0.11515413726568,-0.128374228486533,0.235094861841634,-0.623051810471595,-0.0386856472106817,0.235094861841615,0.085990996268574,0.119925626037445,0.234133424420181,-0.623051810471612,0.119925626037439,-0.137022562685699
5.5,0.134862226030022,0.110784143939183,-0.173618644504516,0.194610255690043,0.110784143939181,-0.296224288737791,0.19487464870558,-0.560614583528928,-0.173618644504517,0.194874648705582,0.13121838186607,0.116389062354855,0.194610255690034,-0.560614583528935,0.11638906235485,-0.303054528281084
5.6,0.171150196345143,0.165120385228378,-0.272079718120438,0.137692818563123,0.165120385228382,-0.413612889774859,0.13768479275919,-0.430089264609231,-0.272079718120437,0.137684792759192,0.165207365930361,0.170919928535039,0.137692818563124,-0.430089264609232,0.170919928535039,-0.417654525072184
5.7,0.199722235659815,0.253763358306852,-0.332438417611042,0.0872265596911089,0.253763358306848,-0.455691433379348,0.0874386513589935,-0.261704882692587,-0.332438417611041,0.0874386513589839,0.19202719448192,0.259221892141642,0.0872265596911019,-0.261704882692591,0.259221892141644,-0.456587744595718
5.8,0.232383326647128,0.352931816332974,-0.359614791588822,0.0469973751755055,0.352931816332971,-0.425544214030565,0.0477365343509361,-0.0762558259446334,-0.359614791588822,0.0477365343509301,0.224254702583608,0.357544662838792,0.046997375175502,-0.0762558259446353,0.35754466283879,-0.423140852483202
5.9,0.26770076951375,0.436419087063226,-0.360660981101468,0.00805470577587752,0.436419087063223,-0.335581761927965,0.00913580425538678,0.115413632090024,-0.360660981101468,0.00913580425538585,0.259418666649283,0.439730325284308,0.00805470577588672,0.115413632090027,0.439730325284314,-0.329919435128459
6,0.297108841456715,0.479693054846155,-0.340634079040393,-0.0451121011343975,0.479693054846148,-0.198970130927367,-0.0443483540296867,0.308949729494083,-0.340634079040394,-0.0443483540296976,0.289365598357244,0.480917645483128,-0.0451121011343993,0.308949729494085,0.48091764548313,-0.190759218348261
6.1,0.323891536249851,0.463904541939489,-0.293504271811945,-0.125241661086203,0.463904541939487,-0.0419639395267654,-0.125347221358425,0.490373525919515,-0.293504271811946,-0.125347221358409,0.317548257912735,0.462515003325636,-0.125241661086189,0.490373525919514,0.46251500332564,-0.0331058044512902
6.2,0.351157111879246,0.3748504577898,-0.195775387355924,-0.225019915269799,0.374850457789791,0.0592897504482267,-0.226396918215098,0.603893919511939,-0.195775387355924,-0.226396918215056,0.347231920867211,0.371233582579355,-0.225019915269728,0.60389391951194,0.371233582579354,0.0659649972659157
6.3,0.3739367461313,0.247433557161366,-0.025283614984208,-0.28937426277631,0.247433557161369,-0.0117842110158589,-0.29157937660038,0.562628976105574,-0.0252836149842082,-0.291579376600377,0.373025373610861,0.244440438164242,-0.289374262776335,0.562628976105576,0.244440438164241,-0.00890822730200768
6.4,0.35885108574268,0.141054796875114,0.203004210479206,-0.22700185499188,0.141054796875114,-0.263175395480367,-0.227676914430657,0.392195393975612,0.203004210479205,-0.227676914430627,0.358447014996618,0.141747880780664,-0.227001854991839,0.39219539397561,0.141747880780664,-0.261568181998908
6.5,0.319528298319856,0.103145360685136,0.395876375270382,-0.077215149105084,0.103145360685141,-0.510139796706505,-0.0763787084016884,0.215937039426186,0.395876375270382,-0.076378708401692,0.316738036102266,0.106785385669143,-0.0772151491050845,0.215937039426181,0.106785385669143,-0.507347417093999
