"Freq [GHz]","re(S(1,1)) []","re(S(1,2)) []","re(S(1,3)) []","re(S(1,4)) []","re(S(2,1)) []","re(S(2,2)) []","re(S(2,3)) []","re(S(2,4)) []","re(S(3,1)) []","re(S(3,2)) []","re(S(3,3)) []","re(S(3,4)) []","re(S(4,1)) []","re(S(4,2)) []","re(S(4,3)) []","re(S(4,4)) []"
3,-0.175589179744808,0.299191428494348,0.442875316495859,0.146245145457366,0.299191428494346,0.157580222580213,0.14612863875604,0.424853249774118,0.442875316495858,0.14612863875604,-0.176916269879869,0.298723781355696,0.146245145457365,0.424853249774118,0.298723781355696,0.157119671463937
3.1,-0.244659064371788,0.395048204377051,0.402195109831551,0.0657530301936972,0.395048204377048,0.148452609856571,0.0653533213367875,0.203509658902303,0.402195109831549,0.0653533213367871,-0.246208181233293,0.394627400524726,0.0657530301936934,0.203509658902301,0.394627400524726,0.148284809220072
3.2,-0.300035519372815,0.462085331222239,0.34349420374602,-0.0409534380736445,0.462085331222241,0.0861187600623319,-0.0416325229477062,-0.0334245219539222,0.34349420374602,-0.0416325229477031,-0.301720730945897,0.461941478423517,-0.0409534380736457,-0.0334245219539224,0.461941478423516,0.0867766400698357
3.3,-0.328291182067699,0.486287777296156,0.243184116238458,-0.161087081604408,0.486287777296163,-0.0201354994565972,-0.16195889788256,-0.266459734643941,0.243184116238453,-0.161958897882567,-0.32978871404749,0.486802844038325,-0.161087081604411,-0.266459734643944,0.486802844038322,-0.0180952338093941
3.4,-0.276350898032348,0.437918992063956,0.0415297564396552,-0.251491018068873,0.437918992063964,-0.12692377165398,-0.252100585466401,-0.475945417087796,0.0415297564396524,-0.252100585466403,-0.276619357452584,0.439620482041667,-0.251491018068867,-0.475945417087789,0.439620482041671,-0.12330508960868
3.5,-0.0664422557155361,0.255737898003665,-0.335295618443723,-0.213492590301019,0.255737898003666,-0.132451386303309,-0.212592241208567,-0.672957144587719,-0.335295618443726,-0.212592241208585,-0.0631203604689474,0.258899675034264,-0.213492590301038,-0.672957144587743,0.258899675034266,-0.128111442388341
3.6,0.0616519509019292,0.0463940629273125,-0.62710063157996,-0.0993595073484823,0.0463940629273366,0.00566274211280586,-0.0969909285772689,-0.828013881420826,-0.627100631579973,-0.096990928577275,0.0687530061368508,0.0501416630430167,-0.0993595073484635,-0.828013881420806,0.0501416630430345,0.0100780900034008
3.7,-0.113265501891411,0.055021255921953,-0.582596440417355,-0.113163567357114,0.0550212559219541,0.126774716095025,-0.111681288405155,-0.783920286899414,-0.58259644041736,-0.111681288405168,-0.106055104988383,0.0587591816573479,-0.113163567357127,-0.783920286899426,0.0587591816573523,0.131679329316564
3.8,-0.310286167797227,0.170767212022296,-0.467305908263592,-0.147004005469225,0.17076721202231,0.212873556993173,-0.147064350806618,-0.596768348916249,-0.467305908263604,-0.147064350806633,-0.304069463021062,0.174538242984801,-0.147004005469223,-0.596768348916243,0.174538242984812,0.217598367390258
3.9,-0.435075190320817,0.299318575094402,-0.374427953829796,-0.134109209248048,0.299318575094398,0.273692821816551,-0.135399910202961,-0.365858621211117,-0.374427953829793,-0.135399910202967,-0.429593290679766,0.302975033203766,-0.134109209248056,-0.365858621211127,0.302975033203762,0.276728082842072
4,-0.502529364693752,0.409940681103423,-0.297615974747388,-0.082894983435131,0.409940681103418,0.292954322690649,-0.0850313068767081,-0.135758002370781,-0.297615974747385,-0.0850313068767427,-0.49744649738578,0.413013328641232,-0.0828949834351776,-0.135758002370817,0.41301332864123,0.293047757604923
4.1,-0.53286759886424,0.490802889021003,-0.227400083615783,-0.0103027729471331,0.490802889021008,0.262557349637318,-0.0129669625562888,0.0750778144357639,-0.227400083615799,-0.0129669625563492,-0.527944065624055,0.492724560613289,-0.0103027729471801,0.0750778144357407,0.492724560613297,0.259047053695071
4.2,-0.537602186481266,0.535593314827945,-0.156478026607412,0.0718021349095497,0.535593314827951,0.183074007815795,0.068940531725675,0.258912265844205,-0.156478026607439,0.0689405317256353,-0.53277366961203,0.535638446173176,0.0718021349095464,0.25891226584421,0.535638446173182,0.175523180808722
4.3,-0.520077073003618,0.534358138142887,-0.0739491339297745,0.154173828272212,0.534358138142885,0.0633966193718837,0.151693712282801,0.411836783027345,-0.0739491339297816,0.151693712282795,-0.515661704189997,0.531327929429826,0.154173828272216,0.411836783027343,0.531327929429827,0.0516864239694244
4.4,-0.478421445451783,0.467733471646407,0.0387216801065893,0.22161508869859,0.4677334716464,-0.0653929497011388,0.220762478989805,0.531370241723569,0.0387216801066114,0.220762478989725,-0.475642108963023,0.459805152141086,0.221615088698483,0.531370241723521,0.459805152141093,-0.0792464568778354
4.5,-0.417190511882308,0.316937747154759,0.195123436502923,0.23955393824362,0.316937747154758,-0.126153721827217,0.242361547272102,0.615624918733213,0.195123436502908,0.242361547271927,-0.419059726226845,0.303167199573424,0.239553938243531,0.615624918733163,0.303167199573444,-0.135461943180431
4.6,-0.384045251314534,0.122015034413974,0.345950976955488,0.185912680613167,0.122015034413975,-0.0342984105567398,0.192948483479613,0.653308412697978,0.345950976955422,0.192948483479706,-0.394083298222397,0.106700313066072,0.185912680613345,0.653308412698014,0.106700313066082,-0.0340709559385455
4.7,-0.456349010390077,0.0184858555499635,0.397234681417558,0.137082052358982,0.0184858555499586,0.155797929352038,0.143298671151888,0.594241439933857,0.397234681417542,0.143298671151931,-0.471324805955273,0.00868702983169772,0.137082052359006,0.594241439933884,0.00868702983169326,0.159624383104388
4.8,-0.574725106522428,0.0617025488293894,0.366182287100807,0.110267062262618,0.0617025488293911,0.295451236401261,0.112037489422312,0.403866624554535,0.366182287100808,0.11203748942231,-0.588134195099757,0.0574646399851408,0.110267062262627,0.403866624554536,0.0574646399851434,0.298066615669961
4.9,-0.640160977599026,0.165010977040491,0.315729775061625,0.0657574246680499,0.165010977040495,0.331918677097966,0.0645338909515882,0.17221809265755,0.315729775061617,0.0645338909515997,-0.650696609453873,0.163522309151012,0.0657574246680685,0.17221809265757,0.163522309151025,0.334515376654271
5,-0.646868992545881,0.256424444575617,0.268138260226858,0.00360974476978179,0.256424444575616,0.290966147881056,0.00128406327478993,-0.0319891636449249,0.268138260226868,0.00128406327479061,-0.655291818119071,0.256501418361629,0.00360974476978986,-0.0319891636449167,0.256501418361637,0.295026969746844
5.1,-0.618152422516204,0.31361327013003,0.222342200579265,-0.0597383672570193,0.313613270130031,0.206186268779424,-0.0622306557786002,-0.203330415837426,0.222342200579318,-0.0622306557786015,-0.625036022763355,0.314993395042012,-0.0597383672570156,-0.203330415837424,0.314993395042016,0.211803276549759
5.2,-0.575125871244314,0.333429384200503,0.17259333635518,-0.11333693747798,0.333429384200504,0.100898322569737,-0.115606637256174,-0.346325849013896,0.172593336355234,-0.115606637256173,-0.580538919155223,0.335964777187007,-0.11333693747798,-0.346325849013894,0.335964777187008,0.107437872742012
5.3,-0.533957911283297,0.315901869047405,0.112725382602422,-0.154715670143443,0.315901869047406,-0.00862272353840875,-0.156503436244076,-0.461512082095627,0.112725382602388,-0.156503436244078,-0.537652682412667,0.319301275031169,-0.154715670143445,-0.461512082095625,0.319301275031166,-0.00192485346044397
5.4,-0.50513321449728,0.261227622505833,0.03523268844488,-0.185937491975989,0.261227622505832,-0.107600650611923,-0.187004442509494,-0.544225776258846,0.0352326884448793,-0.187004442509499,-0.506879442833254,0.264999935217795,-0.185937491975987,-0.544225776258845,0.264999935217788,-0.101480051748905
5.5,-0.492994809406304,0.172503062677022,-0.0615012932579881,-0.209100983504089,0.172503062677019,-0.177594793125597,-0.209345039287501,-0.582666220935552,-0.061501293257988,-0.209345039287503,-0.492882050500346,0.17598424102479,-0.209100983504085,-0.582666220935549,0.175984241024783,-0.172761060316385
5.6,-0.495742272088038,0.0618466412870554,-0.174905111981124,-0.22047519240573,0.0618466412870537,-0.192535968803767,-0.220162825367129,-0.555629807444906,-0.174905111981125,-0.220162825367131,-0.494369301426814,0.0642968819174121,-0.22047519240573,-0.555629807444905,0.0642968819174114,-0.189369646108425
5.7,-0.504335238853915,-0.0436283950496528,-0.294062464345291,-0.202117470931575,-0.0436283950496539,-0.123617584263842,-0.201880294860649,-0.436946441906036,-0.294062464345289,-0.20188029486065,-0.502846229270712,-0.0428414526747429,-0.202117470931563,-0.436946441906038,-0.0428414526747489,-0.121700909915419
5.8,-0.500927005403059,-0.106679837072284,-0.398032807332238,-0.127937603355068,-0.106679837072287,0.0298120791705473,-0.128406620092899,-0.222389392087371,-0.398032807332237,-0.128406620092896,-0.500741061060474,-0.107622217106708,-0.127937603355066,-0.222389392087371,-0.107622217106718,0.031328499534278
5.9,-0.467833849088396,-0.106378807463913,-0.457468258441739,0.00110563253771269,-0.106378807463914,0.19679530133762,-1.98394022071173E-05,0.029761986651758,-0.457468258441743,-1.98394022052867E-05,-0.469881895989891,-0.107896490043525,0.00110563253773112,0.0297619866517513,-0.107896490043527,0.19892482988496
6,-0.419421183286241,-0.0563550813515463,-0.442329913429396,0.131349045362515,-0.0563550813515578,0.263578144340406,0.130717165364796,0.23760253240661,-0.442329913429397,0.130717165364801,-0.423187730527272,-0.0567973207346181,0.131349045362528,0.237602532406609,-0.0567973207346493,0.266013881760764
6.1,-0.403426794339334,0.0243066608963859,-0.34056915797322,0.187333377113349,0.0243066608963899,0.176983456347869,0.188409865205056,0.383302582049352,-0.340569157973223,0.188409865205057,-0.406960876372058,0.0259538256912027,0.18733337711336,0.383302582049353,0.0259538256912078,0.178744541991589
6.2,-0.426759292161787,0.0993074806622946,-0.182646667032329,0.172278728567979,0.0993074806622882,-0.00787821016286305,0.174851532319852,0.472621099790299,-0.182646667032349,0.174851532319866,-0.428450609655875,0.10237959252658,0.172278728568015,0.472621099790292,0.102379592526556,-0.00537704239155034
6.3,-0.442968823864361,0.123741060137651,-0.0321834333955141,0.141453885596197,0.123741060137658,-0.196438502746836,0.144164441597122,0.500636956782633,-0.0321834333955085,0.144164441597117,-0.442663445802439,0.127611953734905,0.141453885596197,0.500636956782631,0.127611953734914,-0.193418074932619
6.4,-0.42382731283458,0.0836737000308492,0.074246319218942,0.126533008242609,0.083673700030867,-0.340034954076332,0.128383925870027,0.473530257753613,0.0742463192189066,0.128383925870026,-0.422061727162854,0.0883780661169136,0.126533008242651,0.473530257753609,0.0883780661169354,-0.336073848554858
6.5,-0.379946733905469,-0.00452045300975851,0.154891184234006,0.132300195766678,-0.00452045300975171,-0.428385032719596,0.133005406285686,0.406977631270281,0.154891184234003,0.133005406285684,-0.376939922880355,0.00120493516930537,0.132300195766682,0.406977631270276,0.00120493516930378,-0.424466483604911
