"Freq [MHz]","re(Zt(Rectangle3_T1,Rectangle3_T1)) []","im(Zt(Rectangle3_T1,Rectangle3_T1)) []"
100,3.58801566654112,214.808655876931
100.5,3.65894950248633,216.40288285817
101,3.73093579605869,218.007952486668
101.5,3.8039941399438,219.62402318151
102,3.87814459742296,221.251256264057
102.5,3.95340771579699,222.88981602758
103,4.02980454026133,224.539869808922
103.5,4.10735662824802,226.201588062215
104,4.18608606425604,227.875144434768
104.5,4.26601547518482,229.560715845163
105,4.34716804619436,231.258482563657
105.5,4.42956753711051,232.968628294964
106,4.51323829939767,234.691340263499
106.5,4.59820529372222,236.426809301168
107,4.68449410812906,238.175229937806
107.5,4.77213097685645,239.936800494334
108,4.86114279981613,241.71172317876
108.5,4.95155716276385,243.500204185099
109,5.04340235818909,245.302453795341
109.5,5.13670740695591,247.118686484556
110,5.23150208072106,248.949121029265
110.5,5.32781692516779,250.793980619187
111,5.42568328408313,252.653492972498
111.5,5.5251333243193,254.527890454715
112,5.62620006167428,256.417410201352
112.5,5.72891738772881,258.322294244486
113,5.83332009768553,260.242789643379
113.5,5.93944391924764,262.179148619306
114,6.04732554258632,264.131628694756
114.5,6.15700265144153,266.100492837164
115,6.26851395540719,268.086009607357
115.5,6.38189922345221,270.088453312883
116,6.49719931873111,272.108104166431
116.5,6.61445623474262,274.145248449522
117,6.73371313289692,276.200178681684
117.5,6.85501438155195,278.273193795337
118,6.97840559658911,280.364599316601
118.5,7.10393368359538,282.474707552265
119,7.23164688172509,284.603837783176
119.5,7.36159480932215,286.75231646429
120,7.49382851137856,288.920477431673
120.5,7.62840050892068,291.108662116714
121,7.76536485040698,293.317219767873
121.5,7.90477716523887,295.546507680253
122,8.04669471947817,297.796891433323
122.5,8.19117647388168,300.068745137156
123,8.33828314436006,302.362451687502
123.5,8.4880772649792,304.678403030106
124,8.64062325363022,307.017000434639
124.5,8.79598748049258,309.37865477867
125,8.95423833943329,311.763786842097
125.5,9.1154463224844,314.172827612504
126,9.27968409755157,316.606218601912
126.5,9.44702658951854,319.064412175428
127,9.61755106491532,321.547871892311
127.5,9.79133722033231,324.057072860017
128,9.96846727477184,326.592502101798
128.5,10.1490260661402,329.154658938458
129,10.333101152092,331.744055384921
129.5,10.520782915455,334.361216562282
130,10.7121646744778,337.006681126038
130.5,10.9073427981502,339.681001711267
131,11.1064168268693,342.384745395534
131.5,11.3094895987369,345.118494180344
132,11.5166673817911,347.882845492036
132.5,11.7280600124921,350.678412703021
133,11.9437810408102,353.505825674347
133.5,12.1639478822681,356.365731320616
134,12.3886819773361,359.258794198329
134.5,12.6181089585798,362.185697118804
135,12.8523588259996,365.147141786875
135.5,13.0915661310292,368.143849466646
136,13.3358701696781,371.176561675647
136.5,13.585415185354,374.246040908811
137,13.8403505819152,377.353071393783
137.5,14.1008311475538,380.498459879156
138,14.3670172901494,383.683036457313
138.5,14.6390752847607,386.907655423669
139,14.9171775339904,390.173196174199
139.5,15.2015028419902,393.480564143258
140,15.4922367029304,396.830691783826
140.5,15.7895716048208,400.224539592412
141,16.0937073496233,403.66309718104
141.5,16.404851390665,407.147384398828
142,16.7232191884341,410.67845250587
142.5,17.0490345859138,414.25738540229
143,17.3825302046953,417.885300915504
143.5,17.7239478631967,421.56335214894
144,18.0735390184171,425.29272889565
144.5,18.4315652327498,429.074659120499
145,18.7982986675034,432.910410514827
145.5,19.1740226048952,436.801292127748
146,19.5590320004092,440.748656078534
146.5,19.9536340675685,444.753899354805
147,20.3581488973174,448.81846570159
147.5,20.7729101143704,452.943847606644
148,21.1982655730993,457.131588387785
148.5,21.6345780956898,461.383284388416
149,22.0822262555453,465.700587287804
149.5,22.5416052091465,470.08520653319
150,23.0131275798207,474.538911901236
150.5,23.4972243971793,479.063536196928
151,23.9943460962596,483.660978098581
151.5,24.5049635807793,488.333205158233
152,25.0295693552331,493.082256967405
152.5,25.568678731013,497.910248498936
153,26.1228311121262,502.81937363638
153.5,26.692591366595,507.811908903351
154,27.2785512901402,512.890217406094
154.5,27.8813311693252,518.056753003636
155,28.5015814519834,523.31406472091
155.5,29.1399845334347,528.664801421498
156,29.7972566677861,534.111716757937
156.5,30.4741500144301,539.657674418922
157,31.1714548308222,545.305653694356
157.5,31.8900018236197,551.058755380825
158,32.6306646714091,556.920208051972
158.5,33.394362733523,562.893374720231
159,34.1820639608105,568.98175991862
159.5,34.9947880257922,575.189017233679
160,35.8336096913369,581.518957323308
160.5,36.6996624388675,587.975556456149
161,37.594142379266,594.562965612332
161.5,38.5183124719417,601.28552018893
162,39.4735070801855,608.147750357271
162.5,40.4611368938177,615.154392123508
163,41.4826942534226,622.310399148512
163.5,42.5397589140831,629.620955388223
164,43.6340042906188,637.09148862137
164.5,44.7672042309053,644.727684937599
165,45.9412403689579,652.53550426606
165.5,47.1581101152704,660.521197032108
166,48.4199353483237,668.691322038276
166.5,49.7289718785744,677.052765675075
167,51.0876197643796,685.612762577648
167.5,52.4984345687544,694.378917855866
168,53.9641396563002,703.359231038474
168.5,55.4876396416922,712.562121886173
169,57.0720351146592,721.996458244734
169.5,58.7206387818326,731.671586127062
170,60.4369931834774,741.597362233292
170.5,62.2248901631455,751.784189140401
171,64.0883922912953,762.243053418085
171.5,66.0318564701836,772.985566955845
172,68.0599599774681,784.024011818092
172.5,70.1777292406498,795.371388979789
173,72.3905716743665,807.041471335495
173.5,74.7043109585994,819.048861420141
174,77.1252261890663,831.409054331272
174.5,79.6600953928063,844.13850640067
175,82.3162439734872,857.254710229097
175.5,85.1015987343592,870.776276772757
176,88.0247482239438,884.723025254926
176.5,91.0950102631009,899.116081772958
177,94.3225076453136,913.977987580876
177.5,97.7182531583285,929.332818153504
178,101.29424525952,945.206314281559
178.5,105.063575954734,961.626026611385
179,109.040552687894,978.621475231058
179.5,113.240836354321,996.224326120344
180,117.681597914667,1014.46858652965
180.5,122.381696521097,1033.39082163792
181,127.361882588033,1053.03039516687
181.5,132.645029865487,1073.42973700642
182,138.256401327422,1094.63464134072
182.5,144.223954600071,1116.69459926546
183,150.578693762869,1139.6631704648
183.5,157.355075704129,1163.59839918255
184,164.591480863579,1188.56328048911
184.5,172.330760219281,1214.62628372836
185,180.620872872375,1241.8619410416
185.5,189.5156316713,1270.3515100244
186,199.075578154812,1300.18372089194
186.5,209.369012882509,1331.4556200206
187,220.473213225809,1364.27352340513
187.5,232.475878254781,1398.75409541641
188,245.476849926762,1435.02557024117
188.5,259.59017195413,1473.22913547515
189,274.946563287087,1513.52049941626
189.5,291.6964031377,1556.07166546845
190,310.013350293433,1601.07293838801
190.5,330.098753004246,1648.73518733052
191,352.187049518272,1699.29238889038
191.5,376.55241684039,1753.00446811554
192,403.51700119745,1810.16044450202
192.5,433.461164447862,1871.08186949724
193,466.83631508334,1936.12650609866
193.5,504.181072629224,2005.69214013478
194,546.141756701479,2080.22031130785
194.5,593.498519250066,2160.19958503681
195,647.198880917212,2246.16771281196
195.5,708.401029841376,2338.7115823794
196,778.530043978046,2438.46312948246
196.5,859.351264484105,2546.08818737277
197,953.066433053505,2662.26328411975
197.5,1062.43992867382,2787.63215103098
198,1190.96439505525,2922.72832547732
198.5,1343.07680755967,3067.84130125032
199,1524.43635704301,3222.78888737934
199.5,1742.27134039766,3386.53415882414
200,2005.78630092433,3556.54643039854
200.5,2326.57676680328,3727.74621804809
201,2718.89273966521,3890.79305433264
201.5,3199.35629341099,4029.39516439833
202,3785.26118533089,4116.34444061527
202.5,4489.74961714381,4108.42667792355
203,5311.14351183666,3941.97783997982
203.5,6213.90168874147,3534.79014680677
204,7104.30114260725,2805.90965177776
204.5,7820.26543124717,1724.30094161493
205,8171.64155556138,371.051850259004
205.5,8040.03871480625,-1047.90241465497
206,7462.51346809569,-2289.35737980566
206.5,6605.86967719015,-3197.07636048364
207,5660.98040438123,-3747.37295747195
207.5,4762.98226756899,-4004.72196335702
208,3976.90630008732,-4058.57050958671
208.5,3318.80444237122,-3986.61018626029
209,2779.970086166,-3844.4477226607
209.5,2342.73945716406,-3667.94706320701
210,1988.38650126729,-3478.77709596341
210.5,1700.27113811807,-3289.37676583123
211,1464.67588384829,-3106.49800992129
211.5,1270.68605927638,-2933.50223803947
212,1109.7570617476,-2771.77997899223
212.5,975.239482636383,-2621.6066405766
213,861.959546415663,-2482.65068052976
213.5,765.878732740974,-2354.27190726163
214,683.828458088627,-2235.69433637409
214.5,613.30721265435,-2126.10445983259
215,552.326749137293,-2024.70534204392
215.5,499.295723933896,-1930.7446937158
216,452.931547084569,-1843.52775686103
216.5,412.193360490998,-1762.42146907768
217,376.230827590928,-1686.85376532632
217.5,344.344779519345,-1616.31031012431
218,315.956785846303,-1550.3300115964
218.5,290.585475911036,-1488.50010160218
219,267.827994736377,-1430.45122456455
219.5,247.345387534301,-1375.85277263731
220,228.851008446404,-1324.40858284732
220.5,212.10127169355,-1275.85304033586
221,196.888228144978,-1229.94759101286
221.5,183.033573001462,-1186.47764472077
222,170.383782077176,-1145.24983895502
222.5,158.806143219917,-1106.08962874398
223,148.185501653963,-1068.83916765449
223.5,138.421577781317,-1033.35544635074
224,129.4267463946,-999.50865765891
224.5,121.12418966052,-967.180760061343
225,113.446354342298,-936.264214601897
225.5,106.333657816325,-906.660873129632
226,99.7333984541084,-878.280998537476
226.5,93.5988345983336,-851.042400121496
227,87.8884032005711,-824.869669383848
227.5,82.5650546155731,-799.693503537812
228,77.5956843749907,-775.450105664117
228.5,72.9506462295465,-752.080651938107
229,68.603333537391,-729.530817621013
229.5,64.5298183290783,-707.750354609517
230,60.7085392070264,-686.692714288176
230.5,57.1200307254848,-666.314710248954
231,53.7466881136404,-646.576216149
231.5,50.5725622027222,-627.439894587585
232,47.5831802399747,-608.870953409274
232.5,44.7653889516347,-590.836926294876
233,42.1072167801981,-573.307474894615
233.5,39.597752689714,-556.254210097872
234,37.227039323745,-539.650530328496
234.5,34.9859786277509,-523.471475010187
235,32.866248322347,-507.693591568472
235.5,30.8602278450818,-492.29481452889
236,28.9609325735913,-477.254355439308
236.5,27.1619553082508,-462.552602490947
237,25.4574141327253,-448.171028841001
237.5,23.8419058901825,-434.092108751897
238,22.3104646147988,-420.299240760469
238.5,20.8585243452949,-406.776677176645
239,19.4818858219334,-393.509459286894
239.5,18.1766866326115,-380.483357704439
240,16.9393744289877,-367.684817366852
240.5,15.7666828813451,-355.100906733496
241,14.6556100822497,-342.719270780959
241.5,13.6033991449276,-330.528087435086
242,12.6075207735076,-318.516027113943
242.5,11.665657609487,-306.672215087753
243,10.7756901825728,-294.986196389927
243.5,9.93568431491434,-283.447903038233
244,9.14387984609002,-272.047623347251
244.5,8.39868056238284,-260.775973132912
245,7.69864522820129,-249.623868627355
245.5,7.04247963022218,-238.582500937811
246,6.42902955616809,-227.643311896992
246.5,5.85727464030716,-216.79797116462
247,5.32632301690639,-206.038354450562
247.5,4.83540673118047,-195.356522739549
248,4.38387786482387,-184.7447024059
248.5,3.97120534018724,-174.195266114046
249,3.59697237357786,-163.700714407135
249.5,3.26087455420839,-153.253657891593
250,2.96271853099152,-142.846799930366
250.5,2.70242129482714,-132.472919761713
251,2.48001004927912,-122.124855963819
251.5,2.29562266768403,-111.79549018838
252,2.14950873983552,-101.477731088502
252.5,2.04203121650964,-91.1644983679921
253,1.9736686653069,-80.8487068801848
253.5,1.9450181566492,-70.5232507051417
254,1.9567988043651,-60.1809871341203
254.5,2.00985599117447,-49.8147204898593
255,2.10516631566013,-39.4171857103057
255.5,2.24384330402277,-28.9810316220709
256,2.42714393720627,-18.4988038279575
256.5,2.65647605190642,-7.96292713054405
257,2.9334066826759,2.63431258915567
257.5,3.259671421949,13.3007871224045
258,3.63718488543381,24.0445454013336
258.5,4.06805238218827,34.8738337785567
259,4.55458290191831,45.7971172162195
259.5,5.09930354689231,56.8231014888116
260,5.70497555256347,67.9607565106672
260.5,6.374612059825,79.2193409063905
261,7.11149782311569,90.6084279505053
261.5,7.91921106272456,102.13793301149
262,8.80164769705634,113.81814264499
262.5,9.76304822180538,125.659745491532
263,10.8080275385593,137.673865145378
263.5,11.9416080759851,149.872095173392
264,13.1692565932648,162.266536475795
264.5,14.4969251087719,174.869837194571
265,15.9310964582296,187.695235389792
265.5,17.4788350570839,200.75660471931
266,19.1478435230473,214.068503372774
266.5,20.9465259085572,227.646226526636
267,22.8840584014008,241.505862602117
267.5,24.9704684773848,255.664353622701
268,27.2167236348286,270.139559980712
268.5,29.6348310101509,284.950329932791
269,32.2379493712962,300.116574150664
269.5,35.0405152159654,315.659345654095
270,38.0583849706955,331.600925445478
270.5,41.3089956016355,347.964914146584
271,44.8115463168991,364.776329903588
271.5,48.5872044735818,382.06171277093
272,52.6593393118551,399.84923570072
272.5,57.0537877382458,418.168822142683
273,61.7991570871795,437.052270087394
273.5,66.9271706244478,456.533382146484
274,72.4730625423659,476.648100935838
274.5,78.4760303627084,497.434648583012
275,84.979754043707,518.933668580739
275.5,92.0329927213298,541.188367404998
276,99.69027194918,564.24465224332
276.5,108.012676589528,588.151259750727
277,117.068767211856,612.959868852705
277.5,126.935641043851,638.725188095974
278,137.700162268284,665.505004707907
278.5,149.460390846072,693.360178098569
279,162.327244146233,722.354554671747
279.5,176.426431538837,752.554773033804
280,191.900708785612,784.029918377191
280.5,208.912506508839,816.85097114105
281,227.646995080546,851.089976916236
281.5,248.315656602688,886.818840515912
282,271.160442569117,924.107615270172
282.5,296.458602107485,963.022116436351
283,324.528268346674,1003.62063194104
283.5,355.734886069351,1045.94943042092
284,390.498546957859,1090.03667069045
284.5,429.30226082993,1135.88419239545
285,472.701118904475,1183.45650817646
285.5,521.332177812411,1232.66611695705
286,575.924679831809,1283.35401221233
286.5,637.3098799956,1335.26397114668
287,706.429208675688,1388.0088981774
287.5,784.338668409024,1441.02720558817
288,872.206128576333,1493.52704583797
288.5,971.296404451674,1544.41635692225
289,1082.9365640421,1592.21748903268
289.5,1208.45076705951,1634.96721975131
290,1349.05034362407,1670.10710914077
290.5,1505.66159610435,1694.37657389759
291,1678.67289270541,1703.73303598149
291.5,1867.5876967115,1693.34063967406
292,2070.58703116512,1657.68962973409
292.5,2284.04046141966,1590.92569387963
293,2502.06295444288,1487.46722062645
293.5,2716.28789924962,1342.94488306151
294,2916.08213002554,1155.3898718926
294.5,3089.40749126696,926.428844292794
295,3224.37422663642,662.078907824391
295.5,3311.23619887965,372.700096820938
296,3344.27294343474,71.869201043765
296.5,3322.90412922249,-225.640666331531
297,3251.62426793789,-506.178272761231
297.5,3138.8251066206,-759.103674024884
298,2994.99602352037,-977.759192875397
298.5,2830.9211288322,-1159.45748240337
299,2656.32315447354,-1304.7663750512
299.5,2479.11498758037,-1416.49003431323
300,2305.18680454332,-1498.67471513183
300.5,2138.55077325205,-1555.81981553368
301,1981.66363568796,-1592.34384517288
301.5,1835.7959543406,-1612.2766844815
302,1701.37268227715,-1619.11956984067
302.5,1578.25279262681,-1615.81384162023
303,1465.94205596904,-1604.77169402392
303.5,1363.74608463759,-1587.93668319825
304,1270.87538115966,-1566.85401304363
304.5,1186.51430766883,-1542.73944240486
305,1109.86418022334,-1516.54137991343
305.5,1040.1684755701,-1488.99414454315
306,976.726062823162,-1460.66223740556
306.5,918.896670352726,-1431.97638251093
307,866.101499559142,-1403.26245374511
307.5,817.820950695276,-1374.7644671957
308,773.59075739532,-1346.66273454892
308.5,732.997365326704,-1319.08813076277
309,695.673078087722,-1292.13327344632
309.5,661.291285541621,-1265.86126468826
310,629.561953614289,-1240.31251774848
310.5,600.227467052548,-1215.51008343181
311,573.058861649697,-1191.46380312354
311.5,547.852448967463,-1168.17354499267
312,524.42681714667,-1145.63172398205
312.5,502.620180991359,-1123.82526222628
313,482.288049799702,-1102.73711210844
313.5,463.301180203318,-1082.34743729692
314,445.543782132116,-1062.63452617294
314.5,428.911948021724,-1043.57549576759
315,413.312277939465,-1025.14683164756
315.5,398.660676060991,-1007.32479931578
316,384.881296665297,-990.085754998268
316.5,371.905620408007,-973.406377684825
317,359.671644018051,-957.263839600634
317.5,348.123168714455,-941.635928614957
318,337.209174555415,-926.50113321695
318.5,326.883269619395,-911.83869843067
319,317.103204395282,-897.628659266112
319.5,307.83044304504,-883.851856905791
320,299.02978431825,-870.489941724064
320.5,290.669025863939,-857.525366366539
321,282.718666519532,-844.941371429015
321.5,275.151641876965,-832.721965731161
322,267.943089047278,-820.85190274905
322.5,261.07013708061,-809.3166544292
323,254.511719960732,-798.102383335696
323.5,248.248409491846,-787.195913867539
324,242.262265739722,-776.584703112855
324.5,236.536702986638,-766.256811771903
325,231.056369416831,-756.200875474026
325.5,225.807038971934,-746.406076729284
326,220.775514008814,-736.862117689084
326.5,215.949537559719,-727.559193837717
327,211.317714140167,-718.487968695816
327.5,206.869438176496,-709.639549584747
328,202.594829235245,-701.005464476256
328.5,198.484673332707,-692.577639932653
329,194.530369686796,-684.348380128385
329.5,190.723882346954,-676.310346933038
330,187.057696201907,-668.4565410278
330.5,183.52477692158,-660.780284021869
331,180.118534438862,-653.27520153122
331.5,176.832789620457,-645.93520717983
332,173.661743814289,-638.754487481941
332.5,170.599950994764,-631.727487563465
333,167.642292256912,-624.848897680701
333.5,164.783952436771,-618.113640495121
334,162.020398658735,-611.516859063973
334.5,159.347360631131,-605.053905507608
335,156.760812529708,-598.720330315914
335.5,154.256956324901,-592.511872257683
336,151.832206423284,-586.424448858441
336.5,149.483175506444,-580.454147413827
337,147.20666146202,-574.597216507283
337.5,144.999635311919,-568.850058002473
338,142.859230051852,-563.209219482421
338.5,140.78273032454,-557.671387108908
339,138.767562856298,-552.233378877231
339.5,136.811287593244,-546.892138242774
340,134.911589479344,-541.64472809734
340.5,133.066270823744,-536.488325074387
341,131.273244209676,-531.420214163685
341.5,129.530525901491,-526.437783616983
342,127.836229710243,-521.538520127514
342.5,126.188561281755,-516.720004267071
343,124.585812774268,-511.979906165586
343.5,123.026357895588,-507.315981418855
344,121.508647272281,-502.72606721115
344.5,120.031204125742,-498.208078640118
345,118.592620232158,-493.760005232232
345.5,117.191552145243,-489.379907637791
346,115.826717662408,-485.06591449509
346.5,114.496892516609,-480.81621945409
347,113.200907277555,-476.62907835046
347.5,111.937644447285,-472.502806521463
348,110.706035736311,-468.435776255669
348.5,109.50505950762,-464.426414368954
349,108.333738376841,-460.473199899747
349.5,107.191136957777,-456.574661916866
350,106.07635974333,-452.72937743371
350.5,104.988549112655,-448.93596942298
351,103.926883456013,-445.193104926384
351.5,102.89057540948,-441.499493254192
352,101.878870192252,-437.853884269745
352.5,100.891044039801,-434.255066754368
353,99.926402726646,-430.701866848363
353.5,98.9842801729823,-427.19314656405
