!Port 1 is shunt  connected
!Port 2 is shunt  connected
!
!prototype= pole placed tchebycheff
!n=  5,  np= 0,  rl=  22.000dB
!
!transform= band pass
!f0= 2140.000MHz,  bw=  100.000MHz, q0= 900.000
!
!fstart= 1940.000MHz, fstep=    0.500MHz, fstop= 2340.000MHz
!
# MHZ S MA R 50
!Freq        Mag(S11)   Arg(S11)      Mag(S21)        Arg(S21)      Mag(S12)        Arg(S12)    Mag(S22)  Arg(S22)
 1940.0000   0.996430    148.831     6.380056e-004      56.983     6.380056e-004      56.983    0.996430   148.831
 1940.5000   0.996411    148.745     6.467172e-004      56.892     6.467172e-004      56.892    0.996411   148.745
 1941.0000   0.996392    148.658     6.555701e-004      56.801     6.555701e-004      56.801    0.996392   148.658
 1941.5000   0.996372    148.571     6.645669e-004      56.709     6.645669e-004      56.709    0.996372   148.571
 1942.0000   0.996352    148.483     6.737105e-004      56.616     6.737105e-004      56.616    0.996352   148.483
 1942.5000   0.996332    148.395     6.830035e-004      56.523     6.830035e-004      56.523    0.996332   148.395
 1943.0000   0.996312    148.306     6.924488e-004      56.430     6.924488e-004      56.430    0.996312   148.306
 1943.5000   0.996292    148.217     7.020493e-004      56.336     7.020493e-004      56.336    0.996292   148.217
 1944.0000   0.996272    148.127     7.118080e-004      56.241     7.118080e-004      56.241    0.996272   148.127
 1944.5000   0.996251    148.037     7.217279e-004      56.146     7.217279e-004      56.146    0.996251   148.037
 1945.0000   0.996230    147.946     7.318121e-004      56.050     7.318121e-004      56.050    0.996230   147.946
 1945.5000   0.996209    147.855     7.420638e-004      55.954     7.420638e-004      55.954    0.996209   147.855
 1946.0000   0.996188    147.763     7.524863e-004      55.857     7.524863e-004      55.857    0.996188   147.763
 1946.5000   0.996167    147.671     7.630828e-004      55.760     7.630828e-004      55.760    0.996167   147.671
 1947.0000   0.996145    147.578     7.738567e-004      55.662     7.738567e-004      55.662    0.996145   147.578
 1947.5000   0.996124    147.485     7.848115e-004      55.564     7.848115e-004      55.564    0.996124   147.485
 1948.0000   0.996102    147.391     7.959507e-004      55.465     7.959507e-004      55.465    0.996102   147.391
 1948.5000   0.996080    147.296     8.072780e-004      55.366     8.072780e-004      55.366    0.996080   147.296
 1949.0000   0.996057    147.202     8.187970e-004      55.266     8.187970e-004      55.266    0.996057   147.202
 1949.5000   0.996035    147.106     8.305116e-004      55.165     8.305116e-004      55.165    0.996035   147.106
 1950.0000   0.996012    147.010     8.424255e-004      55.064     8.424255e-004      55.064    0.996012   147.010
 1950.5000   0.995989    146.914     8.545427e-004      54.962     8.545427e-004      54.962    0.995989   146.914
 1951.0000   0.995966    146.816     8.668674e-004      54.860     8.668674e-004      54.860    0.995966   146.816
 1951.5000   0.995943    146.719     8.794036e-004      54.757     8.794036e-004      54.757    0.995943   146.719
 1952.0000   0.995920    146.621     8.921555e-004      54.653     8.921555e-004      54.653    0.995920   146.621
 1952.5000   0.995896    146.522     9.051275e-004      54.549     9.051275e-004      54.549    0.995896   146.522
 1953.0000   0.995872    146.422     9.183240e-004      54.444     9.183240e-004      54.444    0.995872   146.422
 1953.5000   0.995848    146.322     9.317496e-004      54.339     9.317496e-004      54.339    0.995848   146.322
 1954.0000   0.995824    146.222     9.454088e-004      54.233     9.454088e-004      54.233    0.995824   146.222
 1954.5000   0.995799    146.121     9.593065e-004      54.127     9.593065e-004      54.127    0.995799   146.121
 1955.0000   0.995774    146.019     9.734474e-004      54.019     9.734474e-004      54.019    0.995774   146.019
 1955.5000   0.995749    145.917     9.878366e-004      53.911     9.878366e-004      53.911    0.995749   145.917
 1956.0000   0.995724    145.814     1.002479e-003      53.803     1.002479e-003      53.803    0.995724   145.814
 1956.5000   0.995699    145.710     1.017380e-003      53.694     1.017380e-003      53.694    0.995699   145.710
 1957.0000   0.995673    145.606     1.032545e-003      53.584     1.032545e-003      53.584    0.995673   145.606
 1957.5000   0.995647    145.501     1.047979e-003      53.474     1.047979e-003      53.474    0.995647   145.501
 1958.0000   0.995621    145.396     1.063688e-003      53.362     1.063688e-003      53.362    0.995621   145.396
 1958.5000   0.995594    145.290     1.079678e-003      53.251     1.079678e-003      53.251    0.995594   145.290
 1959.0000   0.995568    145.183     1.095954e-003      53.138     1.095954e-003      53.138    0.995568   145.183
 1959.5000   0.995541    145.076     1.112522e-003      53.025     1.112522e-003      53.025    0.995541   145.076
 1960.0000   0.995513    144.968     1.129389e-003      52.911     1.129389e-003      52.911    0.995513   144.968
 1960.5000   0.995486    144.859     1.146561e-003      52.797     1.146561e-003      52.797    0.995486   144.859
 1961.0000   0.995458    144.750     1.164044e-003      52.681     1.164044e-003      52.681    0.995458   144.750
 1961.5000   0.995430    144.640     1.181845e-003      52.565     1.181845e-003      52.565    0.995430   144.640
 1962.0000   0.995402    144.529     1.199970e-003      52.449     1.199970e-003      52.449    0.995402   144.529
 1962.5000   0.995374    144.418     1.218427e-003      52.331     1.218427e-003      52.331    0.995374   144.418
 1963.0000   0.995345    144.306     1.237222e-003      52.213     1.237222e-003      52.213    0.995345   144.306
 1963.5000   0.995316    144.193     1.256364e-003      52.094     1.256364e-003      52.094    0.995316   144.193
 1964.0000   0.995286    144.080     1.275858e-003      51.975     1.275858e-003      51.975    0.995286   144.080
 1964.5000   0.995257    143.965     1.295714e-003      51.854     1.295714e-003      51.854    0.995257   143.965
 1965.0000   0.995227    143.851     1.315938e-003      51.733     1.315938e-003      51.733    0.995227   143.851
 1965.5000   0.995197    143.735     1.336538e-003      51.611     1.336538e-003      51.611    0.995197   143.735
 1966.0000   0.995166    143.619     1.357524e-003      51.489     1.357524e-003      51.489    0.995166   143.619
 1966.5000   0.995135    143.501     1.378903e-003      51.365     1.378903e-003      51.365    0.995135   143.501
 1967.0000   0.995104    143.384     1.400683e-003      51.241     1.400683e-003      51.241    0.995104   143.384
 1967.5000   0.995073    143.265     1.422875e-003      51.116     1.422875e-003      51.116    0.995073   143.265
 1968.0000   0.995041    143.146     1.445486e-003      50.990     1.445486e-003      50.990    0.995041   143.146
 1968.5000   0.995009    143.026     1.468526e-003      50.863     1.468526e-003      50.863    0.995009   143.026
 1969.0000   0.994977    142.905     1.492004e-003      50.736     1.492004e-003      50.736    0.994977   142.905
 1969.5000   0.994944    142.783     1.515931e-003      50.608     1.515931e-003      50.608    0.994944   142.783
 1970.0000   0.994911    142.660     1.540316e-003      50.478     1.540316e-003      50.478    0.994911   142.660
 1970.5000   0.994877    142.537     1.565169e-003      50.348     1.565169e-003      50.348    0.994877   142.537
 1971.0000   0.994844    142.413     1.590502e-003      50.218     1.590502e-003      50.218    0.994844   142.413
 1971.5000   0.994809    142.288     1.616324e-003      50.086     1.616324e-003      50.086    0.994809   142.288
 1972.0000   0.994775    142.162     1.642647e-003      49.953     1.642647e-003      49.953    0.994775   142.162
 1972.5000   0.994740    142.036     1.669483e-003      49.820     1.669483e-003      49.820    0.994740   142.036
 1973.0000   0.994705    141.908     1.696842e-003      49.685     1.696842e-003      49.685    0.994705   141.908
 1973.5000   0.994670    141.780     1.724738e-003      49.550     1.724738e-003      49.550    0.994670   141.780
 1974.0000   0.994634    141.651     1.753181e-003      49.414     1.753181e-003      49.414    0.994634   141.651
 1974.5000   0.994597    141.521     1.782185e-003      49.277     1.782185e-003      49.277    0.994597   141.521
 1975.0000   0.994561    141.390     1.811763e-003      49.139     1.811763e-003      49.139    0.994561   141.390
 1975.5000   0.994524    141.258     1.841928e-003      49.000     1.841928e-003      49.000    0.994524   141.258
 1976.0000   0.994486    141.125     1.872694e-003      48.860     1.872694e-003      48.860    0.994486   141.125
 1976.5000   0.994448    140.992     1.904073e-003      48.719     1.904073e-003      48.719    0.994448   140.992
 1977.0000   0.994410    140.857     1.936082e-003      48.577     1.936082e-003      48.577    0.994410   140.857
 1977.5000   0.994371    140.722     1.968735e-003      48.434     1.968735e-003      48.434    0.994371   140.722
 1978.0000   0.994332    140.585     2.002046e-003      48.290     2.002046e-003      48.290    0.994332   140.585
 1978.5000   0.994293    140.448     2.036032e-003      48.145     2.036032e-003      48.145    0.994293   140.448
 1979.0000   0.994253    140.309     2.070708e-003      47.999     2.070708e-003      47.999    0.994253   140.309
 1979.5000   0.994212    140.170     2.106091e-003      47.852     2.106091e-003      47.852    0.994212   140.170
 1980.0000   0.994171    140.030     2.142198e-003      47.704     2.142198e-003      47.704    0.994171   140.030
 1980.5000   0.994130    139.889     2.179046e-003      47.556     2.179046e-003      47.556    0.994130   139.889
 1981.0000   0.994088    139.746     2.216652e-003      47.405     2.216652e-003      47.405    0.994088   139.746
 1981.5000   0.994046    139.603     2.255035e-003      47.254     2.255035e-003      47.254    0.994046   139.603
 1982.0000   0.994003    139.459     2.294215e-003      47.102     2.294215e-003      47.102    0.994003   139.459
 1982.5000   0.993960    139.313     2.334209e-003      46.949     2.334209e-003      46.949    0.993960   139.313
 1983.0000   0.993917    139.167     2.375039e-003      46.794     2.375039e-003      46.794    0.993917   139.167
 1983.5000   0.993872    139.019     2.416724e-003      46.639     2.416724e-003      46.639    0.993872   139.019
 1984.0000   0.993828    138.871     2.459286e-003      46.482     2.459286e-003      46.482    0.993828   138.871
 1984.5000   0.993782    138.721     2.502745e-003      46.324     2.502745e-003      46.324    0.993782   138.721
 1985.0000   0.993737    138.570     2.547125e-003      46.165     2.547125e-003      46.165    0.993737   138.570
 1985.5000   0.993690    138.419     2.592449e-003      46.005     2.592449e-003      46.005    0.993690   138.419
 1986.0000   0.993644    138.266     2.638739e-003      45.844     2.638739e-003      45.844    0.993644   138.266
 1986.5000   0.993596    138.112     2.686019e-003      45.681     2.686019e-003      45.681    0.993596   138.112
 1987.0000   0.993548    137.956     2.734316e-003      45.517     2.734316e-003      45.517    0.993548   137.956
 1987.5000   0.993500    137.800     2.783653e-003      45.352     2.783653e-003      45.352    0.993500   137.800
 1988.0000   0.993451    137.642     2.834058e-003      45.186     2.834058e-003      45.186    0.993451   137.642
 1988.5000   0.993401    137.483     2.885558e-003      45.019     2.885558e-003      45.019    0.993401   137.483
 1989.0000   0.993351    137.323     2.938181e-003      44.850     2.938181e-003      44.850    0.993351   137.323
 1989.5000   0.993300    137.162     2.991954e-003      44.680     2.991954e-003      44.680    0.993300   137.162
 1990.0000   0.993249    137.000     3.046909e-003      44.508     3.046909e-003      44.508    0.993249   137.000
 1990.5000   0.993197    136.836     3.103074e-003      44.336     3.103074e-003      44.336    0.993197   136.836
 1991.0000   0.993144    136.671     3.160482e-003      44.162     3.160482e-003      44.162    0.993144   136.671
 1991.5000   0.993091    136.505     3.219165e-003      43.986     3.219165e-003      43.986    0.993091   136.505
 1992.0000   0.993037    136.337     3.279156e-003      43.810     3.279156e-003      43.810    0.993037   136.337
 1992.5000   0.992982    136.168     3.340489e-003      43.631     3.340489e-003      43.631    0.992982   136.168
 1993.0000   0.992926    135.998     3.403200e-003      43.452     3.403200e-003      43.452    0.992926   135.998
 1993.5000   0.992870    135.827     3.467324e-003      43.271     3.467324e-003      43.271    0.992870   135.827
 1994.0000   0.992814    135.654     3.532899e-003      43.088     3.532899e-003      43.088    0.992814   135.654
 1994.5000   0.992756    135.479     3.599965e-003      42.905     3.599965e-003      42.905    0.992756   135.479
 1995.0000   0.992698    135.304     3.668559e-003      42.719     3.668559e-003      42.719    0.992698   135.304
 1995.5000   0.992639    135.127     3.738725e-003      42.532     3.738725e-003      42.532    0.992639   135.127
 1996.0000   0.992579    134.948     3.810503e-003      42.344     3.810503e-003      42.344    0.992579   134.948
 1996.5000   0.992519    134.768     3.883937e-003      42.154     3.883937e-003      42.154    0.992519   134.768
 1997.0000   0.992457    134.587     3.959072e-003      41.963     3.959072e-003      41.963    0.992457   134.587
 1997.5000   0.992395    134.404     4.035955e-003      41.770     4.035955e-003      41.770    0.992395   134.404
 1998.0000   0.992332    134.219     4.114632e-003      41.575     4.114632e-003      41.575    0.992332   134.219
 1998.5000   0.992268    134.033     4.195155e-003      41.379     4.195155e-003      41.379    0.992268   134.033
 1999.0000   0.992204    133.846     4.277572e-003      41.181     4.277572e-003      41.181    0.992204   133.846
 1999.5000   0.992138    133.656     4.361938e-003      40.981     4.361938e-003      40.981    0.992138   133.656
 2000.0000   0.992072    133.466     4.448305e-003      40.780     4.448305e-003      40.780    0.992072   133.466
 2000.5000   0.992005    133.273     4.536729e-003      40.577     4.536729e-003      40.577    0.992005   133.273
 2001.0000   0.991936    133.079     4.627269e-003      40.372     4.627269e-003      40.372    0.991936   133.079
 2001.5000   0.991867    132.884     4.719984e-003      40.166     4.719984e-003      40.166    0.991867   132.884
 2002.0000   0.991797    132.686     4.814936e-003      39.958     4.814936e-003      39.958    0.991797   132.686
 2002.5000   0.991726    132.488     4.912186e-003      39.748     4.912186e-003      39.748    0.991726   132.488
 2003.0000   0.991654    132.287     5.011803e-003      39.536     5.011803e-003      39.536    0.991654   132.287
 2003.5000   0.991581    132.084     5.113852e-003      39.322     5.113852e-003      39.322    0.991581   132.084
 2004.0000   0.991507    131.880     5.218404e-003      39.107     5.218404e-003      39.107    0.991507   131.880
 2004.5000   0.991432    131.674     5.325531e-003      38.889     5.325531e-003      38.889    0.991432   131.674
 2005.0000   0.991356    131.466     5.435308e-003      38.670     5.435308e-003      38.670    0.991356   131.466
 2005.5000   0.991278    131.256     5.547811e-003      38.449     5.547811e-003      38.449    0.991278   131.256
 2006.0000   0.991200    131.045     5.663122e-003      38.225     5.663122e-003      38.225    0.991200   131.045
 2006.5000   0.991120    130.831     5.781322e-003      38.000     5.781322e-003      38.000    0.991120   130.831
 2007.0000   0.991040    130.616     5.902496e-003      37.773     5.902496e-003      37.773    0.991040   130.616
 2007.5000   0.990958    130.399     6.026733e-003      37.543     6.026733e-003      37.543    0.990958   130.399
 2008.0000   0.990875    130.179     6.154123e-003      37.312     6.154123e-003      37.312    0.990875   130.179
 2008.5000   0.990790    129.958     6.284762e-003      37.078     6.284762e-003      37.078    0.990790   129.958
 2009.0000   0.990705    129.734     6.418746e-003      36.842     6.418746e-003      36.842    0.990705   129.734
 2009.5000   0.990618    129.509     6.556177e-003      36.604     6.556177e-003      36.604    0.990618   129.509
 2010.0000   0.990530    129.281     6.697159e-003      36.364     6.697159e-003      36.364    0.990530   129.281
 2010.5000   0.990440    129.051     6.841800e-003      36.122     6.841800e-003      36.122    0.990440   129.051
 2011.0000   0.990349    128.820     6.990213e-003      35.877     6.990213e-003      35.877    0.990349   128.820
 2011.5000   0.990257    128.585     7.142513e-003      35.630     7.142513e-003      35.630    0.990257   128.585
 2012.0000   0.990163    128.349     7.298821e-003      35.380     7.298821e-003      35.380    0.990163   128.349
 2012.5000   0.990067    128.110     7.459260e-003      35.128     7.459260e-003      35.128    0.990067   128.110
 2013.0000   0.989971    127.870     7.623960e-003      34.874     7.623960e-003      34.874    0.989971   127.870
 2013.5000   0.989872    127.626     7.793054e-003      34.617     7.793054e-003      34.617    0.989872   127.626
 2014.0000   0.989772    127.381     7.966680e-003      34.358     7.966680e-003      34.358    0.989772   127.381
 2014.5000   0.989671    127.132     8.144983e-003      34.096     8.144983e-003      34.096    0.989671   127.132
 2015.0000   0.989567    126.882     8.328110e-003      33.831     8.328110e-003      33.831    0.989567   126.882
 2015.5000   0.989462    126.629     8.516215e-003      33.564     8.516215e-003      33.564    0.989462   126.629
 2016.0000   0.989356    126.373     8.709459e-003      33.294     8.709459e-003      33.294    0.989356   126.373
 2016.5000   0.989247    126.115     8.908007e-003      33.022     8.908007e-003      33.022    0.989247   126.115
 2017.0000   0.989137    125.854     9.112032e-003      32.747     9.112032e-003      32.747    0.989137   125.854
 2017.5000   0.989025    125.591     9.321711e-003      32.468     9.321711e-003      32.468    0.989025   125.591
 2018.0000   0.988910    125.325     9.537230e-003      32.187     9.537230e-003      32.187    0.988910   125.325
 2018.5000   0.988794    125.056     9.758780e-003      31.904     9.758780e-003      31.904    0.988794   125.056
 2019.0000   0.988676    124.784     9.986563e-003      31.617     9.986563e-003      31.617    0.988676   124.784
 2019.5000   0.988556    124.510     1.022078e-002      31.327     1.022078e-002      31.327    0.988556   124.510
 2020.0000   0.988434    124.232     1.046166e-002      31.034     1.046166e-002      31.034    0.988434   124.232
 2020.5000   0.988309    123.952     1.070941e-002      30.738     1.070941e-002      30.738    0.988309   123.952
 2021.0000   0.988182    123.669     1.096427e-002      30.439     1.096427e-002      30.439    0.988182   123.669
 2021.5000   0.988053    123.382     1.122649e-002      30.136     1.122649e-002      30.136    0.988053   123.382
 2022.0000   0.987922    123.093     1.149630e-002      29.831     1.149630e-002      29.831    0.987922   123.093
 2022.5000   0.987788    122.800     1.177398e-002      29.522     1.177398e-002      29.522    0.987788   122.800
 2023.0000   0.987652    122.504     1.205979e-002      29.209     1.205979e-002      29.209    0.987652   122.504
 2023.5000   0.987513    122.205     1.235402e-002      28.893     1.235402e-002      28.893    0.987513   122.205
 2024.0000   0.987371    121.903     1.265695e-002      28.574     1.265695e-002      28.574    0.987371   121.903
 2024.5000   0.987227    121.597     1.296891e-002      28.251     1.296891e-002      28.251    0.987227   121.597
