!Port 1 is shunt  connected
!Port 2 is shunt  connected
!
!prototype= pole placed tchebycheff
!n=  5,  np= 0,  rl=  22.000dB
!
!transform= band pass
!f0= 2140.000MHz,  bw=  100.000MHz, q0=1200.000
!
!fstart= 1940.000MHz, fstep=    0.500MHz, fstop= 2340.000MHz
!
# MHZ S MA R 50
!Freq        Mag(S11)   Arg(S11)      Mag(S21)        Arg(S21)      Mag(S12)        Arg(S12)    Mag(S22)  Arg(S22)
 1940.0000   0.997321    148.831     6.386031e-004      57.445     6.386031e-004      57.445    0.997321   148.831
 1940.5000   0.997307    148.744     6.473261e-004      57.355     6.473261e-004      57.355    0.997307   148.744
 1941.0000   0.997292    148.658     6.561907e-004      57.265     6.561907e-004      57.265    0.997292   148.658
 1941.5000   0.997278    148.570     6.651995e-004      57.174     6.651995e-004      57.174    0.997278   148.570
 1942.0000   0.997263    148.482     6.743552e-004      57.082     6.743552e-004      57.082    0.997263   148.482
 1942.5000   0.997248    148.394     6.836607e-004      56.991     6.836607e-004      56.991    0.997248   148.394
 1943.0000   0.997233    148.305     6.931187e-004      56.898     6.931187e-004      56.898    0.997233   148.305
 1943.5000   0.997218    148.216     7.027323e-004      56.805     7.027323e-004      56.805    0.997218   148.216
 1944.0000   0.997202    148.126     7.125043e-004      56.712     7.125043e-004      56.712    0.997202   148.126
 1944.5000   0.997187    148.036     7.224378e-004      56.618     7.224378e-004      56.618    0.997187   148.036
 1945.0000   0.997171    147.945     7.325360e-004      56.524     7.325360e-004      56.524    0.997171   147.945
 1945.5000   0.997155    147.854     7.428019e-004      56.429     7.428019e-004      56.429    0.997155   147.854
 1946.0000   0.997140    147.762     7.532390e-004      56.333     7.532390e-004      56.333    0.997140   147.762
 1946.5000   0.997124    147.670     7.638503e-004      56.237     7.638503e-004      56.237    0.997124   147.670
 1947.0000   0.997107    147.577     7.746395e-004      56.141     7.746395e-004      56.141    0.997107   147.577
 1947.5000   0.997091    147.484     7.856098e-004      56.044     7.856098e-004      56.044    0.997091   147.484
 1948.0000   0.997075    147.390     7.967650e-004      55.946     7.967650e-004      55.946    0.997075   147.390
 1948.5000   0.997058    147.296     8.081085e-004      55.848     8.081085e-004      55.848    0.997058   147.296
 1949.0000   0.997041    147.201     8.196442e-004      55.749     8.196442e-004      55.749    0.997041   147.201
 1949.5000   0.997025    147.105     8.313758e-004      55.650     8.313758e-004      55.650    0.997025   147.105
 1950.0000   0.997008    147.009     8.433071e-004      55.550     8.433071e-004      55.550    0.997008   147.009
 1950.5000   0.996990    146.913     8.554422e-004      55.449     8.554422e-004      55.449    0.996990   146.913
 1951.0000   0.996973    146.816     8.677851e-004      55.348     8.677851e-004      55.348    0.996973   146.816
 1951.5000   0.996956    146.718     8.803399e-004      55.247     8.803399e-004      55.247    0.996956   146.718
 1952.0000   0.996938    146.620     8.931109e-004      55.144     8.931109e-004      55.144    0.996938   146.620
 1952.5000   0.996920    146.521     9.061025e-004      55.042     9.061025e-004      55.042    0.996920   146.521
 1953.0000   0.996902    146.422     9.193190e-004      54.938     9.193190e-004      54.938    0.996902   146.422
 1953.5000   0.996884    146.322     9.327650e-004      54.834     9.327650e-004      54.834    0.996884   146.322
 1954.0000   0.996866    146.221     9.464452e-004      54.730     9.464452e-004      54.730    0.996866   146.221
 1954.5000   0.996847    146.120     9.603643e-004      54.624     9.603643e-004      54.624    0.996847   146.120
 1955.0000   0.996829    146.018     9.745272e-004      54.519     9.745272e-004      54.519    0.996829   146.018
 1955.5000   0.996810    145.916     9.889388e-004      54.412     9.889388e-004      54.412    0.996810   145.916
 1956.0000   0.996791    145.813     1.003604e-003      54.305     1.003604e-003      54.305    0.996791   145.813
 1956.5000   0.996772    145.710     1.018529e-003      54.197     1.018529e-003      54.197    0.996772   145.710
 1957.0000   0.996753    145.605     1.033718e-003      54.089     1.033718e-003      54.089    0.996753   145.605
 1957.5000   0.996733    145.501     1.049177e-003      53.980     1.049177e-003      53.980    0.996733   145.501
 1958.0000   0.996714    145.395     1.064911e-003      53.870     1.064911e-003      53.870    0.996714   145.395
 1958.5000   0.996694    145.289     1.080926e-003      53.760     1.080926e-003      53.760    0.996694   145.289
 1959.0000   0.996674    145.182     1.097229e-003      53.649     1.097229e-003      53.649    0.996674   145.182
 1959.5000   0.996653    145.075     1.113824e-003      53.537     1.113824e-003      53.537    0.996653   145.075
 1960.0000   0.996633    144.967     1.130719e-003      53.425     1.130719e-003      53.425    0.996633   144.967
 1960.5000   0.996612    144.858     1.147920e-003      53.311     1.147920e-003      53.311    0.996612   144.858
 1961.0000   0.996592    144.749     1.165432e-003      53.198     1.165432e-003      53.198    0.996592   144.749
 1961.5000   0.996571    144.639     1.183263e-003      53.083     1.183263e-003      53.083    0.996571   144.639
 1962.0000   0.996549    144.528     1.201419e-003      52.968     1.201419e-003      52.968    0.996549   144.528
 1962.5000   0.996528    144.417     1.219907e-003      52.852     1.219907e-003      52.852    0.996528   144.417
 1963.0000   0.996506    144.305     1.238735e-003      52.735     1.238735e-003      52.735    0.996506   144.305
 1963.5000   0.996484    144.192     1.257909e-003      52.618     1.257909e-003      52.618    0.996484   144.192
 1964.0000   0.996462    144.079     1.277437e-003      52.500     1.277437e-003      52.500    0.996462   144.079
 1964.5000   0.996440    143.965     1.297328e-003      52.381     1.297328e-003      52.381    0.996440   143.965
 1965.0000   0.996418    143.850     1.317587e-003      52.262     1.317587e-003      52.262    0.996418   143.850
 1965.5000   0.996395    143.734     1.338224e-003      52.141     1.338224e-003      52.141    0.996395   143.734
 1966.0000   0.996372    143.618     1.359247e-003      52.020     1.359247e-003      52.020    0.996372   143.618
 1966.5000   0.996349    143.501     1.380664e-003      51.898     1.380664e-003      51.898    0.996349   143.501
 1967.0000   0.996326    143.383     1.402484e-003      51.776     1.402484e-003      51.776    0.996326   143.383
 1967.5000   0.996302    143.264     1.424716e-003      51.652     1.424716e-003      51.652    0.996302   143.264
 1968.0000   0.996278    143.145     1.447368e-003      51.528     1.447368e-003      51.528    0.996278   143.145
 1968.5000   0.996254    143.025     1.470451e-003      51.403     1.470451e-003      51.403    0.996254   143.025
 1969.0000   0.996230    142.904     1.493973e-003      51.277     1.493973e-003      51.277    0.996230   142.904
 1969.5000   0.996205    142.782     1.517944e-003      51.150     1.517944e-003      51.150    0.996205   142.782
 1970.0000   0.996180    142.659     1.542375e-003      51.023     1.542375e-003      51.023    0.996180   142.659
 1970.5000   0.996155    142.536     1.567275e-003      50.895     1.567275e-003      50.895    0.996155   142.536
 1971.0000   0.996130    142.412     1.592656e-003      50.765     1.592656e-003      50.765    0.996130   142.412
 1971.5000   0.996104    142.287     1.618528e-003      50.635     1.618528e-003      50.635    0.996104   142.287
 1972.0000   0.996078    142.161     1.644902e-003      50.504     1.644902e-003      50.504    0.996078   142.161
 1972.5000   0.996052    142.035     1.671790e-003      50.373     1.671790e-003      50.373    0.996052   142.035
 1973.0000   0.996026    141.907     1.699203e-003      50.240     1.699203e-003      50.240    0.996026   141.907
 1973.5000   0.995999    141.779     1.727153e-003      50.106     1.727153e-003      50.106    0.995999   141.779
 1974.0000   0.995972    141.650     1.755653e-003      49.972     1.755653e-003      49.972    0.995972   141.650
 1974.5000   0.995945    141.520     1.784715e-003      49.837     1.784715e-003      49.837    0.995945   141.520
 1975.0000   0.995917    141.389     1.814352e-003      49.700     1.814352e-003      49.700    0.995917   141.389
 1975.5000   0.995889    141.257     1.844578e-003      49.563     1.844578e-003      49.563    0.995889   141.257
 1976.0000   0.995861    141.124     1.875406e-003      49.425     1.875406e-003      49.425    0.995861   141.124
 1976.5000   0.995833    140.990     1.906851e-003      49.286     1.906851e-003      49.286    0.995833   140.990
 1977.0000   0.995804    140.856     1.938926e-003      49.146     1.938926e-003      49.146    0.995804   140.856
 1977.5000   0.995775    140.720     1.971647e-003      49.005     1.971647e-003      49.005    0.995775   140.720
 1978.0000   0.995746    140.584     2.005028e-003      48.863     2.005028e-003      48.863    0.995746   140.584
 1978.5000   0.995716    140.447     2.039086e-003      48.720     2.039086e-003      48.720    0.995716   140.447
 1979.0000   0.995686    140.308     2.073836e-003      48.576     2.073836e-003      48.576    0.995686   140.308
 1979.5000   0.995655    140.169     2.109294e-003      48.431     2.109294e-003      48.431    0.995655   140.169
 1980.0000   0.995625    140.029     2.145479e-003      48.285     2.145479e-003      48.285    0.995625   140.029
 1980.5000   0.995594    139.887     2.182407e-003      48.138     2.182407e-003      48.138    0.995594   139.887
 1981.0000   0.995562    139.745     2.220096e-003      47.989     2.220096e-003      47.989    0.995562   139.745
 1981.5000   0.995530    139.602     2.258564e-003      47.840     2.258564e-003      47.840    0.995530   139.602
 1982.0000   0.995498    139.457     2.297830e-003      47.690     2.297830e-003      47.690    0.995498   139.457
 1982.5000   0.995466    139.312     2.337914e-003      47.539     2.337914e-003      47.539    0.995466   139.312
 1983.0000   0.995433    139.166     2.378836e-003      47.386     2.378836e-003      47.386    0.995433   139.166
 1983.5000   0.995400    139.018     2.420616e-003      47.233     2.420616e-003      47.233    0.995400   139.018
 1984.0000   0.995366    138.870     2.463275e-003      47.078     2.463275e-003      47.078    0.995366   138.870
 1984.5000   0.995332    138.720     2.506835e-003      46.922     2.506835e-003      46.922    0.995332   138.720
 1985.0000   0.995298    138.569     2.551319e-003      46.765     2.551319e-003      46.765    0.995298   138.569
 1985.5000   0.995263    138.417     2.596748e-003      46.607     2.596748e-003      46.607    0.995263   138.417
 1986.0000   0.995228    138.264     2.643147e-003      46.448     2.643147e-003      46.448    0.995228   138.264
 1986.5000   0.995192    138.110     2.690541e-003      46.287     2.690541e-003      46.287    0.995192   138.110
 1987.0000   0.995156    137.955     2.738953e-003      46.126     2.738953e-003      46.126    0.995156   137.955
 1987.5000   0.995120    137.798     2.788410e-003      45.963     2.788410e-003      45.963    0.995120   137.798
 1988.0000   0.995083    137.641     2.838938e-003      45.799     2.838938e-003      45.799    0.995083   137.641
 1988.5000   0.995046    137.482     2.890564e-003      45.633     2.890564e-003      45.633    0.995046   137.482
 1989.0000   0.995008    137.322     2.943317e-003      45.467     2.943317e-003      45.467    0.995008   137.322
 1989.5000   0.994970    137.161     2.997224e-003      45.299     2.997224e-003      45.299    0.994970   137.161
 1990.0000   0.994931    136.998     3.052317e-003      45.130     3.052317e-003      45.130    0.994931   136.998
 1990.5000   0.994892    136.834     3.108625e-003      44.959     3.108625e-003      44.959    0.994892   136.834
 1991.0000   0.994852    136.669     3.166179e-003      44.787     3.166179e-003      44.787    0.994852   136.669
 1991.5000   0.994812    136.503     3.225013e-003      44.614     3.225013e-003      44.614    0.994812   136.503
 1992.0000   0.994771    136.336     3.285160e-003      44.440     3.285160e-003      44.440    0.994771   136.336
 1992.5000   0.994730    136.167     3.346654e-003      44.264     3.346654e-003      44.264    0.994730   136.167
 1993.0000   0.994688    135.996     3.409530e-003      44.087     3.409530e-003      44.087    0.994688   135.996
 1993.5000   0.994646    135.825     3.473824e-003      43.908     3.473824e-003      43.908    0.994646   135.825
 1994.0000   0.994604    135.652     3.539576e-003      43.728     3.539576e-003      43.728    0.994604   135.652
 1994.5000   0.994560    135.478     3.606822e-003      43.546     3.606822e-003      43.546    0.994560   135.478
 1995.0000   0.994516    135.302     3.675604e-003      43.364     3.675604e-003      43.364    0.994516   135.302
 1995.5000   0.994472    135.125     3.745962e-003      43.179     3.745962e-003      43.179    0.994472   135.125
 1996.0000   0.994427    134.946     3.817939e-003      42.993     3.817939e-003      42.993    0.994427   134.946
 1996.5000   0.994381    134.766     3.891578e-003      42.806     3.891578e-003      42.806    0.994381   134.766
 1997.0000   0.994335    134.585     3.966925e-003      42.617     3.966925e-003      42.617    0.994335   134.585
 1997.5000   0.994289    134.402     4.044027e-003      42.426     4.044027e-003      42.426    0.994289   134.402
 1998.0000   0.994241    134.217     4.122930e-003      42.234     4.122930e-003      42.234    0.994241   134.217
 1998.5000   0.994193    134.031     4.203685e-003      42.040     4.203685e-003      42.040    0.994193   134.031
 1999.0000   0.994145    133.844     4.286343e-003      41.845     4.286343e-003      41.845    0.994145   133.844
 1999.5000   0.994095    133.654     4.370957e-003      41.648     4.370957e-003      41.648    0.994095   133.654
 2000.0000   0.994045    133.464     4.457580e-003      41.449     4.457580e-003      41.449    0.994045   133.464
 2000.5000   0.993995    133.271     4.546270e-003      41.249     4.546270e-003      41.249    0.993995   133.271
 2001.0000   0.993943    133.077     4.637083e-003      41.047     4.637083e-003      41.047    0.993943   133.077
 2001.5000   0.993891    132.882     4.730081e-003      40.843     4.730081e-003      40.843    0.993891   132.882
 2002.0000   0.993838    132.684     4.825324e-003      40.638     4.825324e-003      40.638    0.993838   132.684
 2002.5000   0.993785    132.485     4.922877e-003      40.431     4.922877e-003      40.431    0.993785   132.485
 2003.0000   0.993731    132.285     5.022805e-003      40.221     5.022805e-003      40.221    0.993731   132.285
 2003.5000   0.993676    132.082     5.125176e-003      40.011     5.125176e-003      40.011    0.993676   132.082
 2004.0000   0.993620    131.878     5.230061e-003      39.798     5.230061e-003      39.798    0.993620   131.878
 2004.5000   0.993563    131.672     5.337533e-003      39.583     5.337533e-003      39.583    0.993563   131.672
 2005.0000   0.993506    131.464     5.447666e-003      39.367     5.447666e-003      39.367    0.993506   131.464
 2005.5000   0.993447    131.254     5.560539e-003      39.148     5.560539e-003      39.148    0.993447   131.254
 2006.0000   0.993388    131.042     5.676231e-003      38.928     5.676231e-003      38.928    0.993388   131.042
 2006.5000   0.993328    130.829     5.794825e-003      38.705     5.794825e-003      38.705    0.993328   130.829
 2007.0000   0.993267    130.613     5.916408e-003      38.481     5.916408e-003      38.481    0.993267   130.613
 2007.5000   0.993206    130.396     6.041067e-003      38.255     6.041067e-003      38.255    0.993206   130.396
 2008.0000   0.993143    130.177     6.168895e-003      38.026     6.168895e-003      38.026    0.993143   130.177
 2008.5000   0.993079    129.955     6.299986e-003      37.795     6.299986e-003      37.795    0.993079   129.955
 2009.0000   0.993015    129.732     6.434440e-003      37.563     6.434440e-003      37.563    0.993015   129.732
 2009.5000   0.992949    129.506     6.572356e-003      37.328     6.572356e-003      37.328    0.992949   129.506
 2010.0000   0.992883    129.279     6.713842e-003      37.091     6.713842e-003      37.091    0.992883   129.279
 2010.5000   0.992815    129.049     6.859005e-003      36.851     6.859005e-003      36.851    0.992815   129.049
 2011.0000   0.992746    128.817     7.007958e-003      36.610     7.007958e-003      36.610    0.992746   128.817
 2011.5000   0.992677    128.583     7.160818e-003      36.366     7.160818e-003      36.366    0.992677   128.583
 2012.0000   0.992606    128.346     7.317706e-003      36.119     7.317706e-003      36.119    0.992606   128.346
 2012.5000   0.992534    128.108     7.478747e-003      35.871     7.478747e-003      35.871    0.992534   128.108
 2013.0000   0.992461    127.867     7.644070e-003      35.620     7.644070e-003      35.620    0.992461   127.867
 2013.5000   0.992386    127.623     7.813812e-003      35.366     7.813812e-003      35.366    0.992386   127.623
 2014.0000   0.992311    127.378     7.988109e-003      35.110     7.988109e-003      35.110    0.992311   127.378
 2014.5000   0.992234    127.129     8.167108e-003      34.852     8.167108e-003      34.852    0.992234   127.129
 2015.0000   0.992156    126.879     8.350958e-003      34.591     8.350958e-003      34.591    0.992156   126.879
 2015.5000   0.992076    126.626     8.539814e-003      34.327     8.539814e-003      34.327    0.992076   126.626
 2016.0000   0.991996    126.370     8.733836e-003      34.061     8.733836e-003      34.061    0.991996   126.370
 2016.5000   0.991914    126.112     8.933193e-003      33.792     8.933193e-003      33.792    0.991914   126.112
 2017.0000   0.991830    125.851     9.138057e-003      33.520     9.138057e-003      33.520    0.991830   125.851
 2017.5000   0.991745    125.588     9.348609e-003      33.246     9.348609e-003      33.246    0.991745   125.588
 2018.0000   0.991659    125.321     9.565034e-003      32.968     9.565034e-003      32.968    0.991659   125.321
 2018.5000   0.991571    125.052     9.787527e-003      32.688     9.787527e-003      32.688    0.991571   125.052
 2019.0000   0.991482    124.781     1.001629e-002      32.405     1.001629e-002      32.405    0.991482   124.781
 2019.5000   0.991391    124.506     1.025153e-002      32.119     1.025153e-002      32.119    0.991391   124.506
 2020.0000   0.991298    124.229     1.049346e-002      31.830     1.049346e-002      31.830    0.991298   124.229
 2020.5000   0.991204    123.948     1.074231e-002      31.538     1.074231e-002      31.538    0.991204   123.948
 2021.0000   0.991108    123.665     1.099832e-002      31.242     1.099832e-002      31.242    0.991108   123.665
 2021.5000   0.991010    123.378     1.126172e-002      30.944     1.126172e-002      30.944    0.991010   123.378
 2022.0000   0.990910    123.089     1.153278e-002      30.642     1.153278e-002      30.642    0.990910   123.089
 2022.5000   0.990809    122.796     1.181175e-002      30.337     1.181175e-002      30.337    0.990809   122.796
 2023.0000   0.990705    122.500     1.209890e-002      30.029     1.209890e-002      30.029    0.990705   122.500
 2023.5000   0.990600    122.201     1.239453e-002      29.717     1.239453e-002      29.717    0.990600   122.201
 2024.0000   0.990492    121.898     1.269893e-002      29.402     1.269893e-002      29.402    0.990492   121.898
 2024.5000   0.990383    121.592     1.301240e-002      29.083     1.301240e-002      29.083    0.990383   121.592
