!Port 1 is shunt  connected
!Port 2 is shunt  connected
!
!prototype= pole placed tchebycheff
!n=  5,  np= 0,  rl=  22.000dB
!
!transform= band pass
!f0= 2140.000MHz,  bw=  100.000MHz, q0=1050.000
!
!fstart= 1940.000MHz, fstep=    0.500MHz, fstop= 2340.000MHz
!
# MHZ S MA R 50
!Freq        Mag(S11)   Arg(S11)      Mag(S21)        Arg(S21)      Mag(S12)        Arg(S12)    Mag(S22)  Arg(S22)
 1940.0000   0.996939    148.831     6.383479e-004      57.247     6.383479e-004      57.247    0.996939   148.831
 1940.5000   0.996923    148.745     6.470661e-004      57.157     6.470661e-004      57.157    0.996923   148.745
 1941.0000   0.996906    148.658     6.559256e-004      57.066     6.559256e-004      57.066    0.996906   148.658
 1941.5000   0.996889    148.571     6.649293e-004      56.974     6.649293e-004      56.974    0.996889   148.571
 1942.0000   0.996872    148.483     6.740798e-004      56.883     6.740798e-004      56.883    0.996872   148.483
 1942.5000   0.996855    148.394     6.833800e-004      56.790     6.833800e-004      56.790    0.996855   148.394
 1943.0000   0.996838    148.306     6.928326e-004      56.697     6.928326e-004      56.697    0.996838   148.306
 1943.5000   0.996821    148.216     7.024406e-004      56.604     7.024406e-004      56.604    0.996821   148.216
 1944.0000   0.996803    148.127     7.122069e-004      56.510     7.122069e-004      56.510    0.996803   148.127
 1944.5000   0.996786    148.036     7.221346e-004      56.416     7.221346e-004      56.416    0.996786   148.036
 1945.0000   0.996768    147.946     7.322268e-004      56.321     7.322268e-004      56.321    0.996768   147.946
 1945.5000   0.996750    147.854     7.424867e-004      56.225     7.424867e-004      56.225    0.996750   147.854
 1946.0000   0.996732    147.763     7.529175e-004      56.129     7.529175e-004      56.129    0.996732   147.763
 1946.5000   0.996713    147.670     7.635225e-004      56.033     7.635225e-004      56.033    0.996713   147.670
 1947.0000   0.996695    147.578     7.743051e-004      55.936     7.743051e-004      55.936    0.996695   147.578
 1947.5000   0.996676    147.484     7.852689e-004      55.838     7.852689e-004      55.838    0.996676   147.484
 1948.0000   0.996658    147.390     7.964172e-004      55.740     7.964172e-004      55.740    0.996658   147.390
 1948.5000   0.996639    147.296     8.077538e-004      55.641     8.077538e-004      55.641    0.996639   147.296
 1949.0000   0.996620    147.201     8.192823e-004      55.542     8.192823e-004      55.542    0.996620   147.201
 1949.5000   0.996600    147.106     8.310066e-004      55.442     8.310066e-004      55.442    0.996600   147.106
 1950.0000   0.996581    147.010     8.429305e-004      55.341     8.429305e-004      55.341    0.996581   147.010
 1950.5000   0.996561    146.913     8.550580e-004      55.240     8.550580e-004      55.240    0.996561   146.913
 1951.0000   0.996541    146.816     8.673931e-004      55.139     8.673931e-004      55.139    0.996541   146.816
 1951.5000   0.996522    146.718     8.799400e-004      55.037     8.799400e-004      55.037    0.996522   146.718
 1952.0000   0.996501    146.620     8.927028e-004      54.934     8.927028e-004      54.934    0.996501   146.620
 1952.5000   0.996481    146.521     9.056860e-004      54.831     9.056860e-004      54.831    0.996481   146.521
 1953.0000   0.996461    146.422     9.188940e-004      54.727     9.188940e-004      54.727    0.996461   146.422
 1953.5000   0.996440    146.322     9.323313e-004      54.622     9.323313e-004      54.622    0.996440   146.322
 1954.0000   0.996419    146.222     9.460025e-004      54.517     9.460025e-004      54.517    0.996419   146.222
 1954.5000   0.996398    146.120     9.599125e-004      54.411     9.599125e-004      54.411    0.996398   146.120
 1955.0000   0.996377    146.019     9.740660e-004      54.305     9.740660e-004      54.305    0.996377   146.019
 1955.5000   0.996355    145.916     9.884680e-004      54.197     9.884680e-004      54.197    0.996355   145.916
 1956.0000   0.996334    145.813     1.003124e-003      54.090     1.003124e-003      54.090    0.996334   145.813
 1956.5000   0.996312    145.710     1.018038e-003      53.981     1.018038e-003      53.981    0.996312   145.710
 1957.0000   0.996290    145.606     1.033217e-003      53.872     1.033217e-003      53.872    0.996290   145.606
 1957.5000   0.996267    145.501     1.048665e-003      53.763     1.048665e-003      53.763    0.996267   145.501
 1958.0000   0.996245    145.395     1.064389e-003      53.652     1.064389e-003      53.652    0.996245   145.395
 1958.5000   0.996222    145.289     1.080393e-003      53.541     1.080393e-003      53.541    0.996222   145.289
 1959.0000   0.996199    145.183     1.096684e-003      53.430     1.096684e-003      53.430    0.996199   145.183
 1959.5000   0.996176    145.075     1.113268e-003      53.318     1.113268e-003      53.318    0.996176   145.075
 1960.0000   0.996153    144.967     1.130151e-003      53.204     1.130151e-003      53.204    0.996153   144.967
 1960.5000   0.996130    144.859     1.147339e-003      53.091     1.147339e-003      53.091    0.996130   144.859
 1961.0000   0.996106    144.749     1.164839e-003      52.976     1.164839e-003      52.976    0.996106   144.749
 1961.5000   0.996082    144.639     1.182657e-003      52.861     1.182657e-003      52.861    0.996082   144.639
 1962.0000   0.996058    144.529     1.200800e-003      52.745     1.200800e-003      52.745    0.996058   144.529
 1962.5000   0.996033    144.417     1.219275e-003      52.629     1.219275e-003      52.629    0.996033   144.417
 1963.0000   0.996008    144.305     1.238089e-003      52.512     1.238089e-003      52.512    0.996008   144.305
 1963.5000   0.995983    144.193     1.257249e-003      52.394     1.257249e-003      52.394    0.995983   144.193
 1964.0000   0.995958    144.079     1.276763e-003      52.275     1.276763e-003      52.275    0.995958   144.079
 1964.5000   0.995933    143.965     1.296638e-003      52.155     1.296638e-003      52.155    0.995933   143.965
 1965.0000   0.995907    143.850     1.316883e-003      52.035     1.316883e-003      52.035    0.995907   143.850
 1965.5000   0.995881    143.734     1.337504e-003      51.914     1.337504e-003      51.914    0.995881   143.734
 1966.0000   0.995855    143.618     1.358511e-003      51.792     1.358511e-003      51.792    0.995855   143.618
 1966.5000   0.995829    143.501     1.379912e-003      51.670     1.379912e-003      51.670    0.995829   143.501
 1967.0000   0.995802    143.383     1.401715e-003      51.546     1.401715e-003      51.546    0.995802   143.383
 1967.5000   0.995775    143.264     1.423929e-003      51.422     1.423929e-003      51.422    0.995775   143.264
 1968.0000   0.995748    143.145     1.446564e-003      51.297     1.446564e-003      51.297    0.995748   143.145
 1968.5000   0.995720    143.025     1.469628e-003      51.172     1.469628e-003      51.172    0.995720   143.025
 1969.0000   0.995692    142.904     1.493132e-003      51.045     1.493132e-003      51.045    0.995692   142.904
 1969.5000   0.995664    142.782     1.517084e-003      50.918     1.517084e-003      50.918    0.995664   142.782
 1970.0000   0.995636    142.660     1.541495e-003      50.789     1.541495e-003      50.789    0.995636   142.660
 1970.5000   0.995607    142.536     1.566376e-003      50.660     1.566376e-003      50.660    0.995607   142.536
 1971.0000   0.995578    142.412     1.591736e-003      50.531     1.591736e-003      50.531    0.995578   142.412
 1971.5000   0.995549    142.287     1.617587e-003      50.400     1.617587e-003      50.400    0.995549   142.287
 1972.0000   0.995520    142.162     1.643939e-003      50.268     1.643939e-003      50.268    0.995520   142.162
 1972.5000   0.995490    142.035     1.670804e-003      50.136     1.670804e-003      50.136    0.995490   142.035
 1973.0000   0.995459    141.908     1.698194e-003      50.002     1.698194e-003      50.002    0.995459   141.908
 1973.5000   0.995429    141.779     1.726121e-003      49.868     1.726121e-003      49.868    0.995429   141.779
 1974.0000   0.995398    141.650     1.754597e-003      49.733     1.754597e-003      49.733    0.995398   141.650
 1974.5000   0.995367    141.520     1.783634e-003      49.597     1.783634e-003      49.597    0.995367   141.520
 1975.0000   0.995336    141.389     1.813246e-003      49.460     1.813246e-003      49.460    0.995336   141.389
 1975.5000   0.995304    141.257     1.843446e-003      49.322     1.843446e-003      49.322    0.995304   141.257
 1976.0000   0.995272    141.125     1.874248e-003      49.183     1.874248e-003      49.183    0.995272   141.125
 1976.5000   0.995239    140.991     1.905664e-003      49.043     1.905664e-003      49.043    0.995239   140.991
 1977.0000   0.995206    140.856     1.937711e-003      48.902     1.937711e-003      48.902    0.995206   140.856
 1977.5000   0.995173    140.721     1.970403e-003      48.760     1.970403e-003      48.760    0.995173   140.721
 1978.0000   0.995140    140.584     2.003754e-003      48.617     2.003754e-003      48.617    0.995140   140.584
 1978.5000   0.995106    140.447     2.037781e-003      48.473     2.037781e-003      48.473    0.995106   140.447
 1979.0000   0.995071    140.309     2.072500e-003      48.329     2.072500e-003      48.329    0.995071   140.309
 1979.5000   0.995037    140.169     2.107926e-003      48.183     2.107926e-003      48.183    0.995037   140.169
 1980.0000   0.995002    140.029     2.144077e-003      48.036     2.144077e-003      48.036    0.995002   140.029
 1980.5000   0.994966    139.888     2.180971e-003      47.888     2.180971e-003      47.888    0.994966   139.888
 1981.0000   0.994930    139.746     2.218625e-003      47.739     2.218625e-003      47.739    0.994930   139.746
 1981.5000   0.994894    139.602     2.257057e-003      47.589     2.257057e-003      47.589    0.994894   139.602
 1982.0000   0.994857    139.458     2.296286e-003      47.438     2.296286e-003      47.438    0.994857   139.458
 1982.5000   0.994820    139.313     2.336332e-003      47.286     2.336332e-003      47.286    0.994820   139.313
 1983.0000   0.994783    139.166     2.377214e-003      47.132     2.377214e-003      47.132    0.994783   139.166
 1983.5000   0.994745    139.019     2.418954e-003      46.978     2.418954e-003      46.978    0.994745   139.019
 1984.0000   0.994707    138.870     2.461571e-003      46.823     2.461571e-003      46.823    0.994707   138.870
 1984.5000   0.994668    138.720     2.505088e-003      46.666     2.505088e-003      46.666    0.994668   138.720
 1985.0000   0.994629    138.570     2.549527e-003      46.508     2.549527e-003      46.508    0.994629   138.570
 1985.5000   0.994589    138.418     2.594912e-003      46.349     2.594912e-003      46.349    0.994589   138.418
 1986.0000   0.994549    138.265     2.641264e-003      46.189     2.641264e-003      46.189    0.994549   138.265
 1986.5000   0.994508    138.111     2.688609e-003      46.028     2.688609e-003      46.028    0.994508   138.111
 1987.0000   0.994467    137.955     2.736972e-003      45.865     2.736972e-003      45.865    0.994467   137.955
 1987.5000   0.994425    137.799     2.786378e-003      45.701     2.786378e-003      45.701    0.994425   137.799
 1988.0000   0.994383    137.641     2.836853e-003      45.536     2.836853e-003      45.536    0.994383   137.641
 1988.5000   0.994341    137.483     2.888425e-003      45.370     2.888425e-003      45.370    0.994341   137.483
 1989.0000   0.994297    137.323     2.941122e-003      45.202     2.941122e-003      45.202    0.994297   137.323
 1989.5000   0.994254    137.161     2.994973e-003      45.034     2.994973e-003      45.034    0.994254   137.161
 1990.0000   0.994210    136.999     3.050006e-003      44.863     3.050006e-003      44.863    0.994210   136.999
 1990.5000   0.994165    136.835     3.106253e-003      44.692     3.106253e-003      44.692    0.994165   136.835
 1991.0000   0.994120    136.670     3.163746e-003      44.519     3.163746e-003      44.519    0.994120   136.670
 1991.5000   0.994074    136.504     3.222515e-003      44.345     3.222515e-003      44.345    0.994074   136.504
 1992.0000   0.994027    136.336     3.282595e-003      44.170     3.282595e-003      44.170    0.994027   136.336
 1992.5000   0.993980    136.167     3.344020e-003      43.993     3.344020e-003      43.993    0.993980   136.167
 1993.0000   0.993933    135.997     3.406825e-003      43.815     3.406825e-003      43.815    0.993933   135.997
 1993.5000   0.993885    135.826     3.471047e-003      43.635     3.471047e-003      43.635    0.993885   135.826
 1994.0000   0.993836    135.653     3.536724e-003      43.454     3.536724e-003      43.454    0.993836   135.653
 1994.5000   0.993787    135.478     3.603893e-003      43.271     3.603893e-003      43.271    0.993787   135.478
 1995.0000   0.993737    135.303     3.672594e-003      43.087     3.672594e-003      43.087    0.993737   135.303
 1995.5000   0.993686    135.125     3.742870e-003      42.902     3.742870e-003      42.902    0.993686   135.125
 1996.0000   0.993635    134.947     3.814762e-003      42.715     3.814762e-003      42.715    0.993635   134.947
 1996.5000   0.993583    134.767     3.888314e-003      42.526     3.888314e-003      42.526    0.993583   134.767
 1997.0000   0.993530    134.585     3.963570e-003      42.336     3.963570e-003      42.336    0.993530   134.585
 1997.5000   0.993477    134.402     4.040578e-003      42.145     4.040578e-003      42.145    0.993477   134.402
 1998.0000   0.993423    134.218     4.119385e-003      41.951     4.119385e-003      41.951    0.993423   134.218
 1998.5000   0.993368    134.032     4.200041e-003      41.757     4.200041e-003      41.757    0.993368   134.032
 1999.0000   0.993312    133.844     4.282596e-003      41.560     4.282596e-003      41.560    0.993312   133.844
 1999.5000   0.993256    133.655     4.367104e-003      41.362     4.367104e-003      41.362    0.993256   133.655
 2000.0000   0.993199    133.464     4.453617e-003      41.162     4.453617e-003      41.162    0.993199   133.464
 2000.5000   0.993141    133.272     4.542194e-003      40.961     4.542194e-003      40.961    0.993141   133.272
 2001.0000   0.993083    133.078     4.632891e-003      40.758     4.632891e-003      40.758    0.993083   133.078
 2001.5000   0.993023    132.883     4.725767e-003      40.553     4.725767e-003      40.553    0.993023   132.883
 2002.0000   0.992963    132.685     4.820886e-003      40.346     4.820886e-003      40.346    0.992963   132.685
 2002.5000   0.992902    132.486     4.918309e-003      40.138     4.918309e-003      40.138    0.992902   132.486
 2003.0000   0.992840    132.285     5.018104e-003      39.928     5.018104e-003      39.928    0.992840   132.285
 2003.5000   0.992777    132.083     5.120338e-003      39.716     5.120338e-003      39.716    0.992777   132.083
 2004.0000   0.992714    131.879     5.225081e-003      39.502     5.225081e-003      39.502    0.992714   131.879
 2004.5000   0.992649    131.673     5.332405e-003      39.286     5.332405e-003      39.286    0.992649   131.673
 2005.0000   0.992584    131.465     5.442386e-003      39.068     5.442386e-003      39.068    0.992584   131.465
 2005.5000   0.992517    131.255     5.555101e-003      38.848     5.555101e-003      38.848    0.992517   131.255
 2006.0000   0.992450    131.043     5.670630e-003      38.627     5.670630e-003      38.627    0.992450   131.043
 2006.5000   0.992381    130.830     5.789056e-003      38.403     5.789056e-003      38.403    0.992381   130.830
 2007.0000   0.992312    130.614     5.910464e-003      38.177     5.910464e-003      38.177    0.992312   130.614
 2007.5000   0.992242    130.397     6.034942e-003      37.950     6.034942e-003      37.950    0.992242   130.397
 2008.0000   0.992170    130.178     6.162583e-003      37.720     6.162583e-003      37.720    0.992170   130.178
 2008.5000   0.992098    129.956     6.293481e-003      37.488     6.293481e-003      37.488    0.992098   129.956
 2009.0000   0.992024    129.733     6.427734e-003      37.254     6.427734e-003      37.254    0.992024   129.733
 2009.5000   0.991949    129.507     6.565443e-003      37.018     6.565443e-003      37.018    0.991949   129.507
 2010.0000   0.991873    129.280     6.706714e-003      36.779     6.706714e-003      36.779    0.991873   129.280
 2010.5000   0.991796    129.050     6.851654e-003      36.538     6.851654e-003      36.538    0.991796   129.050
 2011.0000   0.991718    128.818     7.000376e-003      36.295     7.000376e-003      36.295    0.991718   128.818
 2011.5000   0.991639    128.584     7.152996e-003      36.050     7.152996e-003      36.050    0.991639   128.584
 2012.0000   0.991558    128.347     7.309636e-003      35.802     7.309636e-003      35.802    0.991558   128.347
 2012.5000   0.991476    128.109     7.470420e-003      35.552     7.470420e-003      35.552    0.991476   128.109
 2013.0000   0.991393    127.868     7.635477e-003      35.300     7.635477e-003      35.300    0.991393   127.868
 2013.5000   0.991308    127.624     7.804942e-003      35.045     7.804942e-003      35.045    0.991308   127.624
 2014.0000   0.991222    127.379     7.978953e-003      34.788     7.978953e-003      34.788    0.991222   127.379
 2014.5000   0.991134    127.131     8.157654e-003      34.528     8.157654e-003      34.528    0.991134   127.131
 2015.0000   0.991046    126.880     8.341195e-003      34.265     8.341195e-003      34.265    0.991046   126.880
 2015.5000   0.990955    126.627     8.529730e-003      34.000     8.529730e-003      34.000    0.990955   126.627
 2016.0000   0.990863    126.371     8.723420e-003      33.732     8.723420e-003      33.732    0.990863   126.371
 2016.5000   0.990770    126.113     8.922431e-003      33.462     8.922431e-003      33.462    0.990770   126.113
 2017.0000   0.990675    125.852     9.126936e-003      33.188     9.126936e-003      33.188    0.990675   125.852
 2017.5000   0.990578    125.589     9.337115e-003      32.912     9.337115e-003      32.912    0.990578   125.589
 2018.0000   0.990480    125.323     9.553152e-003      32.634     9.553152e-003      32.634    0.990480   125.323
 2018.5000   0.990380    125.054     9.775242e-003      32.352     9.775242e-003      32.352    0.990380   125.054
 2019.0000   0.990278    124.782     1.000359e-002      32.067     1.000359e-002      32.067    0.990278   124.782
 2019.5000   0.990175    124.508     1.023839e-002      31.779     1.023839e-002      31.779    0.990175   124.508
 2020.0000   0.990069    124.230     1.047987e-002      31.489     1.047987e-002      31.489    0.990069   124.230
 2020.5000   0.989962    123.950     1.072825e-002      31.195     1.072825e-002      31.195    0.989962   123.950
 2021.0000   0.989853    123.666     1.098377e-002      30.898     1.098377e-002      30.898    0.989853   123.666
 2021.5000   0.989742    123.380     1.124667e-002      30.598     1.124667e-002      30.598    0.989742   123.380
 2022.0000   0.989628    123.090     1.151719e-002      30.294     1.151719e-002      30.294    0.989628   123.090
 2022.5000   0.989513    122.798     1.179561e-002      29.987     1.179561e-002      29.987    0.989513   122.798
 2023.0000   0.989395    122.502     1.208219e-002      29.677     1.208219e-002      29.677    0.989395   122.502
 2023.5000   0.989276    122.203     1.237722e-002      29.364     1.237722e-002      29.364    0.989276   122.203
 2024.0000   0.989153    121.900     1.268099e-002      29.047     1.268099e-002      29.047    0.989153   121.900
 2024.5000   0.989029    121.594     1.299381e-002      28.726     1.299381e-002      28.726    0.989029   121.594
