!Port 1 is shunt  connected
!Port 2 is shunt  connected
!
!prototype= pole placed tchebycheff
!n=  5,  np= 0,  rl=  22.000dB
!
!transform= band pass
!f0= 2140.000MHz,  bw=  100.000MHz, q0=1100.000
!
!fstart= 1940.000MHz, fstep=    0.500MHz, fstop= 2340.000MHz
!
# MHZ S MA R 50
!Freq        Mag(S11)   Arg(S11)      Mag(S21)        Arg(S21)      Mag(S12)        Arg(S12)    Mag(S22)  Arg(S22)
 1940.0000   0.997078    148.831     6.384408e-004      57.319     6.384408e-004      57.319    0.997078   148.831
 1940.5000   0.997062    148.745     6.471608e-004      57.229     6.471608e-004      57.229    0.997062   148.745
 1941.0000   0.997047    148.658     6.560222e-004      57.138     6.560222e-004      57.138    0.997047   148.658
 1941.5000   0.997031    148.570     6.650277e-004      57.047     6.650277e-004      57.047    0.997031   148.570
 1942.0000   0.997014    148.483     6.741801e-004      56.955     6.741801e-004      56.955    0.997014   148.483
 1942.5000   0.996998    148.394     6.834822e-004      56.863     6.834822e-004      56.863    0.996998   148.394
 1943.0000   0.996982    148.306     6.929368e-004      56.770     6.929368e-004      56.770    0.996982   148.306
 1943.5000   0.996965    148.216     7.025468e-004      56.677     7.025468e-004      56.677    0.996965   148.216
 1944.0000   0.996948    148.127     7.123152e-004      56.583     7.123152e-004      56.583    0.996948   148.127
 1944.5000   0.996931    148.036     7.222450e-004      56.489     7.222450e-004      56.489    0.996931   148.036
 1945.0000   0.996914    147.946     7.323394e-004      56.394     7.323394e-004      56.394    0.996914   147.946
 1945.5000   0.996897    147.854     7.426015e-004      56.299     7.426015e-004      56.299    0.996897   147.854
 1946.0000   0.996880    147.763     7.530346e-004      56.203     7.530346e-004      56.203    0.996880   147.763
 1946.5000   0.996863    147.670     7.636419e-004      56.107     7.636419e-004      56.107    0.996863   147.670
 1947.0000   0.996845    147.577     7.744269e-004      56.010     7.744269e-004      56.010    0.996845   147.577
 1947.5000   0.996827    147.484     7.853930e-004      55.913     7.853930e-004      55.913    0.996827   147.484
 1948.0000   0.996809    147.390     7.965439e-004      55.815     7.965439e-004      55.815    0.996809   147.390
 1948.5000   0.996791    147.296     8.078830e-004      55.716     8.078830e-004      55.716    0.996791   147.296
 1949.0000   0.996773    147.201     8.194141e-004      55.617     8.194141e-004      55.617    0.996773   147.201
 1949.5000   0.996755    147.106     8.311411e-004      55.517     8.311411e-004      55.517    0.996755   147.106
 1950.0000   0.996736    147.010     8.430677e-004      55.417     8.430677e-004      55.417    0.996736   147.010
 1950.5000   0.996717    146.913     8.551979e-004      55.316     8.551979e-004      55.316    0.996717   146.913
 1951.0000   0.996698    146.816     8.675359e-004      55.215     8.675359e-004      55.215    0.996698   146.816
 1951.5000   0.996679    146.718     8.800856e-004      55.113     8.800856e-004      55.113    0.996679   146.718
 1952.0000   0.996660    146.620     8.928515e-004      55.010     8.928515e-004      55.010    0.996660   146.620
 1952.5000   0.996641    146.521     9.058377e-004      54.907     9.058377e-004      54.907    0.996641   146.521
 1953.0000   0.996621    146.422     9.190488e-004      54.804     9.190488e-004      54.804    0.996621   146.422
 1953.5000   0.996601    146.322     9.324893e-004      54.699     9.324893e-004      54.699    0.996601   146.322
 1954.0000   0.996582    146.221     9.461638e-004      54.594     9.461638e-004      54.594    0.996582   146.221
 1954.5000   0.996561    146.120     9.600770e-004      54.489     9.600770e-004      54.489    0.996561   146.120
 1955.0000   0.996541    146.019     9.742339e-004      54.382     9.742339e-004      54.382    0.996541   146.019
 1955.5000   0.996521    145.916     9.886395e-004      54.275     9.886395e-004      54.275    0.996521   145.916
 1956.0000   0.996500    145.813     1.003299e-003      54.168     1.003299e-003      54.168    0.996500   145.813
 1956.5000   0.996479    145.710     1.018217e-003      54.060     1.018217e-003      54.060    0.996479   145.710
 1957.0000   0.996458    145.606     1.033399e-003      53.951     1.033399e-003      53.951    0.996458   145.606
 1957.5000   0.996437    145.501     1.048851e-003      53.842     1.048851e-003      53.842    0.996437   145.501
 1958.0000   0.996415    145.395     1.064579e-003      53.732     1.064579e-003      53.732    0.996415   145.395
 1958.5000   0.996394    145.289     1.080587e-003      53.621     1.080587e-003      53.621    0.996394   145.289
 1959.0000   0.996372    145.183     1.096883e-003      53.509     1.096883e-003      53.509    0.996372   145.183
 1959.5000   0.996350    145.075     1.113471e-003      53.397     1.113471e-003      53.397    0.996350   145.075
 1960.0000   0.996328    144.967     1.130358e-003      53.284     1.130358e-003      53.284    0.996328   144.967
 1960.5000   0.996305    144.859     1.147551e-003      53.171     1.147551e-003      53.171    0.996305   144.859
 1961.0000   0.996282    144.749     1.165055e-003      53.057     1.165055e-003      53.057    0.996282   144.749
 1961.5000   0.996259    144.639     1.182877e-003      52.942     1.182877e-003      52.942    0.996259   144.639
 1962.0000   0.996236    144.529     1.201025e-003      52.826     1.201025e-003      52.826    0.996236   144.529
 1962.5000   0.996213    144.417     1.219505e-003      52.710     1.219505e-003      52.710    0.996213   144.417
 1963.0000   0.996189    144.305     1.238324e-003      52.593     1.238324e-003      52.593    0.996189   144.305
 1963.5000   0.996166    144.192     1.257489e-003      52.475     1.257489e-003      52.475    0.996166   144.192
 1964.0000   0.996142    144.079     1.277009e-003      52.357     1.277009e-003      52.357    0.996142   144.079
 1964.5000   0.996117    143.965     1.296889e-003      52.238     1.296889e-003      52.238    0.996117   143.965
 1965.0000   0.996093    143.850     1.317139e-003      52.117     1.317139e-003      52.117    0.996093   143.850
 1965.5000   0.996068    143.734     1.337766e-003      51.997     1.337766e-003      51.997    0.996068   143.734
 1966.0000   0.996043    143.618     1.358779e-003      51.875     1.358779e-003      51.875    0.996043   143.618
 1966.5000   0.996018    143.501     1.380186e-003      51.753     1.380186e-003      51.753    0.996018   143.501
 1967.0000   0.995992    143.383     1.401995e-003      51.630     1.401995e-003      51.630    0.995992   143.383
 1967.5000   0.995967    143.264     1.424216e-003      51.506     1.424216e-003      51.506    0.995967   143.264
 1968.0000   0.995941    143.145     1.446857e-003      51.381     1.446857e-003      51.381    0.995941   143.145
 1968.5000   0.995914    143.025     1.469928e-003      51.256     1.469928e-003      51.256    0.995914   143.025
 1969.0000   0.995888    142.904     1.493438e-003      51.129     1.493438e-003      51.129    0.995888   142.904
 1969.5000   0.995861    142.782     1.517397e-003      51.002     1.517397e-003      51.002    0.995861   142.782
 1970.0000   0.995834    142.660     1.541816e-003      50.874     1.541816e-003      50.874    0.995834   142.660
 1970.5000   0.995806    142.536     1.566703e-003      50.746     1.566703e-003      50.746    0.995806   142.536
 1971.0000   0.995779    142.412     1.592071e-003      50.616     1.592071e-003      50.616    0.995779   142.412
 1971.5000   0.995751    142.287     1.617929e-003      50.485     1.617929e-003      50.485    0.995751   142.287
 1972.0000   0.995723    142.161     1.644290e-003      50.354     1.644290e-003      50.354    0.995723   142.161
 1972.5000   0.995694    142.035     1.671163e-003      50.222     1.671163e-003      50.222    0.995694   142.035
 1973.0000   0.995665    141.907     1.698562e-003      50.089     1.698562e-003      50.089    0.995665   141.907
 1973.5000   0.995636    141.779     1.726497e-003      49.955     1.726497e-003      49.955    0.995636   141.779
 1974.0000   0.995607    141.650     1.754982e-003      49.820     1.754982e-003      49.820    0.995607   141.650
 1974.5000   0.995577    141.520     1.784028e-003      49.684     1.784028e-003      49.684    0.995577   141.520
 1975.0000   0.995547    141.389     1.813649e-003      49.547     1.813649e-003      49.547    0.995547   141.389
 1975.5000   0.995517    141.257     1.843859e-003      49.409     1.843859e-003      49.409    0.995517   141.257
 1976.0000   0.995486    141.124     1.874670e-003      49.271     1.874670e-003      49.271    0.995486   141.124
 1976.5000   0.995455    140.991     1.906097e-003      49.131     1.906097e-003      49.131    0.995455   140.991
 1977.0000   0.995424    140.856     1.938154e-003      48.991     1.938154e-003      48.991    0.995424   140.856
 1977.5000   0.995392    140.721     1.970856e-003      48.849     1.970856e-003      48.849    0.995392   140.721
 1978.0000   0.995360    140.584     2.004218e-003      48.706     2.004218e-003      48.706    0.995360   140.584
 1978.5000   0.995327    140.447     2.038256e-003      48.563     2.038256e-003      48.563    0.995327   140.447
 1979.0000   0.995295    140.309     2.072986e-003      48.418     2.072986e-003      48.418    0.995295   140.309
 1979.5000   0.995262    140.169     2.108425e-003      48.273     2.108425e-003      48.273    0.995262   140.169
 1980.0000   0.995228    140.029     2.144588e-003      48.126     2.144588e-003      48.126    0.995228   140.029
 1980.5000   0.995194    139.888     2.181494e-003      47.979     2.181494e-003      47.979    0.995194   139.888
 1981.0000   0.995160    139.745     2.219160e-003      47.830     2.219160e-003      47.830    0.995160   139.745
 1981.5000   0.995125    139.602     2.257605e-003      47.680     2.257605e-003      47.680    0.995125   139.602
 1982.0000   0.995090    139.458     2.296848e-003      47.530     2.296848e-003      47.530    0.995090   139.458
 1982.5000   0.995055    139.312     2.336908e-003      47.378     2.336908e-003      47.378    0.995055   139.312
 1983.0000   0.995019    139.166     2.377805e-003      47.225     2.377805e-003      47.225    0.995019   139.166
 1983.5000   0.994983    139.018     2.419559e-003      47.071     2.419559e-003      47.071    0.994983   139.018
 1984.0000   0.994946    138.870     2.462192e-003      46.915     2.462192e-003      46.915    0.994946   138.870
 1984.5000   0.994909    138.720     2.505725e-003      46.759     2.505725e-003      46.759    0.994909   138.720
 1985.0000   0.994872    138.569     2.550180e-003      46.602     2.550180e-003      46.602    0.994872   138.569
 1985.5000   0.994834    138.418     2.595580e-003      46.443     2.595580e-003      46.443    0.994834   138.418
 1986.0000   0.994796    138.265     2.641950e-003      46.283     2.641950e-003      46.283    0.994796   138.265
 1986.5000   0.994757    138.110     2.689313e-003      46.122     2.689313e-003      46.122    0.994757   138.110
 1987.0000   0.994718    137.955     2.737693e-003      45.960     2.737693e-003      45.960    0.994718   137.955
 1987.5000   0.994678    137.799     2.787118e-003      45.796     2.787118e-003      45.796    0.994678   137.799
 1988.0000   0.994638    137.641     2.837612e-003      45.632     2.837612e-003      45.632    0.994638   137.641
 1988.5000   0.994597    137.482     2.889204e-003      45.466     2.889204e-003      45.466    0.994597   137.482
 1989.0000   0.994556    137.322     2.941922e-003      45.298     2.941922e-003      45.298    0.994556   137.322
 1989.5000   0.994514    137.161     2.995793e-003      45.130     2.995793e-003      45.130    0.994514   137.161
 1990.0000   0.994472    136.999     3.050848e-003      44.960     3.050848e-003      44.960    0.994472   136.999
 1990.5000   0.994429    136.835     3.107117e-003      44.789     3.107117e-003      44.789    0.994429   136.835
 1991.0000   0.994386    136.670     3.164632e-003      44.617     3.164632e-003      44.617    0.994386   136.670
 1991.5000   0.994342    136.504     3.223425e-003      44.443     3.223425e-003      44.443    0.994342   136.504
 1992.0000   0.994298    136.336     3.283529e-003      44.268     3.283529e-003      44.268    0.994298   136.336
 1992.5000   0.994253    136.167     3.344979e-003      44.091     3.344979e-003      44.091    0.994253   136.167
 1993.0000   0.994208    135.997     3.407810e-003      43.914     3.407810e-003      43.914    0.994208   135.997
 1993.5000   0.994162    135.825     3.472059e-003      43.734     3.472059e-003      43.734    0.994162   135.825
 1994.0000   0.994115    135.652     3.537762e-003      43.554     3.537762e-003      43.554    0.994115   135.652
 1994.5000   0.994068    135.478     3.604960e-003      43.371     3.604960e-003      43.371    0.994068   135.478
 1995.0000   0.994020    135.302     3.673691e-003      43.188     3.673691e-003      43.188    0.994020   135.302
 1995.5000   0.993972    135.125     3.743996e-003      43.003     3.743996e-003      43.003    0.993972   135.125
 1996.0000   0.993923    134.947     3.815919e-003      42.816     3.815919e-003      42.816    0.993923   134.947
 1996.5000   0.993873    134.767     3.889503e-003      42.628     3.889503e-003      42.628    0.993873   134.767
 1997.0000   0.993823    134.585     3.964792e-003      42.438     3.964792e-003      42.438    0.993823   134.585
 1997.5000   0.993772    134.402     4.041834e-003      42.247     4.041834e-003      42.247    0.993772   134.402
 1998.0000   0.993720    134.218     4.120676e-003      42.054     4.120676e-003      42.054    0.993720   134.218
 1998.5000   0.993668    134.032     4.201368e-003      41.860     4.201368e-003      41.860    0.993668   134.032
 1999.0000   0.993615    133.844     4.283961e-003      41.664     4.283961e-003      41.664    0.993615   133.844
 1999.5000   0.993561    133.655     4.368507e-003      41.466     4.368507e-003      41.466    0.993561   133.655
 2000.0000   0.993507    133.464     4.455061e-003      41.267     4.455061e-003      41.267    0.993507   133.464
 2000.5000   0.993451    133.272     4.543678e-003      41.066     4.543678e-003      41.066    0.993451   133.272
 2001.0000   0.993396    133.078     4.634417e-003      40.863     4.634417e-003      40.863    0.993396   133.078
 2001.5000   0.993339    132.882     4.727338e-003      40.659     4.727338e-003      40.659    0.993339   132.882
 2002.0000   0.993281    132.685     4.822502e-003      40.452     4.822502e-003      40.452    0.993281   132.685
 2002.5000   0.993223    132.486     4.919973e-003      40.244     4.919973e-003      40.244    0.993223   132.486
 2003.0000   0.993164    132.285     5.019816e-003      40.034     5.019816e-003      40.034    0.993164   132.285
 2003.5000   0.993104    132.083     5.122100e-003      39.823     5.122100e-003      39.823    0.993104   132.083
 2004.0000   0.993043    131.878     5.226894e-003      39.609     5.226894e-003      39.609    0.993043   131.878
 2004.5000   0.992981    131.672     5.334273e-003      39.394     5.334273e-003      39.394    0.992981   131.672
 2005.0000   0.992919    131.464     5.444309e-003      39.177     5.444309e-003      39.177    0.992919   131.464
 2005.5000   0.992855    131.255     5.557081e-003      38.957     5.557081e-003      38.957    0.992855   131.255
 2006.0000   0.992791    131.043     5.672670e-003      38.736     5.672670e-003      38.736    0.992791   131.043
 2006.5000   0.992726    130.830     5.791157e-003      38.513     5.791157e-003      38.513    0.992726   130.830
 2007.0000   0.992659    130.614     5.912628e-003      38.288     5.912628e-003      38.288    0.992659   130.614
 2007.5000   0.992592    130.397     6.037173e-003      38.061     6.037173e-003      38.061    0.992592   130.397
 2008.0000   0.992524    130.177     6.164882e-003      37.831     6.164882e-003      37.831    0.992524   130.177
 2008.5000   0.992455    129.956     6.295850e-003      37.600     6.295850e-003      37.600    0.992455   129.956
 2009.0000   0.992384    129.732     6.430176e-003      37.366     6.430176e-003      37.366    0.992384   129.732
 2009.5000   0.992313    129.507     6.567961e-003      37.130     6.567961e-003      37.130    0.992313   129.507
 2010.0000   0.992240    129.279     6.709309e-003      36.892     6.709309e-003      36.892    0.992240   129.279
 2010.5000   0.992167    129.049     6.854331e-003      36.652     6.854331e-003      36.652    0.992167   129.049
 2011.0000   0.992092    128.817     7.003137e-003      36.410     7.003137e-003      36.410    0.992092   128.817
 2011.5000   0.992016    128.583     7.155845e-003      36.165     7.155845e-003      36.165    0.992016   128.583
 2012.0000   0.991939    128.347     7.312575e-003      35.918     7.312575e-003      35.918    0.991939   128.347
 2012.5000   0.991860    128.108     7.473452e-003      35.668     7.473452e-003      35.668    0.991860   128.108
 2013.0000   0.991781    127.867     7.638607e-003      35.416     7.638607e-003      35.416    0.991781   127.867
 2013.5000   0.991700    127.624     7.808172e-003      35.162     7.808172e-003      35.162    0.991700   127.624
 2014.0000   0.991618    127.378     7.982287e-003      34.905     7.982287e-003      34.905    0.991618   127.378
 2014.5000   0.991534    127.130     8.161097e-003      34.646     8.161097e-003      34.646    0.991534   127.130
 2015.0000   0.991449    126.880     8.344750e-003      34.384     8.344750e-003      34.384    0.991449   126.880
 2015.5000   0.991363    126.627     8.533402e-003      34.119     8.533402e-003      34.119    0.991363   126.627
 2016.0000   0.991275    126.371     8.727213e-003      33.852     8.727213e-003      33.852    0.991275   126.371
 2016.5000   0.991186    126.113     8.926350e-003      33.582     8.926350e-003      33.582    0.991186   126.113
 2017.0000   0.991095    125.852     9.130986e-003      33.309     9.130986e-003      33.309    0.991095   125.852
 2017.5000   0.991003    125.588     9.341300e-003      33.034     9.341300e-003      33.034    0.991003   125.588
 2018.0000   0.990909    125.322     9.557479e-003      32.755     9.557479e-003      32.755    0.990909   125.322
 2018.5000   0.990813    125.053     9.779716e-003      32.474     9.779716e-003      32.474    0.990813   125.053
 2019.0000   0.990716    124.782     1.000821e-002      32.190     1.000821e-002      32.190    0.990716   124.782
 2019.5000   0.990617    124.507     1.024317e-002      31.903     1.024317e-002      31.903    0.990617   124.507
 2020.0000   0.990516    124.230     1.048482e-002      31.613     1.048482e-002      31.613    0.990516   124.230
 2020.5000   0.990413    123.949     1.073337e-002      31.319     1.073337e-002      31.319    0.990413   123.949
 2021.0000   0.990309    123.666     1.098907e-002      31.023     1.098907e-002      31.023    0.990309   123.666
 2021.5000   0.990203    123.379     1.125215e-002      30.724     1.125215e-002      30.724    0.990203   123.379
 2022.0000   0.990094    123.090     1.152287e-002      30.421     1.152287e-002      30.421    0.990094   123.090
 2022.5000   0.989984    122.797     1.180148e-002      30.115     1.180148e-002      30.115    0.989984   122.797
 2023.0000   0.989871    122.501     1.208827e-002      29.805     1.208827e-002      29.805    0.989871   122.501
 2023.5000   0.989757    122.202     1.238352e-002      29.492     1.238352e-002      29.492    0.989757   122.202
 2024.0000   0.989640    121.899     1.268752e-002      29.176     1.268752e-002      29.176    0.989640   121.899
 2024.5000   0.989521    121.594     1.300058e-002      28.856     1.300058e-002      28.856    0.989521   121.594
