!Port 1 is shunt  connected
!Port 2 is shunt  connected
!
!prototype= pole placed tchebycheff
!n=  5,  np= 0,  rl=  22.000dB
!
!transform= band pass
!f0= 2140.000MHz,  bw=  100.000MHz, q0=1000.000
!
!fstart= 1940.000MHz, fstep=    0.500MHz, fstop= 2340.000MHz
!
# MHZ S MA R 50
!Freq        Mag(S11)   Arg(S11)      Mag(S21)        Arg(S21)      Mag(S12)        Arg(S12)    Mag(S22)  Arg(S22)
 1940.0000   0.996787    148.831     6.382455e-004      57.168     6.382455e-004      57.168    0.996787   148.831
 1940.5000   0.996769    148.745     6.469616e-004      57.077     6.469616e-004      57.077    0.996769   148.745
 1941.0000   0.996752    148.658     6.558192e-004      56.986     6.558192e-004      56.986    0.996752   148.658
 1941.5000   0.996734    148.571     6.648209e-004      56.895     6.648209e-004      56.895    0.996734   148.571
 1942.0000   0.996716    148.483     6.739693e-004      56.803     6.739693e-004      56.803    0.996716   148.483
 1942.5000   0.996698    148.395     6.832673e-004      56.710     6.832673e-004      56.710    0.996698   148.395
 1943.0000   0.996680    148.306     6.927177e-004      56.617     6.927177e-004      56.617    0.996680   148.306
 1943.5000   0.996662    148.216     7.023234e-004      56.523     7.023234e-004      56.523    0.996662   148.216
 1944.0000   0.996644    148.127     7.120875e-004      56.429     7.120875e-004      56.429    0.996644   148.127
 1944.5000   0.996625    148.036     7.220129e-004      56.335     7.220129e-004      56.335    0.996625   148.036
 1945.0000   0.996606    147.946     7.321027e-004      56.240     7.321027e-004      56.240    0.996606   147.946
 1945.5000   0.996588    147.854     7.423601e-004      56.144     7.423601e-004      56.144    0.996588   147.854
 1946.0000   0.996569    147.763     7.527884e-004      56.048     7.527884e-004      56.048    0.996569   147.763
 1946.5000   0.996549    147.670     7.633909e-004      55.951     7.633909e-004      55.951    0.996549   147.670
 1947.0000   0.996530    147.578     7.741709e-004      55.854     7.741709e-004      55.854    0.996530   147.578
 1947.5000   0.996510    147.484     7.851320e-004      55.756     7.851320e-004      55.756    0.996510   147.484
 1948.0000   0.996491    147.391     7.962776e-004      55.657     7.962776e-004      55.657    0.996491   147.391
 1948.5000   0.996471    147.296     8.076114e-004      55.558     8.076114e-004      55.558    0.996471   147.296
 1949.0000   0.996451    147.201     8.191371e-004      55.459     8.191371e-004      55.459    0.996451   147.201
 1949.5000   0.996431    147.106     8.308585e-004      55.359     8.308585e-004      55.359    0.996431   147.106
 1950.0000   0.996410    147.010     8.427794e-004      55.258     8.427794e-004      55.258    0.996410   147.010
 1950.5000   0.996390    146.913     8.549038e-004      55.157     8.549038e-004      55.157    0.996390   146.913
 1951.0000   0.996369    146.816     8.672358e-004      55.055     8.672358e-004      55.055    0.996369   146.816
 1951.5000   0.996348    146.718     8.797794e-004      54.953     8.797794e-004      54.953    0.996348   146.718
 1952.0000   0.996327    146.620     8.925390e-004      54.850     8.925390e-004      54.850    0.996327   146.620
 1952.5000   0.996306    146.521     9.055189e-004      54.746     9.055189e-004      54.746    0.996306   146.521
 1953.0000   0.996284    146.422     9.187234e-004      54.642     9.187234e-004      54.642    0.996284   146.422
 1953.5000   0.996262    146.322     9.321572e-004      54.537     9.321572e-004      54.537    0.996262   146.322
 1954.0000   0.996240    146.222     9.458248e-004      54.432     9.458248e-004      54.432    0.996240   146.222
 1954.5000   0.996218    146.121     9.597311e-004      54.326     9.597311e-004      54.326    0.996218   146.121
 1955.0000   0.996196    146.019     9.738808e-004      54.219     9.738808e-004      54.219    0.996196   146.019
 1955.5000   0.996173    145.916     9.882790e-004      54.112     9.882790e-004      54.112    0.996173   145.916
 1956.0000   0.996151    145.814     1.002931e-003      54.004     1.002931e-003      54.004    0.996151   145.814
 1956.5000   0.996128    145.710     1.017841e-003      53.895     1.017841e-003      53.895    0.996128   145.710
 1957.0000   0.996105    145.606     1.033016e-003      53.786     1.033016e-003      53.786    0.996105   145.606
 1957.5000   0.996081    145.501     1.048460e-003      53.676     1.048460e-003      53.676    0.996081   145.501
 1958.0000   0.996058    145.396     1.064179e-003      53.565     1.064179e-003      53.565    0.996058   145.396
 1958.5000   0.996034    145.290     1.080179e-003      53.454     1.080179e-003      53.454    0.996034   145.290
 1959.0000   0.996010    145.183     1.096465e-003      53.342     1.096465e-003      53.342    0.996010   145.183
 1959.5000   0.995986    145.076     1.113045e-003      53.230     1.113045e-003      53.230    0.995986   145.076
 1960.0000   0.995961    144.968     1.129923e-003      53.116     1.129923e-003      53.116    0.995961   144.968
 1960.5000   0.995936    144.859     1.147106e-003      53.003     1.147106e-003      53.003    0.995936   144.859
 1961.0000   0.995911    144.750     1.164601e-003      52.888     1.164601e-003      52.888    0.995911   144.750
 1961.5000   0.995886    144.640     1.182414e-003      52.772     1.182414e-003      52.772    0.995886   144.640
 1962.0000   0.995861    144.529     1.200552e-003      52.656     1.200552e-003      52.656    0.995861   144.529
 1962.5000   0.995835    144.417     1.219021e-003      52.540     1.219021e-003      52.540    0.995835   144.417
 1963.0000   0.995809    144.305     1.237829e-003      52.422     1.237829e-003      52.422    0.995809   144.305
 1963.5000   0.995783    144.193     1.256984e-003      52.304     1.256984e-003      52.304    0.995783   144.193
 1964.0000   0.995757    144.079     1.276492e-003      52.185     1.276492e-003      52.185    0.995757   144.079
 1964.5000   0.995730    143.965     1.296361e-003      52.065     1.296361e-003      52.065    0.995730   143.965
 1965.0000   0.995703    143.850     1.316600e-003      51.945     1.316600e-003      51.945    0.995703   143.850
 1965.5000   0.995676    143.735     1.337215e-003      51.823     1.337215e-003      51.823    0.995676   143.735
 1966.0000   0.995648    143.618     1.358216e-003      51.701     1.358216e-003      51.701    0.995648   143.618
 1966.5000   0.995621    143.501     1.379610e-003      51.578     1.379610e-003      51.578    0.995621   143.501
 1967.0000   0.995593    143.383     1.401406e-003      51.455     1.401406e-003      51.455    0.995593   143.383
 1967.5000   0.995564    143.265     1.423614e-003      51.330     1.423614e-003      51.330    0.995564   143.265
 1968.0000   0.995536    143.145     1.446241e-003      51.205     1.446241e-003      51.205    0.995536   143.145
 1968.5000   0.995507    143.025     1.469298e-003      51.079     1.469298e-003      51.079    0.995507   143.025
 1969.0000   0.995478    142.904     1.492794e-003      50.952     1.492794e-003      50.952    0.995478   142.904
 1969.5000   0.995448    142.782     1.516739e-003      50.825     1.516739e-003      50.825    0.995448   142.782
 1970.0000   0.995418    142.660     1.541142e-003      50.696     1.541142e-003      50.696    0.995418   142.660
 1970.5000   0.995388    142.537     1.566015e-003      50.567     1.566015e-003      50.567    0.995388   142.537
 1971.0000   0.995358    142.413     1.591367e-003      50.437     1.591367e-003      50.437    0.995358   142.413
 1971.5000   0.995327    142.288     1.617209e-003      50.306     1.617209e-003      50.306    0.995327   142.288
 1972.0000   0.995296    142.162     1.643552e-003      50.174     1.643552e-003      50.174    0.995296   142.162
 1972.5000   0.995265    142.035     1.670409e-003      50.041     1.670409e-003      50.041    0.995265   142.035
 1973.0000   0.995233    141.908     1.697790e-003      49.907     1.697790e-003      49.907    0.995233   141.908
 1973.5000   0.995201    141.779     1.725707e-003      49.773     1.725707e-003      49.773    0.995201   141.779
 1974.0000   0.995169    141.650     1.754173e-003      49.637     1.754173e-003      49.637    0.995169   141.650
 1974.5000   0.995136    141.520     1.783201e-003      49.501     1.783201e-003      49.501    0.995136   141.520
 1975.0000   0.995103    141.389     1.812802e-003      49.363     1.812802e-003      49.363    0.995103   141.389
 1975.5000   0.995070    141.257     1.842992e-003      49.225     1.842992e-003      49.225    0.995070   141.257
 1976.0000   0.995036    141.125     1.873782e-003      49.086     1.873782e-003      49.086    0.995036   141.125
 1976.5000   0.995002    140.991     1.905188e-003      48.946     1.905188e-003      48.946    0.995002   140.991
 1977.0000   0.994967    140.857     1.937224e-003      48.804     1.937224e-003      48.804    0.994967   140.857
 1977.5000   0.994933    140.721     1.969904e-003      48.662     1.969904e-003      48.662    0.994933   140.721
 1978.0000   0.994897    140.585     2.003243e-003      48.519     2.003243e-003      48.519    0.994897   140.585
 1978.5000   0.994862    140.447     2.037258e-003      48.375     2.037258e-003      48.375    0.994862   140.447
 1979.0000   0.994826    140.309     2.071964e-003      48.230     2.071964e-003      48.230    0.994826   140.309
 1979.5000   0.994789    140.170     2.107377e-003      48.084     2.107377e-003      48.084    0.994789   140.170
 1980.0000   0.994752    140.029     2.143515e-003      47.936     2.143515e-003      47.936    0.994752   140.029
 1980.5000   0.994715    139.888     2.180395e-003      47.788     2.180395e-003      47.788    0.994715   139.888
 1981.0000   0.994678    139.746     2.218034e-003      47.639     2.218034e-003      47.639    0.994678   139.746
 1981.5000   0.994640    139.602     2.256452e-003      47.489     2.256452e-003      47.489    0.994640   139.602
 1982.0000   0.994601    139.458     2.295666e-003      47.337     2.295666e-003      47.337    0.994601   139.458
 1982.5000   0.994562    139.313     2.335696e-003      47.185     2.335696e-003      47.185    0.994562   139.313
 1983.0000   0.994523    139.166     2.376563e-003      47.031     2.376563e-003      47.031    0.994523   139.166
 1983.5000   0.994483    139.019     2.418286e-003      46.876     2.418286e-003      46.876    0.994483   139.019
 1984.0000   0.994443    138.870     2.460887e-003      46.720     2.460887e-003      46.720    0.994443   138.870
 1984.5000   0.994402    138.721     2.504387e-003      46.563     2.504387e-003      46.563    0.994402   138.721
 1985.0000   0.994361    138.570     2.548808e-003      46.405     2.548808e-003      46.405    0.994361   138.570
 1985.5000   0.994319    138.418     2.594174e-003      46.246     2.594174e-003      46.246    0.994319   138.418
 1986.0000   0.994277    138.265     2.640508e-003      46.085     2.640508e-003      46.085    0.994277   138.265
 1986.5000   0.994234    138.111     2.687834e-003      45.924     2.687834e-003      45.924    0.994234   138.111
 1987.0000   0.994191    137.956     2.736177e-003      45.761     2.736177e-003      45.761    0.994191   137.956
 1987.5000   0.994148    137.799     2.785562e-003      45.597     2.785562e-003      45.597    0.994148   137.799
 1988.0000   0.994103    137.642     2.836017e-003      45.431     2.836017e-003      45.431    0.994103   137.642
 1988.5000   0.994059    137.483     2.887567e-003      45.265     2.887567e-003      45.265    0.994059   137.483
 1989.0000   0.994013    137.323     2.940242e-003      45.097     2.940242e-003      45.097    0.994013   137.323
 1989.5000   0.993968    137.162     2.994069e-003      44.927     2.994069e-003      44.927    0.993968   137.162
 1990.0000   0.993921    136.999     3.049079e-003      44.757     3.049079e-003      44.757    0.993921   136.999
 1990.5000   0.993874    136.835     3.105302e-003      44.585     3.105302e-003      44.585    0.993874   136.835
 1991.0000   0.993827    136.670     3.162769e-003      44.412     3.162769e-003      44.412    0.993827   136.670
 1991.5000   0.993779    136.504     3.221512e-003      44.237     3.221512e-003      44.237    0.993779   136.504
 1992.0000   0.993730    136.336     3.281566e-003      44.062     3.281566e-003      44.062    0.993730   136.336
 1992.5000   0.993681    136.168     3.342963e-003      43.884     3.342963e-003      43.884    0.993681   136.168
 1993.0000   0.993631    135.997     3.405740e-003      43.706     3.405740e-003      43.706    0.993631   135.997
 1993.5000   0.993580    135.826     3.469933e-003      43.526     3.469933e-003      43.526    0.993580   135.826
 1994.0000   0.993529    135.653     3.535579e-003      43.344     3.535579e-003      43.344    0.993529   135.653
 1994.5000   0.993477    135.479     3.602717e-003      43.161     3.602717e-003      43.161    0.993477   135.479
 1995.0000   0.993425    135.303     3.671387e-003      42.977     3.671387e-003      42.977    0.993425   135.303
 1995.5000   0.993372    135.126     3.741629e-003      42.791     3.741629e-003      42.791    0.993372   135.126
 1996.0000   0.993318    134.947     3.813487e-003      42.604     3.813487e-003      42.604    0.993318   134.947
 1996.5000   0.993263    134.767     3.887003e-003      42.415     3.887003e-003      42.415    0.993263   134.767
 1997.0000   0.993208    134.586     3.962224e-003      42.224     3.962224e-003      42.224    0.993208   134.586
 1997.5000   0.993152    134.403     4.039194e-003      42.032     4.039194e-003      42.032    0.993152   134.403
 1998.0000   0.993095    134.218     4.117962e-003      41.838     4.117962e-003      41.838    0.993095   134.218
 1998.5000   0.993038    134.032     4.198578e-003      41.643     4.198578e-003      41.643    0.993038   134.032
 1999.0000   0.992980    133.845     4.281092e-003      41.446     4.281092e-003      41.446    0.992980   133.845
 1999.5000   0.992921    133.656     4.365557e-003      41.248     4.365557e-003      41.248    0.992921   133.656
 2000.0000   0.992861    133.465     4.452027e-003      41.048     4.452027e-003      41.048    0.992861   133.465
 2000.5000   0.992800    133.272     4.540558e-003      40.846     4.540558e-003      40.846    0.992800   133.272
 2001.0000   0.992739    133.079     4.631208e-003      40.642     4.631208e-003      40.642    0.992739   133.079
 2001.5000   0.992676    132.883     4.724036e-003      40.437     4.724036e-003      40.437    0.992676   132.883
 2002.0000   0.992613    132.686     4.819104e-003      40.230     4.819104e-003      40.230    0.992613   132.686
 2002.5000   0.992549    132.487     4.916476e-003      40.021     4.916476e-003      40.021    0.992549   132.487
 2003.0000   0.992484    132.286     5.016218e-003      39.810     5.016218e-003      39.810    0.992484   132.286
 2003.5000   0.992418    132.083     5.118396e-003      39.598     5.118396e-003      39.598    0.992418   132.083
 2004.0000   0.992352    131.879     5.223082e-003      39.383     5.223082e-003      39.383    0.992352   131.879
 2004.5000   0.992284    131.673     5.330347e-003      39.167     5.330347e-003      39.167    0.992284   131.673
 2005.0000   0.992215    131.465     5.440267e-003      38.949     5.440267e-003      38.949    0.992215   131.465
 2005.5000   0.992145    131.255     5.552919e-003      38.728     5.552919e-003      38.728    0.992145   131.255
 2006.0000   0.992075    131.044     5.668382e-003      38.506     5.668382e-003      38.506    0.992075   131.044
 2006.5000   0.992003    130.830     5.786740e-003      38.282     5.786740e-003      38.282    0.992003   130.830
 2007.0000   0.991930    130.615     5.908078e-003      38.056     5.908078e-003      38.056    0.991930   130.615
 2007.5000   0.991856    130.397     6.032485e-003      37.828     6.032485e-003      37.828    0.991856   130.397
 2008.0000   0.991781    130.178     6.160051e-003      37.597     6.160051e-003      37.597    0.991781   130.178
 2008.5000   0.991705    129.957     6.290871e-003      37.365     6.290871e-003      37.365    0.991705   129.957
 2009.0000   0.991628    129.733     6.425043e-003      37.130     6.425043e-003      37.130    0.991628   129.733
 2009.5000   0.991550    129.508     6.562669e-003      36.894     6.562669e-003      36.894    0.991550   129.508
 2010.0000   0.991470    129.280     6.703853e-003      36.655     6.703853e-003      36.655    0.991470   129.280
 2010.5000   0.991389    129.050     6.848704e-003      36.413     6.848704e-003      36.413    0.991389   129.050
 2011.0000   0.991307    128.818     6.997333e-003      36.170     6.997333e-003      36.170    0.991307   128.818
 2011.5000   0.991224    128.584     7.149858e-003      35.924     7.149858e-003      35.924    0.991224   128.584
 2012.0000   0.991139    128.348     7.306398e-003      35.676     7.306398e-003      35.676    0.991139   128.348
 2012.5000   0.991053    128.109     7.467079e-003      35.425     7.467079e-003      35.425    0.991053   128.109
 2013.0000   0.990966    127.868     7.632029e-003      35.172     7.632029e-003      35.172    0.990966   127.868
 2013.5000   0.990877    127.625     7.801383e-003      34.917     7.801383e-003      34.917    0.990877   127.625
 2014.0000   0.990787    127.379     7.975279e-003      34.659     7.975279e-003      34.659    0.990787   127.379
 2014.5000   0.990695    127.131     8.153861e-003      34.398     8.153861e-003      34.398    0.990695   127.131
 2015.0000   0.990602    126.881     8.337277e-003      34.135     8.337277e-003      34.135    0.990602   126.881
 2015.5000   0.990507    126.628     8.525684e-003      33.869     8.525684e-003      33.869    0.990507   126.628
 2016.0000   0.990411    126.372     8.719240e-003      33.601     8.719240e-003      33.601    0.990411   126.372
 2016.5000   0.990313    126.114     8.918113e-003      33.330     8.918113e-003      33.330    0.990313   126.114
 2017.0000   0.990213    125.853     9.122474e-003      33.056     9.122474e-003      33.056    0.990213   125.853
 2017.5000   0.990112    125.590     9.332503e-003      32.779     9.332503e-003      32.779    0.990112   125.590
 2018.0000   0.990009    125.323     9.548385e-003      32.500     9.548385e-003      32.500    0.990009   125.323
 2018.5000   0.989904    125.054     9.770314e-003      32.217     9.770314e-003      32.217    0.989904   125.054
 2019.0000   0.989797    124.783     9.998489e-003      31.932     9.998489e-003      31.932    0.989797   124.783
 2019.5000   0.989689    124.508     1.023312e-002      31.644     1.023312e-002      31.644    0.989689   124.508
 2020.0000   0.989578    124.231     1.047442e-002      31.352     1.047442e-002      31.352    0.989578   124.231
 2020.5000   0.989466    123.950     1.072261e-002      31.058     1.072261e-002      31.058    0.989466   123.950
 2021.0000   0.989351    123.667     1.097793e-002      30.760     1.097793e-002      30.760    0.989351   123.667
 2021.5000   0.989235    123.381     1.124062e-002      30.459     1.124062e-002      30.459    0.989235   123.381
 2022.0000   0.989116    123.091     1.151094e-002      30.155     1.151094e-002      30.155    0.989116   123.091
 2022.5000   0.988995    122.798     1.178913e-002      29.848     1.178913e-002      29.848    0.988995   122.798
 2023.0000   0.988872    122.503     1.207548e-002      29.537     1.207548e-002      29.537    0.988872   122.503
 2023.5000   0.988746    122.203     1.237027e-002      29.223     1.237027e-002      29.223    0.988746   122.203
 2024.0000   0.988618    121.901     1.267379e-002      28.905     1.267379e-002      28.905    0.988618   121.901
 2024.5000   0.988488    121.595     1.298635e-002      28.584     1.298635e-002      28.584    0.988488   121.595
