!Port 1 is shunt  connected
!Port 2 is shunt  connected
!
!prototype= pole placed tchebycheff
!n=  5,  np= 0,  rl=  18.000dB
!
!transform= band pass
!f0= 2140.000MHz,  bw=  100.000MHz, q0= 800.000
!
!fstart= 1940.000MHz, fstep=    0.500MHz, fstop= 2340.000MHz
!
# MHZ S MA R 50
!Freq        Mag(S11)   Arg(S11)      Mag(S21)        Arg(S21)      Mag(S12)        Arg(S12)    Mag(S22)  Arg(S22)
 1940.0000   0.996633    153.812     4.006888e-004      61.733     4.006888e-004      61.733    0.996633   153.812
 1940.5000   0.996615    153.740     4.061604e-004      61.656     4.061604e-004      61.656    0.996615   153.740
 1941.0000   0.996597    153.667     4.117207e-004      61.578     4.117207e-004      61.578    0.996597   153.667
 1941.5000   0.996578    153.594     4.173715e-004      61.499     4.173715e-004      61.499    0.996578   153.594
 1942.0000   0.996560    153.520     4.231144e-004      61.420     4.231144e-004      61.420    0.996560   153.520
 1942.5000   0.996541    153.446     4.289512e-004      61.341     4.289512e-004      61.341    0.996541   153.446
 1943.0000   0.996522    153.372     4.348836e-004      61.261     4.348836e-004      61.261    0.996522   153.372
 1943.5000   0.996503    153.297     4.409136e-004      61.181     4.409136e-004      61.181    0.996503   153.297
 1944.0000   0.996484    153.222     4.470429e-004      61.100     4.470429e-004      61.100    0.996484   153.222
 1944.5000   0.996465    153.146     4.532735e-004      61.019     4.532735e-004      61.019    0.996465   153.146
 1945.0000   0.996445    153.070     4.596073e-004      60.938     4.596073e-004      60.938    0.996445   153.070
 1945.5000   0.996426    152.994     4.660463e-004      60.856     4.660463e-004      60.856    0.996426   152.994
 1946.0000   0.996406    152.917     4.725926e-004      60.773     4.725926e-004      60.773    0.996406   152.917
 1946.5000   0.996386    152.840     4.792482e-004      60.690     4.792482e-004      60.690    0.996386   152.840
 1947.0000   0.996365    152.762     4.860152e-004      60.607     4.860152e-004      60.607    0.996365   152.762
 1947.5000   0.996345    152.684     4.928959e-004      60.523     4.928959e-004      60.523    0.996345   152.684
 1948.0000   0.996325    152.605     4.998924e-004      60.439     4.998924e-004      60.439    0.996325   152.605
 1948.5000   0.996304    152.526     5.070070e-004      60.354     5.070070e-004      60.354    0.996304   152.526
 1949.0000   0.996283    152.446     5.142421e-004      60.268     5.142421e-004      60.268    0.996283   152.446
 1949.5000   0.996262    152.366     5.216000e-004      60.183     5.216000e-004      60.183    0.996262   152.366
 1950.0000   0.996241    152.286     5.290832e-004      60.096     5.290832e-004      60.096    0.996241   152.286
 1950.5000   0.996219    152.205     5.366940e-004      60.010     5.366940e-004      60.010    0.996219   152.205
 1951.0000   0.996198    152.124     5.444352e-004      59.922     5.444352e-004      59.922    0.996198   152.124
 1951.5000   0.996176    152.042     5.523092e-004      59.835     5.523092e-004      59.835    0.996176   152.042
 1952.0000   0.996154    151.960     5.603188e-004      59.746     5.603188e-004      59.746    0.996154   151.960
 1952.5000   0.996131    151.877     5.684666e-004      59.658     5.684666e-004      59.658    0.996131   151.877
 1953.0000   0.996109    151.794     5.767555e-004      59.568     5.767555e-004      59.568    0.996109   151.794
 1953.5000   0.996086    151.710     5.851882e-004      59.479     5.851882e-004      59.479    0.996086   151.710
 1954.0000   0.996064    151.626     5.937677e-004      59.388     5.937677e-004      59.388    0.996064   151.626
 1954.5000   0.996040    151.541     6.024970e-004      59.297     6.024970e-004      59.297    0.996040   151.541
 1955.0000   0.996017    151.456     6.113791e-004      59.206     6.113791e-004      59.206    0.996017   151.456
 1955.5000   0.995994    151.370     6.204171e-004      59.114     6.204171e-004      59.114    0.995994   151.370
 1956.0000   0.995970    151.284     6.296143e-004      59.021     6.296143e-004      59.021    0.995970   151.284
 1956.5000   0.995946    151.197     6.389739e-004      58.928     6.389739e-004      58.928    0.995946   151.197
 1957.0000   0.995922    151.110     6.484992e-004      58.835     6.484992e-004      58.835    0.995922   151.110
 1957.5000   0.995898    151.022     6.581937e-004      58.741     6.581937e-004      58.741    0.995898   151.022
 1958.0000   0.995873    150.934     6.680608e-004      58.646     6.680608e-004      58.646    0.995873   150.934
 1958.5000   0.995848    150.845     6.781043e-004      58.551     6.781043e-004      58.551    0.995848   150.845
 1959.0000   0.995823    150.756     6.883276e-004      58.455     6.883276e-004      58.455    0.995823   150.756
 1959.5000   0.995798    150.666     6.987346e-004      58.358     6.987346e-004      58.358    0.995798   150.666
 1960.0000   0.995773    150.575     7.093292e-004      58.261     7.093292e-004      58.261    0.995773   150.575
 1960.5000   0.995747    150.484     7.201153e-004      58.164     7.201153e-004      58.164    0.995747   150.484
 1961.0000   0.995721    150.393     7.310969e-004      58.066     7.310969e-004      58.066    0.995721   150.393
 1961.5000   0.995695    150.301     7.422782e-004      57.967     7.422782e-004      57.967    0.995695   150.301
 1962.0000   0.995668    150.208     7.536634e-004      57.867     7.536634e-004      57.867    0.995668   150.208
 1962.5000   0.995642    150.115     7.652568e-004      57.767     7.652568e-004      57.767    0.995642   150.115
 1963.0000   0.995615    150.021     7.770629e-004      57.667     7.770629e-004      57.667    0.995615   150.021
 1963.5000   0.995587    149.926     7.890863e-004      57.565     7.890863e-004      57.565    0.995587   149.926
 1964.0000   0.995560    149.831     8.013316e-004      57.463     8.013316e-004      57.463    0.995560   149.831
 1964.5000   0.995532    149.736     8.138036e-004      57.361     8.138036e-004      57.361    0.995532   149.736
 1965.0000   0.995504    149.640     8.265072e-004      57.258     8.265072e-004      57.258    0.995504   149.640
 1965.5000   0.995476    149.543     8.394474e-004      57.154     8.394474e-004      57.154    0.995476   149.543
 1966.0000   0.995447    149.445     8.526293e-004      57.049     8.526293e-004      57.049    0.995447   149.445
 1966.5000   0.995418    149.347     8.660583e-004      56.944     8.660583e-004      56.944    0.995418   149.347
 1967.0000   0.995389    149.249     8.797398e-004      56.838     8.797398e-004      56.838    0.995389   149.249
 1967.5000   0.995360    149.149     8.936793e-004      56.732     8.936793e-004      56.732    0.995360   149.149
 1968.0000   0.995330    149.049     9.078824e-004      56.624     9.078824e-004      56.624    0.995330   149.049
 1968.5000   0.995300    148.949     9.223551e-004      56.517     9.223551e-004      56.517    0.995300   148.949
 1969.0000   0.995270    148.848     9.371032e-004      56.408     9.371032e-004      56.408    0.995270   148.848
 1969.5000   0.995239    148.746     9.521330e-004      56.299     9.521330e-004      56.299    0.995239   148.746
 1970.0000   0.995208    148.643     9.674507e-004      56.189     9.674507e-004      56.189    0.995208   148.643
 1970.5000   0.995177    148.540     9.830627e-004      56.078     9.830627e-004      56.078    0.995177   148.540
 1971.0000   0.995145    148.436     9.989756e-004      55.966     9.989756e-004      55.966    0.995145   148.436
 1971.5000   0.995113    148.332     1.015196e-003      55.854     1.015196e-003      55.854    0.995113   148.332
 1972.0000   0.995081    148.226     1.031732e-003      55.741     1.031732e-003      55.741    0.995081   148.226
 1972.5000   0.995048    148.120     1.048589e-003      55.628     1.048589e-003      55.628    0.995048   148.120
 1973.0000   0.995015    148.014     1.065775e-003      55.513     1.065775e-003      55.513    0.995015   148.014
 1973.5000   0.994982    147.906     1.083298e-003      55.398     1.083298e-003      55.398    0.994982   147.906
 1974.0000   0.994949    147.798     1.101166e-003      55.282     1.101166e-003      55.282    0.994949   147.798
 1974.5000   0.994915    147.690     1.119386e-003      55.165     1.119386e-003      55.165    0.994915   147.690
 1975.0000   0.994880    147.580     1.137966e-003      55.048     1.137966e-003      55.048    0.994880   147.580
 1975.5000   0.994846    147.470     1.156915e-003      54.929     1.156915e-003      54.929    0.994846   147.470
 1976.0000   0.994811    147.359     1.176241e-003      54.810     1.176241e-003      54.810    0.994811   147.359
 1976.5000   0.994775    147.247     1.195954e-003      54.690     1.195954e-003      54.690    0.994775   147.247
 1977.0000   0.994740    147.134     1.216061e-003      54.569     1.216061e-003      54.569    0.994740   147.134
 1977.5000   0.994703    147.021     1.236573e-003      54.448     1.236573e-003      54.448    0.994703   147.021
 1978.0000   0.994667    146.907     1.257499e-003      54.325     1.257499e-003      54.325    0.994667   146.907
 1978.5000   0.994630    146.792     1.278849e-003      54.202     1.278849e-003      54.202    0.994630   146.792
 1979.0000   0.994593    146.676     1.300632e-003      54.078     1.300632e-003      54.078    0.994593   146.676
 1979.5000   0.994555    146.560     1.322860e-003      53.953     1.322860e-003      53.953    0.994555   146.560
 1980.0000   0.994517    146.443     1.345542e-003      53.827     1.345542e-003      53.827    0.994517   146.443
 1980.5000   0.994478    146.324     1.368690e-003      53.700     1.368690e-003      53.700    0.994478   146.324
 1981.0000   0.994439    146.205     1.392314e-003      53.572     1.392314e-003      53.572    0.994439   146.205
 1981.5000   0.994400    146.086     1.416427e-003      53.443     1.416427e-003      53.443    0.994400   146.086
 1982.0000   0.994360    145.965     1.441040e-003      53.314     1.441040e-003      53.314    0.994360   145.965
 1982.5000   0.994319    145.843     1.466165e-003      53.183     1.466165e-003      53.183    0.994319   145.843
 1983.0000   0.994279    145.721     1.491815e-003      53.052     1.491815e-003      53.052    0.994279   145.721
 1983.5000   0.994237    145.598     1.518002e-003      52.920     1.518002e-003      52.920    0.994237   145.598
 1984.0000   0.994196    145.474     1.544741e-003      52.786     1.544741e-003      52.786    0.994196   145.474
 1984.5000   0.994153    145.348     1.572043e-003      52.652     1.572043e-003      52.652    0.994153   145.348
 1985.0000   0.994111    145.222     1.599924e-003      52.517     1.599924e-003      52.517    0.994111   145.222
 1985.5000   0.994068    145.096     1.628397e-003      52.380     1.628397e-003      52.380    0.994068   145.096
 1986.0000   0.994024    144.968     1.657478e-003      52.243     1.657478e-003      52.243    0.994024   144.968
 1986.5000   0.993980    144.839     1.687181e-003      52.105     1.687181e-003      52.105    0.993980   144.839
 1987.0000   0.993935    144.709     1.717523e-003      51.965     1.717523e-003      51.965    0.993935   144.709
 1987.5000   0.993890    144.578     1.748519e-003      51.825     1.748519e-003      51.825    0.993890   144.578
 1988.0000   0.993844    144.447     1.780186e-003      51.684     1.780186e-003      51.684    0.993844   144.447
 1988.5000   0.993798    144.314     1.812540e-003      51.541     1.812540e-003      51.541    0.993798   144.314
 1989.0000   0.993751    144.180     1.845600e-003      51.398     1.845600e-003      51.398    0.993751   144.180
 1989.5000   0.993704    144.046     1.879384e-003      51.253     1.879384e-003      51.253    0.993704   144.046
 1990.0000   0.993656    143.910     1.913909e-003      51.107     1.913909e-003      51.107    0.993656   143.910
 1990.5000   0.993607    143.773     1.949196e-003      50.960     1.949196e-003      50.960    0.993607   143.773
 1991.0000   0.993558    143.635     1.985263e-003      50.812     1.985263e-003      50.812    0.993558   143.635
 1991.5000   0.993509    143.496     2.022132e-003      50.663     2.022132e-003      50.663    0.993509   143.496
 1992.0000   0.993458    143.356     2.059822e-003      50.513     2.059822e-003      50.513    0.993458   143.356
 1992.5000   0.993407    143.215     2.098356e-003      50.361     2.098356e-003      50.361    0.993407   143.215
 1993.0000   0.993356    143.073     2.137756e-003      50.209     2.137756e-003      50.209    0.993356   143.073
 1993.5000   0.993304    142.930     2.178044e-003      50.055     2.178044e-003      50.055    0.993304   142.930
 1994.0000   0.993251    142.786     2.219244e-003      49.900     2.219244e-003      49.900    0.993251   142.786
 1994.5000   0.993197    142.640     2.261380e-003      49.743     2.261380e-003      49.743    0.993197   142.640
 1995.0000   0.993143    142.493     2.304478e-003      49.586     2.304478e-003      49.586    0.993143   142.493
 1995.5000   0.993088    142.346     2.348562e-003      49.427     2.348562e-003      49.427    0.993088   142.346
 1996.0000   0.993033    142.196     2.393660e-003      49.267     2.393660e-003      49.267    0.993033   142.196
 1996.5000   0.992977    142.046     2.439799e-003      49.106     2.439799e-003      49.106    0.992977   142.046
 1997.0000   0.992920    141.895     2.487007e-003      48.943     2.487007e-003      48.943    0.992920   141.895
 1997.5000   0.992862    141.742     2.535314e-003      48.779     2.535314e-003      48.779    0.992862   141.742
 1998.0000   0.992804    141.588     2.584748e-003      48.613     2.584748e-003      48.613    0.992804   141.588
 1998.5000   0.992744    141.433     2.635342e-003      48.447     2.635342e-003      48.447    0.992744   141.433
 1999.0000   0.992685    141.276     2.687127e-003      48.279     2.687127e-003      48.279    0.992685   141.276
 1999.5000   0.992624    141.119     2.740136e-003      48.109     2.740136e-003      48.109    0.992624   141.119
 2000.0000   0.992562    140.959     2.794404e-003      47.938     2.794404e-003      47.938    0.992562   140.959
 2000.5000   0.992500    140.799     2.849964e-003      47.766     2.849964e-003      47.766    0.992500   140.799
 2001.0000   0.992437    140.637     2.906855e-003      47.592     2.906855e-003      47.592    0.992437   140.637
 2001.5000   0.992373    140.474     2.965112e-003      47.417     2.965112e-003      47.417    0.992373   140.474
 2002.0000   0.992308    140.309     3.024775e-003      47.240     3.024775e-003      47.240    0.992308   140.309
 2002.5000   0.992242    140.144     3.085883e-003      47.061     3.085883e-003      47.061    0.992242   140.144
 2003.0000   0.992175    139.976     3.148478e-003      46.882     3.148478e-003      46.882    0.992175   139.976
 2003.5000   0.992108    139.807     3.212603e-003      46.700     3.212603e-003      46.700    0.992108   139.807
 2004.0000   0.992039    139.637     3.278301e-003      46.517     3.278301e-003      46.517    0.992039   139.637
 2004.5000   0.991970    139.465     3.345617e-003      46.333     3.345617e-003      46.333    0.991970   139.465
 2005.0000   0.991899    139.292     3.414599e-003      46.146     3.414599e-003      46.146    0.991899   139.292
 2005.5000   0.991828    139.117     3.485296e-003      45.958     3.485296e-003      45.958    0.991828   139.117
 2006.0000   0.991755    138.941     3.557757e-003      45.769     3.557757e-003      45.769    0.991755   138.941
 2006.5000   0.991682    138.763     3.632034e-003      45.578     3.632034e-003      45.578    0.991682   138.763
 2007.0000   0.991607    138.583     3.708181e-003      45.385     3.708181e-003      45.385    0.991607   138.583
 2007.5000   0.991532    138.402     3.786253e-003      45.190     3.786253e-003      45.190    0.991532   138.402
 2008.0000   0.991455    138.219     3.866308e-003      44.994     3.866308e-003      44.994    0.991455   138.219
 2008.5000   0.991377    138.035     3.948405e-003      44.795     3.948405e-003      44.795    0.991377   138.035
 2009.0000   0.991298    137.849     4.032605e-003      44.595     4.032605e-003      44.595    0.991298   137.849
 2009.5000   0.991218    137.661     4.118973e-003      44.393     4.118973e-003      44.393    0.991218   137.661
 2010.0000   0.991137    137.472     4.207573e-003      44.190     4.207573e-003      44.190    0.991137   137.472
 2010.5000   0.991054    137.280     4.298474e-003      43.984     4.298474e-003      43.984    0.991054   137.280
 2011.0000   0.990970    137.087     4.391746e-003      43.776     4.391746e-003      43.776    0.990970   137.087
 2011.5000   0.990885    136.892     4.487462e-003      43.567     4.487462e-003      43.567    0.990885   136.892
 2012.0000   0.990799    136.695     4.585698e-003      43.355     4.585698e-003      43.355    0.990799   136.695
 2012.5000   0.990711    136.497     4.686532e-003      43.142     4.686532e-003      43.142    0.990711   136.497
 2013.0000   0.990622    136.296     4.790045e-003      42.926     4.790045e-003      42.926    0.990622   136.296
 2013.5000   0.990532    136.094     4.896321e-003      42.709     4.896321e-003      42.709    0.990532   136.094
 2014.0000   0.990440    135.889     5.005448e-003      42.489     5.005448e-003      42.489    0.990440   135.889
 2014.5000   0.990347    135.683     5.117514e-003      42.267     5.117514e-003      42.267    0.990347   135.683
 2015.0000   0.990252    135.475     5.232615e-003      42.043     5.232615e-003      42.043    0.990252   135.475
 2015.5000   0.990156    135.264     5.350847e-003      41.816     5.350847e-003      41.816    0.990156   135.264
 2016.0000   0.990058    135.052     5.472310e-003      41.588     5.472310e-003      41.588    0.990058   135.052
 2016.5000   0.989959    134.837     5.597110e-003      41.357     5.597110e-003      41.357    0.989959   134.837
 2017.0000   0.989858    134.620     5.725353e-003      41.124     5.725353e-003      41.124    0.989858   134.620
 2017.5000   0.989756    134.401     5.857153e-003      40.888     5.857153e-003      40.888    0.989756   134.401
 2018.0000   0.989651    134.180     5.992626e-003      40.650     5.992626e-003      40.650    0.989651   134.180
 2018.5000   0.989545    133.957     6.131893e-003      40.410     6.131893e-003      40.410    0.989545   133.957
 2019.0000   0.989438    133.731     6.275080e-003      40.167     6.275080e-003      40.167    0.989438   133.731
 2019.5000   0.989328    133.503     6.422317e-003      39.922     6.422317e-003      39.922    0.989328   133.503
 2020.0000   0.989217    133.272     6.573740e-003      39.674     6.573740e-003      39.674    0.989217   133.272
 2020.5000   0.989103    133.039     6.729489e-003      39.424     6.729489e-003      39.424    0.989103   133.039
 2021.0000   0.988988    132.804     6.889711e-003      39.170     6.889711e-003      39.170    0.988988   132.804
 2021.5000   0.988871    132.566     7.054558e-003      38.915     7.054558e-003      38.915    0.988871   132.566
 2022.0000   0.988751    132.326     7.224187e-003      38.656     7.224187e-003      38.656    0.988751   132.326
 2022.5000   0.988630    132.083     7.398764e-003      38.395     7.398764e-003      38.395    0.988630   132.083
 2023.0000   0.988506    131.837     7.578458e-003      38.131     7.578458e-003      38.131    0.988506   131.837
 2023.5000   0.988381    131.589     7.763449e-003      37.864     7.763449e-003      37.864    0.988381   131.589
 2024.0000   0.988253    131.338     7.953919e-003      37.594     7.953919e-003      37.594    0.988253   131.338
 2024.5000   0.988122    131.085     8.150063e-003      37.321     8.150063e-003      37.321    0.988122   131.085
