!Port 1 is shunt  connected
!Port 2 is shunt  connected
!
!prototype= pole placed tchebycheff
!n=  5,  np= 0,  rl=  22.000dB
!
!transform= band pass
!f0= 2140.000MHz,  bw=  100.000MHz, q0= 850.000
!
!fstart= 1940.000MHz, fstep=    0.500MHz, fstop= 2340.000MHz
!
# MHZ S MA R 50
!Freq        Mag(S11)   Arg(S11)      Mag(S21)        Arg(S21)      Mag(S12)        Arg(S12)    Mag(S22)  Arg(S22)
 1940.0000   0.996221    148.832     6.378640e-004      56.875     6.378640e-004      56.875    0.996221   148.832
 1940.5000   0.996200    148.745     6.465729e-004      56.784     6.465729e-004      56.784    0.996200   148.745
 1941.0000   0.996180    148.658     6.554230e-004      56.692     6.554230e-004      56.692    0.996180   148.658
 1941.5000   0.996159    148.571     6.644170e-004      56.599     6.644170e-004      56.599    0.996159   148.571
 1942.0000   0.996138    148.483     6.735577e-004      56.507     6.735577e-004      56.507    0.996138   148.483
 1942.5000   0.996117    148.395     6.828477e-004      56.413     6.828477e-004      56.413    0.996117   148.395
 1943.0000   0.996096    148.306     6.922900e-004      56.319     6.922900e-004      56.319    0.996096   148.306
 1943.5000   0.996074    148.217     7.018874e-004      56.225     7.018874e-004      56.225    0.996074   148.217
 1944.0000   0.996053    148.127     7.116429e-004      56.130     7.116429e-004      56.130    0.996053   148.127
 1944.5000   0.996031    148.037     7.215596e-004      56.035     7.215596e-004      56.035    0.996031   148.037
 1945.0000   0.996009    147.946     7.316406e-004      55.939     7.316406e-004      55.939    0.996009   147.946
 1945.5000   0.995987    147.855     7.418889e-004      55.842     7.418889e-004      55.842    0.995987   147.855
 1946.0000   0.995964    147.763     7.523079e-004      55.746     7.523079e-004      55.746    0.995964   147.763
 1946.5000   0.995942    147.671     7.629009e-004      55.648     7.629009e-004      55.648    0.995942   147.671
 1947.0000   0.995919    147.578     7.736712e-004      55.550     7.736712e-004      55.550    0.995919   147.578
 1947.5000   0.995896    147.485     7.846223e-004      55.451     7.846223e-004      55.451    0.995896   147.485
 1948.0000   0.995873    147.391     7.957578e-004      55.352     7.957578e-004      55.352    0.995873   147.391
 1948.5000   0.995850    147.297     8.070812e-004      55.252     8.070812e-004      55.252    0.995850   147.297
 1949.0000   0.995826    147.202     8.185963e-004      55.152     8.185963e-004      55.152    0.995826   147.202
 1949.5000   0.995802    147.106     8.303067e-004      55.051     8.303067e-004      55.051    0.995802   147.106
 1950.0000   0.995778    147.010     8.422165e-004      54.950     8.422165e-004      54.950    0.995778   147.010
 1950.5000   0.995754    146.914     8.543296e-004      54.848     8.543296e-004      54.848    0.995754   146.914
 1951.0000   0.995730    146.817     8.666499e-004      54.745     8.666499e-004      54.745    0.995730   146.817
 1951.5000   0.995705    146.719     8.791817e-004      54.642     8.791817e-004      54.642    0.995705   146.719
 1952.0000   0.995680    146.621     8.919291e-004      54.538     8.919291e-004      54.538    0.995680   146.621
 1952.5000   0.995655    146.522     9.048964e-004      54.433     9.048964e-004      54.433    0.995655   146.522
 1953.0000   0.995630    146.423     9.180882e-004      54.328     9.180882e-004      54.328    0.995630   146.423
 1953.5000   0.995604    146.323     9.315089e-004      54.223     9.315089e-004      54.223    0.995604   146.323
 1954.0000   0.995579    146.222     9.451632e-004      54.116     9.451632e-004      54.116    0.995579   146.222
 1954.5000   0.995553    146.121     9.590558e-004      54.009     9.590558e-004      54.009    0.995553   146.121
 1955.0000   0.995526    146.019     9.731915e-004      53.902     9.731915e-004      53.902    0.995526   146.019
 1955.5000   0.995500    145.917     9.875754e-004      53.794     9.875754e-004      53.794    0.995500   145.917
 1956.0000   0.995473    145.814     1.002212e-003      53.685     1.002212e-003      53.685    0.995473   145.814
 1956.5000   0.995446    145.711     1.017108e-003      53.575     1.017108e-003      53.575    0.995446   145.711
 1957.0000   0.995419    145.606     1.032267e-003      53.465     1.032267e-003      53.465    0.995419   145.606
 1957.5000   0.995391    145.502     1.047695e-003      53.355     1.047695e-003      53.355    0.995391   145.502
 1958.0000   0.995364    145.396     1.063398e-003      53.243     1.063398e-003      53.243    0.995364   145.396
 1958.5000   0.995336    145.290     1.079382e-003      53.131     1.079382e-003      53.131    0.995336   145.290
 1959.0000   0.995308    145.183     1.095651e-003      53.018     1.095651e-003      53.018    0.995308   145.183
 1959.5000   0.995279    145.076     1.112213e-003      52.905     1.112213e-003      52.905    0.995279   145.076
 1960.0000   0.995250    144.968     1.129074e-003      52.790     1.129074e-003      52.790    0.995250   144.968
 1960.5000   0.995221    144.859     1.146239e-003      52.676     1.146239e-003      52.676    0.995221   144.859
 1961.0000   0.995192    144.750     1.163715e-003      52.560     1.163715e-003      52.560    0.995192   144.750
 1961.5000   0.995162    144.640     1.181509e-003      52.444     1.181509e-003      52.444    0.995162   144.640
 1962.0000   0.995132    144.529     1.199627e-003      52.327     1.199627e-003      52.327    0.995132   144.529
 1962.5000   0.995102    144.418     1.218076e-003      52.209     1.218076e-003      52.209    0.995102   144.418
 1963.0000   0.995072    144.306     1.236864e-003      52.090     1.236864e-003      52.090    0.995072   144.306
 1963.5000   0.995041    144.193     1.255998e-003      51.971     1.255998e-003      51.971    0.995041   144.193
 1964.0000   0.995010    144.080     1.275484e-003      51.851     1.275484e-003      51.851    0.995010   144.080
 1964.5000   0.994979    143.966     1.295331e-003      51.730     1.295331e-003      51.730    0.994979   143.966
 1965.0000   0.994947    143.851     1.315547e-003      51.609     1.315547e-003      51.609    0.994947   143.851
 1965.5000   0.994915    143.735     1.336139e-003      51.487     1.336139e-003      51.487    0.994915   143.735
 1966.0000   0.994883    143.619     1.357116e-003      51.364     1.357116e-003      51.364    0.994883   143.619
 1966.5000   0.994850    143.502     1.378485e-003      51.240     1.378485e-003      51.240    0.994850   143.502
 1967.0000   0.994817    143.384     1.400257e-003      51.115     1.400257e-003      51.115    0.994817   143.384
 1967.5000   0.994784    143.265     1.422438e-003      50.990     1.422438e-003      50.990    0.994784   143.265
 1968.0000   0.994750    143.146     1.445039e-003      50.864     1.445039e-003      50.864    0.994750   143.146
 1968.5000   0.994716    143.026     1.468069e-003      50.736     1.468069e-003      50.736    0.994716   143.026
 1969.0000   0.994682    142.905     1.491538e-003      50.609     1.491538e-003      50.609    0.994682   142.905
 1969.5000   0.994647    142.783     1.515454e-003      50.480     1.515454e-003      50.480    0.994647   142.783
 1970.0000   0.994612    142.661     1.539828e-003      50.350     1.539828e-003      50.350    0.994612   142.661
 1970.5000   0.994577    142.537     1.564670e-003      50.220     1.564670e-003      50.220    0.994577   142.537
 1971.0000   0.994541    142.413     1.589991e-003      50.089     1.589991e-003      50.089    0.994541   142.413
 1971.5000   0.994505    142.288     1.615802e-003      49.957     1.615802e-003      49.957    0.994505   142.288
 1972.0000   0.994469    142.163     1.642113e-003      49.824     1.642113e-003      49.824    0.994469   142.163
 1972.5000   0.994432    142.036     1.668936e-003      49.690     1.668936e-003      49.690    0.994432   142.036
 1973.0000   0.994395    141.908     1.696283e-003      49.555     1.696283e-003      49.555    0.994395   141.908
 1973.5000   0.994357    141.780     1.724165e-003      49.419     1.724165e-003      49.419    0.994357   141.780
 1974.0000   0.994319    141.651     1.752596e-003      49.282     1.752596e-003      49.282    0.994319   141.651
 1974.5000   0.994281    141.521     1.781586e-003      49.145     1.781586e-003      49.145    0.994281   141.521
 1975.0000   0.994242    141.390     1.811150e-003      49.006     1.811150e-003      49.006    0.994242   141.390
 1975.5000   0.994203    141.258     1.841300e-003      48.867     1.841300e-003      48.867    0.994203   141.258
 1976.0000   0.994163    141.126     1.872051e-003      48.727     1.872051e-003      48.727    0.994163   141.126
 1976.5000   0.994123    140.992     1.903415e-003      48.585     1.903415e-003      48.585    0.994123   140.992
 1977.0000   0.994082    140.857     1.935409e-003      48.443     1.935409e-003      48.443    0.994082   140.857
 1977.5000   0.994041    140.722     1.968045e-003      48.300     1.968045e-003      48.300    0.994041   140.722
 1978.0000   0.994000    140.585     2.001340e-003      48.155     2.001340e-003      48.155    0.994000   140.585
 1978.5000   0.993958    140.448     2.035309e-003      48.010     2.035309e-003      48.010    0.993958   140.448
 1979.0000   0.993916    140.310     2.069967e-003      47.864     2.069967e-003      47.864    0.993916   140.310
 1979.5000   0.993873    140.170     2.105332e-003      47.716     2.105332e-003      47.716    0.993873   140.170
 1980.0000   0.993830    140.030     2.141420e-003      47.568     2.141420e-003      47.568    0.993830   140.030
 1980.5000   0.993786    139.889     2.178249e-003      47.419     2.178249e-003      47.419    0.993786   139.889
 1981.0000   0.993742    139.747     2.215836e-003      47.268     2.215836e-003      47.268    0.993742   139.747
 1981.5000   0.993697    139.603     2.254199e-003      47.117     2.254199e-003      47.117    0.993697   139.603
 1982.0000   0.993652    139.459     2.293358e-003      46.964     2.293358e-003      46.964    0.993652   139.459
 1982.5000   0.993606    139.314     2.333331e-003      46.810     2.333331e-003      46.810    0.993606   139.314
 1983.0000   0.993560    139.167     2.374139e-003      46.655     2.374139e-003      46.655    0.993560   139.167
 1983.5000   0.993513    139.020     2.415802e-003      46.499     2.415802e-003      46.499    0.993513   139.020
 1984.0000   0.993466    138.871     2.458340e-003      46.342     2.458340e-003      46.342    0.993466   138.871
 1984.5000   0.993418    138.722     2.501776e-003      46.184     2.501776e-003      46.184    0.993418   138.722
 1985.0000   0.993370    138.571     2.546132e-003      46.024     2.546132e-003      46.024    0.993370   138.571
 1985.5000   0.993321    138.419     2.591430e-003      45.864     2.591430e-003      45.864    0.993321   138.419
 1986.0000   0.993271    138.266     2.637694e-003      45.702     2.637694e-003      45.702    0.993271   138.266
 1986.5000   0.993221    138.112     2.684948e-003      45.539     2.684948e-003      45.539    0.993221   138.112
 1987.0000   0.993171    137.957     2.733217e-003      45.374     2.733217e-003      45.374    0.993171   137.957
 1987.5000   0.993119    137.800     2.782526e-003      45.209     2.782526e-003      45.209    0.993119   137.800
 1988.0000   0.993067    137.643     2.832902e-003      45.042     2.832902e-003      45.042    0.993067   137.643
 1988.5000   0.993015    137.484     2.884372e-003      44.874     2.884372e-003      44.874    0.993015   137.484
 1989.0000   0.992962    137.324     2.936964e-003      44.705     2.936964e-003      44.705    0.992962   137.324
 1989.5000   0.992908    137.163     2.990706e-003      44.534     2.990706e-003      44.534    0.992908   137.163
 1990.0000   0.992853    137.000     3.045627e-003      44.362     3.045627e-003      44.362    0.992853   137.000
 1990.5000   0.992798    136.836     3.101759e-003      44.189     3.101759e-003      44.189    0.992798   136.836
 1991.0000   0.992742    136.671     3.159133e-003      44.015     3.159133e-003      44.015    0.992742   136.671
 1991.5000   0.992686    136.505     3.217780e-003      43.839     3.217780e-003      43.839    0.992686   136.505
 1992.0000   0.992629    136.338     3.277734e-003      43.661     3.277734e-003      43.661    0.992629   136.338
 1992.5000   0.992571    136.169     3.339029e-003      43.483     3.339029e-003      43.483    0.992571   136.169
 1993.0000   0.992512    135.999     3.401700e-003      43.303     3.401700e-003      43.303    0.992512   135.999
 1993.5000   0.992453    135.827     3.465784e-003      43.121     3.465784e-003      43.121    0.992453   135.827
 1994.0000   0.992393    135.654     3.531318e-003      42.938     3.531318e-003      42.938    0.992393   135.654
 1994.5000   0.992332    135.480     3.598340e-003      42.754     3.598340e-003      42.754    0.992332   135.480
 1995.0000   0.992270    135.304     3.666891e-003      42.568     3.666891e-003      42.568    0.992270   135.304
 1995.5000   0.992208    135.127     3.737010e-003      42.380     3.737010e-003      42.380    0.992208   135.127
 1996.0000   0.992145    134.948     3.808741e-003      42.191     3.808741e-003      42.191    0.992145   134.948
 1996.5000   0.992081    134.768     3.882126e-003      42.001     3.882126e-003      42.001    0.992081   134.768
 1997.0000   0.992016    134.587     3.957212e-003      41.809     3.957212e-003      41.809    0.992016   134.587
 1997.5000   0.991950    134.404     4.034042e-003      41.615     4.034042e-003      41.615    0.991950   134.404
 1998.0000   0.991884    134.220     4.112667e-003      41.420     4.112667e-003      41.420    0.991884   134.220
 1998.5000   0.991816    134.034     4.193134e-003      41.223     4.193134e-003      41.223    0.991816   134.034
 1999.0000   0.991748    133.846     4.275495e-003      41.025     4.275495e-003      41.025    0.991748   133.846
 1999.5000   0.991678    133.657     4.359801e-003      40.824     4.359801e-003      40.824    0.991678   133.657
 2000.0000   0.991608    133.466     4.446107e-003      40.623     4.446107e-003      40.623    0.991608   133.466
 2000.5000   0.991537    133.274     4.534470e-003      40.419     4.534470e-003      40.419    0.991537   133.274
 2001.0000   0.991465    133.080     4.624945e-003      40.214     4.624945e-003      40.214    0.991465   133.080
 2001.5000   0.991392    132.884     4.717593e-003      40.007     4.717593e-003      40.007    0.991392   132.884
 2002.0000   0.991318    132.687     4.812475e-003      39.798     4.812475e-003      39.798    0.991318   132.687
 2002.5000   0.991243    132.488     4.909654e-003      39.587     4.909654e-003      39.587    0.991243   132.488
 2003.0000   0.991166    132.287     5.009197e-003      39.375     5.009197e-003      39.375    0.991166   132.287
 2003.5000   0.991089    132.085     5.111169e-003      39.160     5.111169e-003      39.160    0.991089   132.085
 2004.0000   0.991011    131.881     5.215642e-003      38.944     5.215642e-003      38.944    0.991011   131.881
 2004.5000   0.990931    131.675     5.322688e-003      38.726     5.322688e-003      38.726    0.990931   131.675
 2005.0000   0.990851    131.467     5.432380e-003      38.506     5.432380e-003      38.506    0.990851   131.467
 2005.5000   0.990769    131.257     5.544797e-003      38.284     5.544797e-003      38.284    0.990769   131.257
 2006.0000   0.990686    131.046     5.660017e-003      38.060     5.660017e-003      38.060    0.990686   131.046
 2006.5000   0.990602    130.832     5.778123e-003      37.834     5.778123e-003      37.834    0.990602   130.832
 2007.0000   0.990516    130.617     5.899201e-003      37.606     5.899201e-003      37.606    0.990516   130.617
 2007.5000   0.990430    130.399     6.023338e-003      37.376     6.023338e-003      37.376    0.990430   130.399
 2008.0000   0.990342    130.180     6.150624e-003      37.144     6.150624e-003      37.144    0.990342   130.180
 2008.5000   0.990253    129.959     6.281156e-003      36.909     6.281156e-003      36.909    0.990253   129.959
 2009.0000   0.990162    129.735     6.415029e-003      36.673     6.415029e-003      36.673    0.990162   129.735
 2009.5000   0.990070    129.510     6.552345e-003      36.434     6.552345e-003      36.434    0.990070   129.510
 2010.0000   0.989977    129.282     6.693208e-003      36.193     6.693208e-003      36.193    0.989977   129.282
 2010.5000   0.989882    129.052     6.837726e-003      35.950     6.837726e-003      35.950    0.989882   129.052
 2011.0000   0.989786    128.820     6.986011e-003      35.704     6.986011e-003      35.704    0.989786   128.820
 2011.5000   0.989688    128.586     7.138178e-003      35.457     7.138178e-003      35.457    0.989688   128.586
 2012.0000   0.989589    128.350     7.294349e-003      35.206     7.294349e-003      35.206    0.989589   128.350
 2012.5000   0.989488    128.111     7.454645e-003      34.954     7.454645e-003      34.954    0.989488   128.111
 2013.0000   0.989386    127.870     7.619198e-003      34.698     7.619198e-003      34.698    0.989386   127.870
 2013.5000   0.989282    127.627     7.788139e-003      34.441     7.788139e-003      34.441    0.989282   127.627
 2014.0000   0.989176    127.381     7.961606e-003      34.181     7.961606e-003      34.181    0.989176   127.381
 2014.5000   0.989068    127.133     8.139744e-003      33.918     8.139744e-003      33.918    0.989068   127.133
 2015.0000   0.988959    126.883     8.322699e-003      33.653     8.322699e-003      33.653    0.988959   126.883
 2015.5000   0.988848    126.630     8.510627e-003      33.385     8.510627e-003      33.385    0.988848   126.630
 2016.0000   0.988735    126.374     8.703687e-003      33.114     8.703687e-003      33.114    0.988735   126.374
 2016.5000   0.988621    126.116     8.902044e-003      32.841     8.902044e-003      32.841    0.988621   126.116
 2017.0000   0.988504    125.855     9.105869e-003      32.565     9.105869e-003      32.565    0.988504   125.855
 2017.5000   0.988385    125.592     9.315342e-003      32.286     9.315342e-003      32.286    0.988385   125.592
 2018.0000   0.988265    125.326     9.530646e-003      32.004     9.530646e-003      32.004    0.988265   125.326
 2018.5000   0.988142    125.057     9.751974e-003      31.719     9.751974e-003      31.719    0.988142   125.057
 2019.0000   0.988017    124.785     9.979525e-003      31.431     9.979525e-003      31.431    0.988017   124.785
 2019.5000   0.987890    124.511     1.021351e-002      31.141     1.021351e-002      31.141    0.987890   124.511
 2020.0000   0.987761    124.233     1.045413e-002      30.847     1.045413e-002      30.847    0.987761   124.233
 2020.5000   0.987629    123.953     1.070162e-002      30.550     1.070162e-002      30.550    0.987629   123.953
 2021.0000   0.987496    123.670     1.095621e-002      30.250     1.095621e-002      30.250    0.987496   123.670
 2021.5000   0.987359    123.383     1.121814e-002      29.947     1.121814e-002      29.947    0.987359   123.383
 2022.0000   0.987220    123.094     1.148767e-002      29.640     1.148767e-002      29.640    0.987220   123.094
 2022.5000   0.987079    122.801     1.176504e-002      29.330     1.176504e-002      29.330    0.987079   122.801
 2023.0000   0.986935    122.505     1.205053e-002      29.017     1.205053e-002      29.017    0.986935   122.505
 2023.5000   0.986788    122.206     1.234443e-002      28.700     1.234443e-002      28.700    0.986788   122.206
 2024.0000   0.986639    121.904     1.264702e-002      28.379     1.264702e-002      28.379    0.986639   121.904
 2024.5000   0.986486    121.598     1.295861e-002      28.055     1.295861e-002      28.055    0.986486   121.598
