!Port 1 is shunt  connected
!Port 2 is shunt  connected
!
!prototype= pole placed tchebycheff
!n=  5,  np= 0,  rl=  22.000dB
!
!transform= band pass
!f0= 2140.000MHz,  bw=  100.000MHz, q0=1150.000
!
!fstart= 1940.000MHz, fstep=    0.500MHz, fstop= 2340.000MHz
!
# MHZ S MA R 50
!Freq        Mag(S11)   Arg(S11)      Mag(S21)        Arg(S21)      Mag(S12)        Arg(S12)    Mag(S22)  Arg(S22)
 1940.0000   0.997205    148.831     6.385256e-004      57.385     6.385256e-004      57.385    0.997205   148.831
 1940.5000   0.997190    148.745     6.472471e-004      57.295     6.472471e-004      57.295    0.997190   148.745
 1941.0000   0.997175    148.658     6.561102e-004      57.204     6.561102e-004      57.204    0.997175   148.658
 1941.5000   0.997159    148.570     6.651174e-004      57.113     6.651174e-004      57.113    0.997159   148.570
 1942.0000   0.997144    148.483     6.742716e-004      57.022     6.742716e-004      57.022    0.997144   148.483
 1942.5000   0.997128    148.394     6.835754e-004      56.930     6.835754e-004      56.930    0.997128   148.394
 1943.0000   0.997113    148.305     6.930318e-004      56.837     6.930318e-004      56.837    0.997113   148.305
 1943.5000   0.997097    148.216     7.026437e-004      56.744     7.026437e-004      56.744    0.997097   148.216
 1944.0000   0.997081    148.126     7.124139e-004      56.650     7.124139e-004      56.650    0.997081   148.126
 1944.5000   0.997065    148.036     7.223457e-004      56.556     7.223457e-004      56.556    0.997065   148.036
 1945.0000   0.997048    147.945     7.324421e-004      56.462     7.324421e-004      56.462    0.997048   147.945
 1945.5000   0.997032    147.854     7.427062e-004      56.367     7.427062e-004      56.367    0.997032   147.854
 1946.0000   0.997015    147.762     7.531413e-004      56.271     7.531413e-004      56.271    0.997015   147.762
 1946.5000   0.996999    147.670     7.637507e-004      56.175     7.637507e-004      56.175    0.996999   147.670
 1947.0000   0.996982    147.577     7.745379e-004      56.078     7.745379e-004      56.078    0.996982   147.577
 1947.5000   0.996965    147.484     7.855062e-004      55.981     7.855062e-004      55.981    0.996965   147.484
 1948.0000   0.996948    147.390     7.966593e-004      55.883     7.966593e-004      55.883    0.996948   147.390
 1948.5000   0.996930    147.296     8.080008e-004      55.785     8.080008e-004      55.785    0.996930   147.296
 1949.0000   0.996913    147.201     8.195343e-004      55.686     8.195343e-004      55.686    0.996913   147.201
 1949.5000   0.996895    147.105     8.312636e-004      55.586     8.312636e-004      55.586    0.996895   147.105
 1950.0000   0.996878    147.009     8.431927e-004      55.486     8.431927e-004      55.486    0.996878   147.009
 1950.5000   0.996860    146.913     8.553255e-004      55.386     8.553255e-004      55.386    0.996860   146.913
 1951.0000   0.996842    146.816     8.676660e-004      55.285     8.676660e-004      55.285    0.996842   146.816
 1951.5000   0.996823    146.718     8.802184e-004      55.183     8.802184e-004      55.183    0.996823   146.718
 1952.0000   0.996805    146.620     8.929869e-004      55.080     8.929869e-004      55.080    0.996805   146.620
 1952.5000   0.996787    146.521     9.059760e-004      54.977     9.059760e-004      54.977    0.996787   146.521
 1953.0000   0.996768    146.422     9.191899e-004      54.874     9.191899e-004      54.874    0.996768   146.422
 1953.5000   0.996749    146.322     9.326332e-004      54.770     9.326332e-004      54.770    0.996749   146.322
 1954.0000   0.996730    146.221     9.463107e-004      54.665     9.463107e-004      54.665    0.996730   146.221
 1954.5000   0.996711    146.120     9.602270e-004      54.559     9.602270e-004      54.559    0.996711   146.120
 1955.0000   0.996691    146.018     9.743870e-004      54.453     9.743870e-004      54.453    0.996691   146.018
 1955.5000   0.996672    145.916     9.887958e-004      54.347     9.887958e-004      54.347    0.996672   145.916
 1956.0000   0.996652    145.813     1.003458e-003      54.239     1.003458e-003      54.239    0.996652   145.813
 1956.5000   0.996632    145.710     1.018380e-003      54.132     1.018380e-003      54.132    0.996632   145.710
 1957.0000   0.996612    145.605     1.033566e-003      54.023     1.033566e-003      54.023    0.996612   145.605
 1957.5000   0.996591    145.501     1.049021e-003      53.914     1.049021e-003      53.914    0.996591   145.501
 1958.0000   0.996571    145.395     1.064752e-003      53.804     1.064752e-003      53.804    0.996571   145.395
 1958.5000   0.996550    145.289     1.080764e-003      53.693     1.080764e-003      53.693    0.996550   145.289
 1959.0000   0.996529    145.183     1.097063e-003      53.582     1.097063e-003      53.582    0.996529   145.183
 1959.5000   0.996508    145.075     1.113655e-003      53.470     1.113655e-003      53.470    0.996508   145.075
 1960.0000   0.996487    144.967     1.130547e-003      53.358     1.130547e-003      53.358    0.996487   144.967
 1960.5000   0.996465    144.858     1.147743e-003      53.244     1.147743e-003      53.244    0.996465   144.858
 1961.0000   0.996444    144.749     1.165252e-003      53.130     1.165252e-003      53.130    0.996444   144.749
 1961.5000   0.996422    144.639     1.183079e-003      53.016     1.183079e-003      53.016    0.996422   144.639
 1962.0000   0.996400    144.528     1.201231e-003      52.900     1.201231e-003      52.900    0.996400   144.528
 1962.5000   0.996377    144.417     1.219715e-003      52.784     1.219715e-003      52.784    0.996377   144.417
 1963.0000   0.996355    144.305     1.238538e-003      52.667     1.238538e-003      52.667    0.996355   144.305
 1963.5000   0.996332    144.192     1.257709e-003      52.550     1.257709e-003      52.550    0.996332   144.192
 1964.0000   0.996309    144.079     1.277232e-003      52.432     1.277232e-003      52.432    0.996309   144.079
 1964.5000   0.996286    143.965     1.297118e-003      52.312     1.297118e-003      52.312    0.996286   143.965
 1965.0000   0.996262    143.850     1.317373e-003      52.193     1.317373e-003      52.193    0.996262   143.850
 1965.5000   0.996239    143.734     1.338006e-003      52.072     1.338006e-003      52.072    0.996239   143.734
 1966.0000   0.996215    143.618     1.359024e-003      51.951     1.359024e-003      51.951    0.996215   143.618
 1966.5000   0.996191    143.501     1.380436e-003      51.829     1.380436e-003      51.829    0.996191   143.501
 1967.0000   0.996166    143.383     1.402251e-003      51.706     1.402251e-003      51.706    0.996166   143.383
 1967.5000   0.996142    143.264     1.424477e-003      51.582     1.424477e-003      51.582    0.996142   143.264
 1968.0000   0.996117    143.145     1.447124e-003      51.458     1.447124e-003      51.458    0.996117   143.145
 1968.5000   0.996091    143.025     1.470201e-003      51.333     1.470201e-003      51.333    0.996091   143.025
 1969.0000   0.996066    142.904     1.493717e-003      51.206     1.493717e-003      51.206    0.996066   142.904
 1969.5000   0.996040    142.782     1.517683e-003      51.080     1.517683e-003      51.080    0.996040   142.782
 1970.0000   0.996015    142.659     1.542108e-003      50.952     1.542108e-003      50.952    0.996015   142.659
 1970.5000   0.995988    142.536     1.567002e-003      50.823     1.567002e-003      50.823    0.995988   142.536
 1971.0000   0.995962    142.412     1.592377e-003      50.694     1.592377e-003      50.694    0.995962   142.412
 1971.5000   0.995935    142.287     1.618242e-003      50.564     1.618242e-003      50.564    0.995935   142.287
 1972.0000   0.995908    142.161     1.644609e-003      50.432     1.644609e-003      50.432    0.995908   142.161
 1972.5000   0.995881    142.035     1.671490e-003      50.300     1.671490e-003      50.300    0.995881   142.035
 1973.0000   0.995853    141.907     1.698896e-003      50.168     1.698896e-003      50.168    0.995853   141.907
 1973.5000   0.995825    141.779     1.726839e-003      50.034     1.726839e-003      50.034    0.995825   141.779
 1974.0000   0.995797    141.650     1.755332e-003      49.899     1.755332e-003      49.899    0.995797   141.650
 1974.5000   0.995769    141.520     1.784387e-003      49.764     1.784387e-003      49.764    0.995769   141.520
 1975.0000   0.995740    141.389     1.814016e-003      49.627     1.814016e-003      49.627    0.995740   141.389
 1975.5000   0.995711    141.257     1.844234e-003      49.490     1.844234e-003      49.490    0.995711   141.257
 1976.0000   0.995682    141.124     1.875054e-003      49.351     1.875054e-003      49.351    0.995682   141.124
 1976.5000   0.995652    140.991     1.906490e-003      49.212     1.906490e-003      49.212    0.995652   140.991
 1977.0000   0.995622    140.856     1.938557e-003      49.072     1.938557e-003      49.072    0.995622   140.856
 1977.5000   0.995592    140.721     1.971269e-003      48.930     1.971269e-003      48.930    0.995592   140.721
 1978.0000   0.995561    140.584     2.004641e-003      48.788     2.004641e-003      48.788    0.995561   140.584
 1978.5000   0.995530    140.447     2.038689e-003      48.645     2.038689e-003      48.645    0.995530   140.447
 1979.0000   0.995499    140.308     2.073430e-003      48.500     2.073430e-003      48.500    0.995499   140.308
 1979.5000   0.995467    140.169     2.108879e-003      48.355     2.108879e-003      48.355    0.995467   140.169
 1980.0000   0.995435    140.029     2.145053e-003      48.209     2.145053e-003      48.209    0.995435   140.029
 1980.5000   0.995403    139.887     2.181971e-003      48.062     2.181971e-003      48.062    0.995403   139.887
 1981.0000   0.995370    139.745     2.219649e-003      47.913     2.219649e-003      47.913    0.995370   139.745
 1981.5000   0.995337    139.602     2.258106e-003      47.764     2.258106e-003      47.764    0.995337   139.602
 1982.0000   0.995303    139.458     2.297361e-003      47.613     2.297361e-003      47.613    0.995303   139.458
 1982.5000   0.995269    139.312     2.337434e-003      47.462     2.337434e-003      47.462    0.995269   139.312
 1983.0000   0.995235    139.166     2.378343e-003      47.309     2.378343e-003      47.309    0.995235   139.166
 1983.5000   0.995200    139.018     2.420111e-003      47.155     2.420111e-003      47.155    0.995200   139.018
 1984.0000   0.995165    138.870     2.462758e-003      47.000     2.462758e-003      47.000    0.995165   138.870
 1984.5000   0.995130    138.720     2.506305e-003      46.844     2.506305e-003      46.844    0.995130   138.720
 1985.0000   0.995094    138.569     2.550775e-003      46.687     2.550775e-003      46.687    0.995094   138.569
 1985.5000   0.995058    138.417     2.596190e-003      46.529     2.596190e-003      46.529    0.995058   138.417
 1986.0000   0.995021    138.264     2.642575e-003      46.369     2.642575e-003      46.369    0.995021   138.264
 1986.5000   0.994984    138.110     2.689954e-003      46.208     2.689954e-003      46.208    0.994984   138.110
 1987.0000   0.994946    137.955     2.738351e-003      46.046     2.738351e-003      46.046    0.994946   137.955
 1987.5000   0.994908    137.799     2.787792e-003      45.883     2.787792e-003      45.883    0.994908   137.799
 1988.0000   0.994870    137.641     2.838304e-003      45.719     2.838304e-003      45.719    0.994870   137.641
 1988.5000   0.994831    137.482     2.889914e-003      45.553     2.889914e-003      45.553    0.994831   137.482
 1989.0000   0.994792    137.322     2.942650e-003      45.386     2.942650e-003      45.386    0.994792   137.322
 1989.5000   0.994752    137.161     2.996540e-003      45.218     2.996540e-003      45.218    0.994752   137.161
 1990.0000   0.994711    136.998     3.051615e-003      45.049     3.051615e-003      45.049    0.994711   136.998
 1990.5000   0.994670    136.835     3.107904e-003      44.878     3.107904e-003      44.878    0.994670   136.835
 1991.0000   0.994629    136.670     3.165440e-003      44.706     3.165440e-003      44.706    0.994629   136.670
 1991.5000   0.994587    136.503     3.224254e-003      44.532     3.224254e-003      44.532    0.994587   136.503
 1992.0000   0.994545    136.336     3.284381e-003      44.358     3.284381e-003      44.358    0.994545   136.336
 1992.5000   0.994502    136.167     3.345853e-003      44.181     3.345853e-003      44.181    0.994502   136.167
 1993.0000   0.994458    135.997     3.408708e-003      44.004     3.408708e-003      44.004    0.994458   135.997
 1993.5000   0.994414    135.825     3.472981e-003      43.825     3.472981e-003      43.825    0.994414   135.825
 1994.0000   0.994370    135.652     3.538709e-003      43.645     3.538709e-003      43.645    0.994370   135.652
 1994.5000   0.994325    135.478     3.605932e-003      43.463     3.605932e-003      43.463    0.994325   135.478
 1995.0000   0.994279    135.302     3.674690e-003      43.279     3.674690e-003      43.279    0.994279   135.302
 1995.5000   0.994233    135.125     3.745023e-003      43.095     3.745023e-003      43.095    0.994233   135.125
 1996.0000   0.994186    134.946     3.816974e-003      42.908     3.816974e-003      42.908    0.994186   134.946
 1996.5000   0.994138    134.766     3.890586e-003      42.721     3.890586e-003      42.721    0.994138   134.766
 1997.0000   0.994090    134.585     3.965906e-003      42.531     3.965906e-003      42.531    0.994090   134.585
 1997.5000   0.994041    134.402     4.042979e-003      42.340     4.042979e-003      42.340    0.994041   134.402
 1998.0000   0.993992    134.217     4.121853e-003      42.148     4.121853e-003      42.148    0.993992   134.217
 1998.5000   0.993942    134.031     4.202578e-003      41.954     4.202578e-003      41.954    0.993942   134.031
 1999.0000   0.993891    133.844     4.285205e-003      41.758     4.285205e-003      41.758    0.993891   133.844
 1999.5000   0.993840    133.655     4.369786e-003      41.561     4.369786e-003      41.561    0.993840   133.655
 2000.0000   0.993788    133.464     4.456376e-003      41.362     4.456376e-003      41.362    0.993788   133.464
 2000.5000   0.993735    133.272     4.545031e-003      41.161     4.545031e-003      41.161    0.993735   133.272
 2001.0000   0.993681    133.078     4.635809e-003      40.959     4.635809e-003      40.959    0.993681   133.078
 2001.5000   0.993627    132.882     4.728770e-003      40.755     4.728770e-003      40.755    0.993627   132.882
 2002.0000   0.993572    132.685     4.823975e-003      40.549     4.823975e-003      40.549    0.993572   132.685
 2002.5000   0.993516    132.486     4.921489e-003      40.341     4.921489e-003      40.341    0.993516   132.486
 2003.0000   0.993460    132.285     5.021376e-003      40.132     5.021376e-003      40.132    0.993460   132.285
 2003.5000   0.993402    132.082     5.123706e-003      39.921     5.123706e-003      39.921    0.993402   132.082
 2004.0000   0.993344    131.878     5.228548e-003      39.708     5.228548e-003      39.708    0.993344   131.878
 2004.5000   0.993285    131.672     5.335975e-003      39.493     5.335975e-003      39.493    0.993285   131.672
 2005.0000   0.993225    131.464     5.446062e-003      39.276     5.446062e-003      39.276    0.993225   131.464
 2005.5000   0.993164    131.254     5.558887e-003      39.057     5.558887e-003      39.057    0.993164   131.254
 2006.0000   0.993103    131.043     5.674529e-003      38.836     5.674529e-003      38.836    0.993103   131.043
 2006.5000   0.993040    130.829     5.793072e-003      38.613     5.793072e-003      38.613    0.993040   130.829
 2007.0000   0.992977    130.614     5.914601e-003      38.389     5.914601e-003      38.389    0.992977   130.614
 2007.5000   0.992912    130.396     6.039206e-003      38.162     6.039206e-003      38.162    0.992912   130.396
 2008.0000   0.992847    130.177     6.166977e-003      37.933     6.166977e-003      37.933    0.992847   130.177
 2008.5000   0.992781    129.956     6.298010e-003      37.702     6.298010e-003      37.702    0.992781   129.956
 2009.0000   0.992713    129.732     6.432402e-003      37.469     6.432402e-003      37.469    0.992713   129.732
 2009.5000   0.992645    129.507     6.570256e-003      37.233     6.570256e-003      37.233    0.992645   129.507
 2010.0000   0.992575    129.279     6.711676e-003      36.996     6.711676e-003      36.996    0.992575   129.279
 2010.5000   0.992505    129.049     6.856771e-003      36.756     6.856771e-003      36.756    0.992505   129.049
 2011.0000   0.992433    128.817     7.005654e-003      36.514     7.005654e-003      36.514    0.992433   128.817
 2011.5000   0.992361    128.583     7.158441e-003      36.270     7.158441e-003      36.270    0.992361   128.583
 2012.0000   0.992287    128.347     7.315254e-003      36.023     7.315254e-003      36.023    0.992287   128.347
 2012.5000   0.992212    128.108     7.476216e-003      35.774     7.476216e-003      35.774    0.992212   128.108
 2013.0000   0.992135    127.867     7.641459e-003      35.522     7.641459e-003      35.522    0.992135   127.867
 2013.5000   0.992058    127.624     7.811116e-003      35.269     7.811116e-003      35.269    0.992058   127.624
 2014.0000   0.991979    127.378     7.985327e-003      35.012     7.985327e-003      35.012    0.991979   127.378
 2014.5000   0.991899    127.130     8.164235e-003      34.753     8.164235e-003      34.753    0.991899   127.130
 2015.0000   0.991818    126.879     8.347991e-003      34.492     8.347991e-003      34.492    0.991818   126.879
 2015.5000   0.991735    126.626     8.536749e-003      34.228     8.536749e-003      34.228    0.991735   126.626
 2016.0000   0.991651    126.370     8.730671e-003      33.961     8.730671e-003      33.961    0.991651   126.370
 2016.5000   0.991565    126.112     8.929923e-003      33.691     8.929923e-003      33.691    0.991565   126.112
 2017.0000   0.991479    125.851     9.134678e-003      33.419     9.134678e-003      33.419    0.991479   125.851
 2017.5000   0.991390    125.588     9.345116e-003      33.144     9.345116e-003      33.144    0.991390   125.588
 2018.0000   0.991300    125.322     9.561423e-003      32.866     9.561423e-003      32.866    0.991300   125.322
 2018.5000   0.991208    125.053     9.783794e-003      32.586     9.783794e-003      32.586    0.991208   125.053
 2019.0000   0.991115    124.781     1.001243e-002      32.302     1.001243e-002      32.302    0.991115   124.781
 2019.5000   0.991020    124.507     1.024753e-002      32.016     1.024753e-002      32.016    0.991020   124.507
 2020.0000   0.990924    124.229     1.048933e-002      31.726     1.048933e-002      31.726    0.990924   124.229
 2020.5000   0.990826    123.949     1.073804e-002      31.433     1.073804e-002      31.433    0.990826   123.949
 2021.0000   0.990726    123.665     1.099390e-002      31.137     1.099390e-002      31.137    0.990726   123.665
 2021.5000   0.990624    123.379     1.125715e-002      30.838     1.125715e-002      30.838    0.990624   123.379
 2022.0000   0.990520    123.089     1.152804e-002      30.536     1.152804e-002      30.536    0.990520   123.089
 2022.5000   0.990414    122.797     1.180684e-002      30.231     1.180684e-002      30.231    0.990414   122.797
 2023.0000   0.990306    122.501     1.209382e-002      29.922     1.209382e-002      29.922    0.990306   122.501
 2023.5000   0.990197    122.201     1.238927e-002      29.610     1.238927e-002      29.610    0.990197   122.201
 2024.0000   0.990085    121.899     1.269347e-002      29.294     1.269347e-002      29.294    0.990085   121.899
 2024.5000   0.989970    121.593     1.300675e-002      28.974     1.300675e-002      28.974    0.989970   121.593
