!Port 1 is shunt  connected
!Port 2 is shunt  connected
!
!prototype= pole placed tchebycheff
!n=  5,  np= 0,  rl=  18.000dB
!
!transform= band pass
!f0= 2140.000MHz,  bw=  100.000MHz, q0=1000.000
!
!fstart= 1940.000MHz, fstep=    0.500MHz, fstop= 2340.000MHz
!
# MHZ S MA R 50
!Freq        Mag(S11)   Arg(S11)      Mag(S21)        Arg(S21)      Mag(S12)        Arg(S12)    Mag(S22)  Arg(S22)
 1940.0000   0.997306    153.812     4.009767e-004      62.149     4.009767e-004      62.149    0.997306   153.812
 1940.5000   0.997291    153.739     4.064538e-004      62.072     4.064538e-004      62.072    0.997291   153.739
 1941.0000   0.997276    153.667     4.120198e-004      61.995     4.120198e-004      61.995    0.997276   153.667
 1941.5000   0.997262    153.593     4.176763e-004      61.918     4.176763e-004      61.918    0.997262   153.593
 1942.0000   0.997247    153.520     4.234250e-004      61.840     4.234250e-004      61.840    0.997247   153.520
 1942.5000   0.997232    153.446     4.292678e-004      61.761     4.292678e-004      61.761    0.997232   153.446
 1943.0000   0.997217    153.371     4.352064e-004      61.683     4.352064e-004      61.683    0.997217   153.371
 1943.5000   0.997202    153.297     4.412427e-004      61.604     4.412427e-004      61.604    0.997202   153.297
 1944.0000   0.997186    153.221     4.473784e-004      61.524     4.473784e-004      61.524    0.997186   153.221
 1944.5000   0.997171    153.146     4.536156e-004      61.444     4.536156e-004      61.444    0.997171   153.146
 1945.0000   0.997155    153.070     4.599561e-004      61.364     4.599561e-004      61.364    0.997155   153.070
 1945.5000   0.997139    152.993     4.664019e-004      61.283     4.664019e-004      61.283    0.997139   152.993
 1946.0000   0.997123    152.916     4.729552e-004      61.201     4.729552e-004      61.201    0.997123   152.916
 1946.5000   0.997107    152.839     4.796180e-004      61.119     4.796180e-004      61.119    0.997107   152.839
 1947.0000   0.997091    152.761     4.863923e-004      61.037     4.863923e-004      61.037    0.997091   152.761
 1947.5000   0.997075    152.683     4.932805e-004      60.954     4.932805e-004      60.954    0.997075   152.683
 1948.0000   0.997059    152.604     5.002846e-004      60.871     5.002846e-004      60.871    0.997059   152.604
 1948.5000   0.997042    152.525     5.074071e-004      60.788     5.074071e-004      60.788    0.997042   152.525
 1949.0000   0.997025    152.446     5.146502e-004      60.703     5.146502e-004      60.703    0.997025   152.446
 1949.5000   0.997008    152.366     5.220163e-004      60.619     5.220163e-004      60.619    0.997008   152.366
 1950.0000   0.996991    152.285     5.295078e-004      60.534     5.295078e-004      60.534    0.996991   152.285
 1950.5000   0.996974    152.204     5.371273e-004      60.448     5.371273e-004      60.448    0.996974   152.204
 1951.0000   0.996957    152.123     5.448772e-004      60.362     5.448772e-004      60.362    0.996957   152.123
 1951.5000   0.996939    152.041     5.527602e-004      60.275     5.527602e-004      60.275    0.996939   152.041
 1952.0000   0.996922    151.959     5.607790e-004      60.188     5.607790e-004      60.188    0.996922   151.959
 1952.5000   0.996904    151.876     5.689362e-004      60.101     5.689362e-004      60.101    0.996904   151.876
 1953.0000   0.996886    151.793     5.772347e-004      60.013     5.772347e-004      60.013    0.996886   151.793
 1953.5000   0.996868    151.709     5.856772e-004      59.924     5.856772e-004      59.924    0.996868   151.709
 1954.0000   0.996849    151.625     5.942668e-004      59.835     5.942668e-004      59.835    0.996849   151.625
 1954.5000   0.996831    151.540     6.030064e-004      59.745     6.030064e-004      59.745    0.996831   151.540
 1955.0000   0.996812    151.455     6.118991e-004      59.655     6.118991e-004      59.655    0.996812   151.455
 1955.5000   0.996794    151.369     6.209480e-004      59.565     6.209480e-004      59.565    0.996794   151.369
 1956.0000   0.996775    151.283     6.301562e-004      59.473     6.301562e-004      59.473    0.996775   151.283
 1956.5000   0.996756    151.196     6.395271e-004      59.381     6.395271e-004      59.381    0.996756   151.196
 1957.0000   0.996736    151.109     6.490640e-004      59.289     6.490640e-004      59.289    0.996736   151.109
 1957.5000   0.996717    151.021     6.587704e-004      59.196     6.587704e-004      59.196    0.996717   151.021
 1958.0000   0.996697    150.933     6.686497e-004      59.103     6.686497e-004      59.103    0.996697   150.933
 1958.5000   0.996677    150.844     6.787056e-004      59.009     6.787056e-004      59.009    0.996677   150.844
 1959.0000   0.996657    150.755     6.889417e-004      58.914     6.889417e-004      58.914    0.996657   150.755
 1959.5000   0.996637    150.665     6.993618e-004      58.819     6.993618e-004      58.819    0.996637   150.665
 1960.0000   0.996617    150.574     7.099698e-004      58.723     7.099698e-004      58.723    0.996617   150.574
 1960.5000   0.996596    150.483     7.207696e-004      58.627     7.207696e-004      58.627    0.996596   150.483
 1961.0000   0.996575    150.392     7.317652e-004      58.530     7.317652e-004      58.530    0.996575   150.392
 1961.5000   0.996554    150.300     7.429609e-004      58.433     7.429609e-004      58.433    0.996554   150.300
 1962.0000   0.996533    150.207     7.543609e-004      58.335     7.543609e-004      58.335    0.996533   150.207
 1962.5000   0.996512    150.114     7.659694e-004      58.236     7.659694e-004      58.236    0.996512   150.114
 1963.0000   0.996490    150.020     7.777910e-004      58.137     7.777910e-004      58.137    0.996490   150.020
 1963.5000   0.996468    149.926     7.898303e-004      58.037     7.898303e-004      58.037    0.996468   149.926
 1964.0000   0.996446    149.831     8.020918e-004      57.936     8.020918e-004      57.936    0.996446   149.831
 1964.5000   0.996424    149.735     8.145805e-004      57.835     8.145805e-004      57.835    0.996424   149.735
 1965.0000   0.996401    149.639     8.273012e-004      57.733     8.273012e-004      57.733    0.996401   149.639
 1965.5000   0.996379    149.542     8.402589e-004      57.631     8.402589e-004      57.631    0.996379   149.542
 1966.0000   0.996356    149.445     8.534588e-004      57.528     8.534588e-004      57.528    0.996356   149.445
 1966.5000   0.996333    149.347     8.669063e-004      57.424     8.669063e-004      57.424    0.996333   149.347
 1967.0000   0.996309    149.248     8.806067e-004      57.319     8.806067e-004      57.319    0.996309   149.248
 1967.5000   0.996286    149.149     8.945655e-004      57.214     8.945655e-004      57.214    0.996286   149.149
 1968.0000   0.996262    149.049     9.087885e-004      57.109     9.087885e-004      57.109    0.996262   149.049
 1968.5000   0.996238    148.948     9.232816e-004      57.002     9.232816e-004      57.002    0.996238   148.948
 1969.0000   0.996214    148.847     9.380507e-004      56.895     9.380507e-004      56.895    0.996214   148.847
 1969.5000   0.996189    148.745     9.531019e-004      56.787     9.531019e-004      56.787    0.996189   148.745
 1970.0000   0.996164    148.642     9.684416e-004      56.679     9.684416e-004      56.679    0.996164   148.642
 1970.5000   0.996139    148.539     9.840762e-004      56.569     9.840762e-004      56.569    0.996139   148.539
 1971.0000   0.996114    148.435     1.000012e-003      56.459     1.000012e-003      56.459    0.996114   148.435
 1971.5000   0.996088    148.331     1.016257e-003      56.349     1.016257e-003      56.349    0.996088   148.331
 1972.0000   0.996063    148.226     1.032817e-003      56.237     1.032817e-003      56.237    0.996063   148.226
 1972.5000   0.996037    148.120     1.049699e-003      56.125     1.049699e-003      56.125    0.996037   148.120
 1973.0000   0.996010    148.013     1.066911e-003      56.012     1.066911e-003      56.012    0.996010   148.013
 1973.5000   0.995984    147.906     1.084461e-003      55.899     1.084461e-003      55.899    0.995984   147.906
 1974.0000   0.995957    147.797     1.102355e-003      55.784     1.102355e-003      55.784    0.995957   147.797
 1974.5000   0.995929    147.689     1.120603e-003      55.669     1.120603e-003      55.669    0.995929   147.689
 1975.0000   0.995902    147.579     1.139212e-003      55.553     1.139212e-003      55.553    0.995902   147.579
 1975.5000   0.995874    147.469     1.158190e-003      55.436     1.158190e-003      55.436    0.995874   147.469
 1976.0000   0.995846    147.358     1.177546e-003      55.319     1.177546e-003      55.319    0.995846   147.358
 1976.5000   0.995818    147.246     1.197290e-003      55.200     1.197290e-003      55.200    0.995818   147.246
 1977.0000   0.995789    147.133     1.217429e-003      55.081     1.217429e-003      55.081    0.995789   147.133
 1977.5000   0.995760    147.020     1.237974e-003      54.961     1.237974e-003      54.961    0.995760   147.020
 1978.0000   0.995731    146.906     1.258933e-003      54.840     1.258933e-003      54.840    0.995731   146.906
 1978.5000   0.995701    146.791     1.280318e-003      54.719     1.280318e-003      54.719    0.995701   146.791
 1979.0000   0.995671    146.675     1.302136e-003      54.596     1.302136e-003      54.596    0.995671   146.675
 1979.5000   0.995641    146.559     1.324400e-003      54.473     1.324400e-003      54.473    0.995641   146.559
 1980.0000   0.995611    146.442     1.347120e-003      54.349     1.347120e-003      54.349    0.995611   146.442
 1980.5000   0.995580    146.323     1.370306e-003      54.224     1.370306e-003      54.224    0.995580   146.323
 1981.0000   0.995548    146.204     1.393970e-003      54.098     1.393970e-003      54.098    0.995548   146.204
 1981.5000   0.995517    146.085     1.418124e-003      53.971     1.418124e-003      53.971    0.995517   146.085
 1982.0000   0.995485    145.964     1.442779e-003      53.843     1.442779e-003      53.843    0.995485   145.964
 1982.5000   0.995453    145.842     1.467947e-003      53.714     1.467947e-003      53.714    0.995453   145.842
 1983.0000   0.995420    145.720     1.493641e-003      53.585     1.493641e-003      53.585    0.995420   145.720
 1983.5000   0.995387    145.597     1.519874e-003      53.454     1.519874e-003      53.454    0.995387   145.597
 1984.0000   0.995353    145.472     1.546659e-003      53.323     1.546659e-003      53.323    0.995353   145.472
 1984.5000   0.995320    145.347     1.574009e-003      53.190     1.574009e-003      53.190    0.995320   145.347
 1985.0000   0.995285    145.221     1.601940e-003      53.057     1.601940e-003      53.057    0.995285   145.221
 1985.5000   0.995251    145.094     1.630464e-003      52.922     1.630464e-003      52.922    0.995251   145.094
 1986.0000   0.995216    144.966     1.659597e-003      52.787     1.659597e-003      52.787    0.995216   144.966
 1986.5000   0.995181    144.838     1.689355e-003      52.650     1.689355e-003      52.650    0.995181   144.838
 1987.0000   0.995145    144.708     1.719752e-003      52.513     1.719752e-003      52.513    0.995145   144.708
 1987.5000   0.995109    144.577     1.750805e-003      52.374     1.750805e-003      52.374    0.995109   144.577
 1988.0000   0.995072    144.445     1.782531e-003      52.235     1.782531e-003      52.235    0.995072   144.445
 1988.5000   0.995035    144.313     1.814946e-003      52.094     1.814946e-003      52.094    0.995035   144.313
 1989.0000   0.994997    144.179     1.848068e-003      51.953     1.848068e-003      51.953    0.994997   144.179
 1989.5000   0.994959    144.044     1.881916e-003      51.810     1.881916e-003      51.810    0.994959   144.044
 1990.0000   0.994921    143.909     1.916508e-003      51.666     1.916508e-003      51.666    0.994921   143.909
 1990.5000   0.994882    143.772     1.951863e-003      51.522     1.951863e-003      51.522    0.994882   143.772
 1991.0000   0.994843    143.634     1.988001e-003      51.376     1.988001e-003      51.376    0.994843   143.634
 1991.5000   0.994803    143.495     2.024942e-003      51.228     2.024942e-003      51.228    0.994803   143.495
 1992.0000   0.994763    143.355     2.062707e-003      51.080     2.062707e-003      51.080    0.994763   143.355
 1992.5000   0.994722    143.214     2.101318e-003      50.931     2.101318e-003      50.931    0.994722   143.214
 1993.0000   0.994681    143.072     2.140796e-003      50.780     2.140796e-003      50.780    0.994681   143.072
 1993.5000   0.994639    142.929     2.181166e-003      50.628     2.181166e-003      50.628    0.994639   142.929
 1994.0000   0.994596    142.784     2.222451e-003      50.475     2.222451e-003      50.475    0.994596   142.784
 1994.5000   0.994554    142.639     2.264674e-003      50.321     2.264674e-003      50.321    0.994554   142.639
 1995.0000   0.994510    142.492     2.307861e-003      50.166     2.307861e-003      50.166    0.994510   142.492
 1995.5000   0.994466    142.344     2.352038e-003      50.009     2.352038e-003      50.009    0.994466   142.344
 1996.0000   0.994422    142.195     2.397231e-003      49.851     2.397231e-003      49.851    0.994422   142.195
 1996.5000   0.994377    142.045     2.443469e-003      49.692     2.443469e-003      49.692    0.994377   142.045
 1997.0000   0.994331    141.893     2.490778e-003      49.532     2.490778e-003      49.532    0.994331   141.893
 1997.5000   0.994285    141.740     2.539189e-003      49.370     2.539189e-003      49.370    0.994285   141.740
 1998.0000   0.994238    141.586     2.588732e-003      49.207     2.588732e-003      49.207    0.994238   141.586
 1998.5000   0.994190    141.431     2.639437e-003      49.042     2.639437e-003      49.042    0.994190   141.431
 1999.0000   0.994142    141.275     2.691337e-003      48.876     2.691337e-003      48.876    0.994142   141.275
 1999.5000   0.994094    141.117     2.744466e-003      48.709     2.744466e-003      48.709    0.994094   141.117
 2000.0000   0.994044    140.958     2.798856e-003      48.541     2.798856e-003      48.541    0.994044   140.958
 2000.5000   0.993994    140.797     2.854543e-003      48.371     2.854543e-003      48.371    0.993994   140.797
 2001.0000   0.993944    140.635     2.911564e-003      48.199     2.911564e-003      48.199    0.993944   140.635
 2001.5000   0.993892    140.472     2.969957e-003      48.026     2.969957e-003      48.026    0.993892   140.472
 2002.0000   0.993840    140.308     3.029760e-003      47.852     3.029760e-003      47.852    0.993840   140.308
 2002.5000   0.993787    140.142     3.091012e-003      47.676     3.091012e-003      47.676    0.993787   140.142
 2003.0000   0.993734    139.974     3.153757e-003      47.499     3.153757e-003      47.499    0.993734   139.974
 2003.5000   0.993680    139.805     3.218036e-003      47.320     3.218036e-003      47.320    0.993680   139.805
 2004.0000   0.993625    139.635     3.283893e-003      47.139     3.283893e-003      47.139    0.993625   139.635
 2004.5000   0.993569    139.463     3.351374e-003      46.957     3.351374e-003      46.957    0.993569   139.463
 2005.0000   0.993512    139.290     3.420527e-003      46.773     3.420527e-003      46.773    0.993512   139.290
 2005.5000   0.993455    139.115     3.491400e-003      46.588     3.491400e-003      46.588    0.993455   139.115
 2006.0000   0.993397    138.939     3.564043e-003      46.401     3.564043e-003      46.401    0.993397   138.939
 2006.5000   0.993338    138.761     3.638509e-003      46.213     3.638509e-003      46.213    0.993338   138.761
 2007.0000   0.993278    138.581     3.714851e-003      46.022     3.714851e-003      46.022    0.993278   138.581
 2007.5000   0.993218    138.400     3.793125e-003      45.830     3.793125e-003      45.830    0.993218   138.400
 2008.0000   0.993156    138.217     3.873389e-003      45.637     3.873389e-003      45.637    0.993156   138.217
 2008.5000   0.993094    138.033     3.955703e-003      45.441     3.955703e-003      45.441    0.993094   138.033
 2009.0000   0.993030    137.847     4.040128e-003      45.244     4.040128e-003      45.244    0.993030   137.847
 2009.5000   0.992966    137.659     4.126727e-003      45.045     4.126727e-003      45.045    0.992966   137.659
 2010.0000   0.992901    137.469     4.215568e-003      44.844     4.215568e-003      44.844    0.992901   137.469
 2010.5000   0.992835    137.278     4.306718e-003      44.641     4.306718e-003      44.641    0.992835   137.278
 2011.0000   0.992767    137.085     4.400248e-003      44.436     4.400248e-003      44.436    0.992767   137.085
 2011.5000   0.992699    136.890     4.496231e-003      44.230     4.496231e-003      44.230    0.992699   136.890
 2012.0000   0.992630    136.693     4.594745e-003      44.021     4.594745e-003      44.021    0.992630   136.693
 2012.5000   0.992559    136.494     4.695866e-003      43.810     4.695866e-003      43.810    0.992559   136.494
 2013.0000   0.992488    136.294     4.799677e-003      43.598     4.799677e-003      43.598    0.992488   136.294
 2013.5000   0.992416    136.091     4.906262e-003      43.383     4.906262e-003      43.383    0.992416   136.091
 2014.0000   0.992342    135.887     5.015709e-003      43.166     5.015709e-003      43.166    0.992342   135.887
 2014.5000   0.992267    135.680     5.128108e-003      42.947     5.128108e-003      42.947    0.992267   135.680
 2015.0000   0.992191    135.472     5.243554e-003      42.726     5.243554e-003      42.726    0.992191   135.472
 2015.5000   0.992114    135.261     5.362144e-003      42.503     5.362144e-003      42.503    0.992114   135.261
 2016.0000   0.992035    135.049     5.483978e-003      42.278     5.483978e-003      42.278    0.992035   135.049
 2016.5000   0.991956    134.834     5.609163e-003      42.050     5.609163e-003      42.050    0.991956   134.834
 2017.0000   0.991874    134.617     5.737807e-003      41.820     5.737807e-003      41.820    0.991874   134.617
 2017.5000   0.991792    134.398     5.870023e-003      41.588     5.870023e-003      41.588    0.991792   134.398
 2018.0000   0.991708    134.177     6.005928e-003      41.353     6.005928e-003      41.353    0.991708   134.177
 2018.5000   0.991623    133.954     6.145644e-003      41.116     6.145644e-003      41.116    0.991623   133.954
 2019.0000   0.991537    133.728     6.289298e-003      40.877     6.289298e-003      40.877    0.991537   133.728
 2019.5000   0.991449    133.500     6.437020e-003      40.635     6.437020e-003      40.635    0.991449   133.500
 2020.0000   0.991359    133.269     6.588946e-003      40.390     6.588946e-003      40.390    0.991359   133.269
 2020.5000   0.991268    133.036     6.745220e-003      40.143     6.745220e-003      40.143    0.991268   133.036
 2021.0000   0.991175    132.801     6.905987e-003      39.894     6.905987e-003      39.894    0.991175   132.801
 2021.5000   0.991081    132.563     7.071401e-003      39.642     7.071401e-003      39.642    0.991081   132.563
 2022.0000   0.990985    132.323     7.241621e-003      39.387     7.241621e-003      39.387    0.990985   132.323
 2022.5000   0.990887    132.080     7.416812e-003      39.129     7.416812e-003      39.129    0.990887   132.080
 2023.0000   0.990788    131.834     7.597146e-003      38.868     7.597146e-003      38.868    0.990788   131.834
 2023.5000   0.990687    131.586     7.782802e-003      38.605     7.782802e-003      38.605    0.990687   131.586
 2024.0000   0.990584    131.335     7.973966e-003      38.339     7.973966e-003      38.339    0.990584   131.335
 2024.5000   0.990479    131.081     8.170832e-003      38.070     8.170832e-003      38.070    0.990479   131.081
