!Port 1 is shunt  connected
!Port 2 is shunt  connected
!
!prototype= pole placed tchebycheff
!n=  5,  np= 0,  rl=  22.000dB
!
!transform= band pass
!f0= 2140.000MHz,  bw=  100.000MHz, q0= 800.000
!
!fstart= 1940.000MHz, fstep=    0.500MHz, fstop= 2340.000MHz
!
# MHZ S MA R 50
!Freq        Mag(S11)   Arg(S11)      Mag(S21)        Arg(S21)      Mag(S12)        Arg(S12)    Mag(S22)  Arg(S22)
 1940.0000   0.995985    148.832     6.377042e-004      56.753     6.377042e-004      56.753    0.995985   148.832
 1940.5000   0.995963    148.745     6.464100e-004      56.661     6.464100e-004      56.661    0.995963   148.745
 1941.0000   0.995941    148.659     6.552570e-004      56.569     6.552570e-004      56.569    0.995941   148.659
 1941.5000   0.995919    148.571     6.642479e-004      56.476     6.642479e-004      56.476    0.995919   148.571
 1942.0000   0.995897    148.483     6.733852e-004      56.383     6.733852e-004      56.383    0.995897   148.483
 1942.5000   0.995875    148.395     6.826719e-004      56.290     6.826719e-004      56.290    0.995875   148.395
 1943.0000   0.995852    148.306     6.921108e-004      56.196     6.921108e-004      56.196    0.995852   148.306
 1943.5000   0.995830    148.217     7.017047e-004      56.101     7.017047e-004      56.101    0.995830   148.217
 1944.0000   0.995807    148.127     7.114567e-004      56.006     7.114567e-004      56.006    0.995807   148.127
 1944.5000   0.995783    148.037     7.213698e-004      55.910     7.213698e-004      55.910    0.995783   148.037
 1945.0000   0.995760    147.946     7.314470e-004      55.814     7.314470e-004      55.814    0.995760   147.946
 1945.5000   0.995736    147.855     7.416915e-004      55.717     7.416915e-004      55.717    0.995736   147.855
 1946.0000   0.995713    147.763     7.521066e-004      55.620     7.521066e-004      55.620    0.995713   147.763
 1946.5000   0.995689    147.671     7.626956e-004      55.522     7.626956e-004      55.522    0.995689   147.671
 1947.0000   0.995665    147.578     7.734619e-004      55.423     7.734619e-004      55.423    0.995665   147.578
 1947.5000   0.995640    147.485     7.844088e-004      55.324     7.844088e-004      55.324    0.995640   147.485
 1948.0000   0.995616    147.391     7.955400e-004      55.225     7.955400e-004      55.225    0.995616   147.391
 1948.5000   0.995591    147.297     8.068591e-004      55.125     8.068591e-004      55.125    0.995591   147.297
 1949.0000   0.995566    147.202     8.183697e-004      55.024     8.183697e-004      55.024    0.995566   147.202
 1949.5000   0.995541    147.106     8.300757e-004      54.923     8.300757e-004      54.923    0.995541   147.106
 1950.0000   0.995515    147.010     8.419808e-004      54.821     8.419808e-004      54.821    0.995515   147.010
 1950.5000   0.995489    146.914     8.540891e-004      54.719     8.540891e-004      54.719    0.995489   146.914
 1951.0000   0.995463    146.817     8.664045e-004      54.616     8.664045e-004      54.616    0.995463   146.817
 1951.5000   0.995437    146.719     8.789313e-004      54.512     8.789313e-004      54.512    0.995437   146.719
 1952.0000   0.995411    146.621     8.916736e-004      54.408     8.916736e-004      54.408    0.995411   146.621
 1952.5000   0.995384    146.522     9.046357e-004      54.303     9.046357e-004      54.303    0.995384   146.522
 1953.0000   0.995357    146.423     9.178222e-004      54.198     9.178222e-004      54.198    0.995357   146.423
 1953.5000   0.995330    146.323     9.312374e-004      54.092     9.312374e-004      54.092    0.995330   146.323
 1954.0000   0.995303    146.222     9.448861e-004      53.985     9.448861e-004      53.985    0.995303   146.222
 1954.5000   0.995275    146.121     9.587729e-004      53.878     9.587729e-004      53.878    0.995275   146.121
 1955.0000   0.995247    146.020     9.729028e-004      53.770     9.729028e-004      53.770    0.995247   146.020
 1955.5000   0.995219    145.917     9.872806e-004      53.661     9.872806e-004      53.661    0.995219   145.917
 1956.0000   0.995191    145.814     1.001912e-003      53.552     1.001912e-003      53.552    0.995191   145.814
 1956.5000   0.995162    145.711     1.016801e-003      53.442     1.016801e-003      53.442    0.995162   145.711
 1957.0000   0.995133    145.607     1.031953e-003      53.332     1.031953e-003      53.332    0.995133   145.607
 1957.5000   0.995104    145.502     1.047375e-003      53.221     1.047375e-003      53.221    0.995104   145.502
 1958.0000   0.995075    145.396     1.063071e-003      53.109     1.063071e-003      53.109    0.995075   145.396
 1958.5000   0.995045    145.290     1.079048e-003      52.996     1.079048e-003      52.996    0.995045   145.290
 1959.0000   0.995015    145.184     1.095310e-003      52.883     1.095310e-003      52.883    0.995015   145.184
 1959.5000   0.994985    145.076     1.111865e-003      52.769     1.111865e-003      52.769    0.994985   145.076
 1960.0000   0.994954    144.968     1.128718e-003      52.655     1.128718e-003      52.655    0.994954   144.968
 1960.5000   0.994923    144.860     1.145875e-003      52.539     1.145875e-003      52.539    0.994923   144.860
 1961.0000   0.994892    144.750     1.163344e-003      52.423     1.163344e-003      52.423    0.994892   144.750
 1961.5000   0.994861    144.640     1.181129e-003      52.307     1.181129e-003      52.307    0.994861   144.640
 1962.0000   0.994829    144.530     1.199239e-003      52.189     1.199239e-003      52.189    0.994829   144.530
 1962.5000   0.994797    144.418     1.217680e-003      52.071     1.217680e-003      52.071    0.994797   144.418
 1963.0000   0.994765    144.306     1.236460e-003      51.952     1.236460e-003      51.952    0.994765   144.306
 1963.5000   0.994732    144.194     1.255584e-003      51.833     1.255584e-003      51.833    0.994732   144.194
 1964.0000   0.994699    144.080     1.275062e-003      51.712     1.275062e-003      51.712    0.994699   144.080
 1964.5000   0.994666    143.966     1.294900e-003      51.591     1.294900e-003      51.591    0.994666   143.966
 1965.0000   0.994632    143.851     1.315106e-003      51.469     1.315106e-003      51.469    0.994632   143.851
 1965.5000   0.994598    143.735     1.335688e-003      51.346     1.335688e-003      51.346    0.994598   143.735
 1966.0000   0.994564    143.619     1.356655e-003      51.223     1.356655e-003      51.223    0.994564   143.619
 1966.5000   0.994529    143.502     1.378014e-003      51.099     1.378014e-003      51.099    0.994529   143.502
 1967.0000   0.994494    143.384     1.399775e-003      50.974     1.399775e-003      50.974    0.994494   143.384
 1967.5000   0.994459    143.266     1.421946e-003      50.848     1.421946e-003      50.848    0.994459   143.266
 1968.0000   0.994423    143.146     1.444536e-003      50.721     1.444536e-003      50.721    0.994423   143.146
 1968.5000   0.994387    143.026     1.467555e-003      50.594     1.467555e-003      50.594    0.994387   143.026
 1969.0000   0.994351    142.905     1.491011e-003      50.465     1.491011e-003      50.465    0.994351   142.905
 1969.5000   0.994314    142.783     1.514915e-003      50.336     1.514915e-003      50.336    0.994314   142.783
 1970.0000   0.994277    142.661     1.539277e-003      50.206     1.539277e-003      50.206    0.994277   142.661
 1970.5000   0.994239    142.538     1.564107e-003      50.075     1.564107e-003      50.075    0.994239   142.538
 1971.0000   0.994201    142.414     1.589415e-003      49.944     1.589415e-003      49.944    0.994201   142.414
 1971.5000   0.994163    142.289     1.615213e-003      49.811     1.615213e-003      49.811    0.994163   142.289
 1972.0000   0.994124    142.163     1.641510e-003      49.678     1.641510e-003      49.678    0.994124   142.163
 1972.5000   0.994085    142.036     1.668320e-003      49.543     1.668320e-003      49.543    0.994085   142.036
 1973.0000   0.994045    141.909     1.695652e-003      49.408     1.695652e-003      49.408    0.994045   141.909
 1973.5000   0.994006    141.781     1.723520e-003      49.272     1.723520e-003      49.272    0.994006   141.781
 1974.0000   0.993965    141.651     1.751935e-003      49.135     1.751935e-003      49.135    0.993965   141.651
 1974.5000   0.993924    141.521     1.780910e-003      48.997     1.780910e-003      48.997    0.993924   141.521
 1975.0000   0.993883    141.390     1.810458e-003      48.858     1.810458e-003      48.858    0.993883   141.390
 1975.5000   0.993841    141.259     1.840592e-003      48.718     1.840592e-003      48.718    0.993841   141.259
 1976.0000   0.993799    141.126     1.871325e-003      48.577     1.871325e-003      48.577    0.993799   141.126
 1976.5000   0.993757    140.992     1.902673e-003      48.435     1.902673e-003      48.435    0.993757   140.992
 1977.0000   0.993714    140.858     1.934648e-003      48.293     1.934648e-003      48.293    0.993714   140.858
 1977.5000   0.993670    140.722     1.967267e-003      48.149     1.967267e-003      48.149    0.993670   140.722
 1978.0000   0.993626    140.586     2.000543e-003      48.004     2.000543e-003      48.004    0.993626   140.586
 1978.5000   0.993582    140.449     2.034492e-003      47.858     2.034492e-003      47.858    0.993582   140.449
 1979.0000   0.993537    140.310     2.069131e-003      47.711     2.069131e-003      47.711    0.993537   140.310
 1979.5000   0.993492    140.171     2.104476e-003      47.563     2.104476e-003      47.563    0.993492   140.171
 1980.0000   0.993446    140.031     2.140543e-003      47.415     2.140543e-003      47.415    0.993446   140.031
 1980.5000   0.993399    139.889     2.177351e-003      47.265     2.177351e-003      47.265    0.993399   139.889
 1981.0000   0.993352    139.747     2.214915e-003      47.114     2.214915e-003      47.114    0.993352   139.747
 1981.5000   0.993305    139.604     2.253256e-003      46.962     2.253256e-003      46.962    0.993305   139.604
 1982.0000   0.993257    139.459     2.292392e-003      46.808     2.292392e-003      46.808    0.993257   139.459
 1982.5000   0.993208    139.314     2.332341e-003      46.654     2.332341e-003      46.654    0.993208   139.314
 1983.0000   0.993159    139.168     2.373124e-003      46.499     2.373124e-003      46.499    0.993159   139.168
 1983.5000   0.993110    139.020     2.414761e-003      46.342     2.414761e-003      46.342    0.993110   139.020
 1984.0000   0.993059    138.872     2.457274e-003      46.184     2.457274e-003      46.184    0.993059   138.872
 1984.5000   0.993009    138.722     2.500683e-003      46.026     2.500683e-003      46.026    0.993009   138.722
 1985.0000   0.992957    138.571     2.545011e-003      45.866     2.545011e-003      45.866    0.992957   138.571
 1985.5000   0.992905    138.419     2.590281e-003      45.704     2.590281e-003      45.704    0.992905   138.419
 1986.0000   0.992853    138.267     2.636515e-003      45.542     2.636515e-003      45.542    0.992853   138.267
 1986.5000   0.992799    138.112     2.683739e-003      45.378     2.683739e-003      45.378    0.992799   138.112
 1987.0000   0.992746    137.957     2.731977e-003      45.214     2.731977e-003      45.214    0.992746   137.957
 1987.5000   0.992691    137.801     2.781255e-003      45.047     2.781255e-003      45.047    0.992691   137.801
 1988.0000   0.992636    137.643     2.831598e-003      44.880     2.831598e-003      44.880    0.992636   137.643
 1988.5000   0.992580    137.484     2.883034e-003      44.712     2.883034e-003      44.712    0.992580   137.484
 1989.0000   0.992524    137.324     2.935591e-003      44.542     2.935591e-003      44.542    0.992524   137.324
 1989.5000   0.992467    137.163     2.989297e-003      44.371     2.989297e-003      44.371    0.992467   137.163
 1990.0000   0.992409    137.001     3.044182e-003      44.198     3.044182e-003      44.198    0.992409   137.001
 1990.5000   0.992350    136.837     3.100276e-003      44.024     3.100276e-003      44.024    0.992350   136.837
 1991.0000   0.992291    136.672     3.157610e-003      43.849     3.157610e-003      43.849    0.992291   136.672
 1991.5000   0.992231    136.506     3.216217e-003      43.673     3.216217e-003      43.673    0.992231   136.506
 1992.0000   0.992170    136.338     3.276129e-003      43.495     3.276129e-003      43.495    0.992170   136.338
 1992.5000   0.992109    136.169     3.337381e-003      43.315     3.337381e-003      43.315    0.992109   136.169
 1993.0000   0.992047    135.999     3.400008e-003      43.135     3.400008e-003      43.135    0.992047   135.999
 1993.5000   0.991984    135.828     3.464047e-003      42.952     3.464047e-003      42.952    0.991984   135.828
 1994.0000   0.991920    135.655     3.529534e-003      42.769     3.529534e-003      42.769    0.991920   135.655
 1994.5000   0.991855    135.480     3.596508e-003      42.584     3.596508e-003      42.584    0.991855   135.480
 1995.0000   0.991790    135.305     3.665008e-003      42.397     3.665008e-003      42.397    0.991790   135.305
 1995.5000   0.991724    135.128     3.735076e-003      42.209     3.735076e-003      42.209    0.991724   135.128
 1996.0000   0.991656    134.949     3.806754e-003      42.020     3.806754e-003      42.020    0.991656   134.949
 1996.5000   0.991588    134.769     3.880084e-003      41.828     3.880084e-003      41.828    0.991588   134.769
 1997.0000   0.991520    134.588     3.955113e-003      41.636     3.955113e-003      41.636    0.991520   134.588
 1997.5000   0.991450    134.405     4.031885e-003      41.441     4.031885e-003      41.441    0.991450   134.405
 1998.0000   0.991379    134.220     4.110450e-003      41.246     4.110450e-003      41.246    0.991379   134.220
 1998.5000   0.991308    134.034     4.190854e-003      41.048     4.190854e-003      41.048    0.991308   134.034
 1999.0000   0.991235    133.847     4.273151e-003      40.849     4.273151e-003      40.849    0.991235   133.847
 1999.5000   0.991161    133.658     4.357391e-003      40.648     4.357391e-003      40.648    0.991161   133.658
 2000.0000   0.991087    133.467     4.443629e-003      40.446     4.443629e-003      40.446    0.991087   133.467
 2000.5000   0.991011    133.275     4.531920e-003      40.241     4.531920e-003      40.241    0.991011   133.275
 2001.0000   0.990935    133.081     4.622323e-003      40.035     4.622323e-003      40.035    0.990935   133.081
 2001.5000   0.990857    132.885     4.714895e-003      39.828     4.714895e-003      39.828    0.990857   132.885
 2002.0000   0.990778    132.688     4.809699e-003      39.618     4.809699e-003      39.618    0.990778   132.688
 2002.5000   0.990699    132.489     4.906798e-003      39.407     4.906798e-003      39.407    0.990699   132.489
 2003.0000   0.990618    132.288     5.006257e-003      39.193     5.006257e-003      39.193    0.990618   132.288
 2003.5000   0.990536    132.086     5.108144e-003      38.978     5.108144e-003      38.978    0.990536   132.086
 2004.0000   0.990453    131.881     5.212528e-003      38.762     5.212528e-003      38.762    0.990453   131.881
 2004.5000   0.990368    131.675     5.319481e-003      38.543     5.319481e-003      38.543    0.990368   131.675
 2005.0000   0.990283    131.468     5.429079e-003      38.322     5.429079e-003      38.322    0.990283   131.468
 2005.5000   0.990196    131.258     5.541397e-003      38.099     5.541397e-003      38.099    0.990196   131.258
 2006.0000   0.990108    131.046     5.656515e-003      37.874     5.656515e-003      37.874    0.990108   131.046
 2006.5000   0.990019    130.833     5.774516e-003      37.648     5.774516e-003      37.648    0.990019   130.833
 2007.0000   0.989928    130.617     5.895484e-003      37.419     5.895484e-003      37.419    0.989928   130.617
 2007.5000   0.989836    130.400     6.019508e-003      37.188     6.019508e-003      37.188    0.989836   130.400
 2008.0000   0.989743    130.181     6.146678e-003      36.955     6.146678e-003      36.955    0.989743   130.181
 2008.5000   0.989648    129.959     6.277089e-003      36.720     6.277089e-003      36.720    0.989648   129.959
 2009.0000   0.989552    129.736     6.410837e-003      36.482     6.410837e-003      36.482    0.989552   129.736
 2009.5000   0.989454    129.510     6.548023e-003      36.243     6.548023e-003      36.243    0.989454   129.510
 2010.0000   0.989355    129.283     6.688752e-003      36.001     6.688752e-003      36.001    0.989355   129.283
 2010.5000   0.989255    129.053     6.833130e-003      35.757     6.833130e-003      35.757    0.989255   129.053
 2011.0000   0.989153    128.821     6.981271e-003      35.511     6.981271e-003      35.511    0.989153   128.821
 2011.5000   0.989049    128.587     7.133289e-003      35.262     7.133289e-003      35.262    0.989049   128.587
 2012.0000   0.988944    128.351     7.289304e-003      35.011     7.289304e-003      35.011    0.988944   128.351
 2012.5000   0.988837    128.112     7.449441e-003      34.757     7.449441e-003      34.757    0.988837   128.112
 2013.0000   0.988728    127.871     7.613826e-003      34.501     7.613826e-003      34.501    0.988728   127.871
 2013.5000   0.988618    127.628     7.782595e-003      34.243     7.782595e-003      34.243    0.988618   127.628
 2014.0000   0.988505    127.382     7.955883e-003      33.982     7.955883e-003      33.982    0.988505   127.382
 2014.5000   0.988392    127.134     8.133835e-003      33.718     8.133835e-003      33.718    0.988392   127.134
 2015.0000   0.988276    126.884     8.316598e-003      33.452     8.316598e-003      33.452    0.988276   126.884
 2015.5000   0.988158    126.631     8.504325e-003      33.183     8.504325e-003      33.183    0.988158   126.631
 2016.0000   0.988038    126.375     8.697177e-003      32.912     8.697177e-003      32.912    0.988038   126.375
 2016.5000   0.987917    126.117     8.895318e-003      32.637     8.895318e-003      32.637    0.987917   126.117
 2017.0000   0.987793    125.856     9.098920e-003      32.360     9.098920e-003      32.360    0.987793   125.856
 2017.5000   0.987667    125.593     9.308159e-003      32.080     9.308159e-003      32.080    0.987667   125.593
 2018.0000   0.987539    125.327     9.523222e-003      31.797     9.523222e-003      31.797    0.987539   125.327
 2018.5000   0.987409    125.058     9.744298e-003      31.512     9.744298e-003      31.512    0.987409   125.058
 2019.0000   0.987277    124.787     9.971588e-003      31.223     9.971588e-003      31.223    0.987277   124.787
 2019.5000   0.987142    124.512     1.020530e-002      30.931     1.020530e-002      30.931    0.987142   124.512
 2020.0000   0.987005    124.235     1.044564e-002      30.637     1.044564e-002      30.637    0.987005   124.235
 2020.5000   0.986865    123.954     1.069284e-002      30.339     1.069284e-002      30.339    0.986865   123.954
 2021.0000   0.986723    123.671     1.094712e-002      30.037     1.094712e-002      30.037    0.986723   123.671
 2021.5000   0.986579    123.385     1.120874e-002      29.733     1.120874e-002      29.733    0.986579   123.385
 2022.0000   0.986432    123.095     1.147793e-002      29.425     1.147793e-002      29.425    0.986432   123.095
 2022.5000   0.986282    122.803     1.175496e-002      29.114     1.175496e-002      29.114    0.986282   122.803
 2023.0000   0.986129    122.507     1.204009e-002      28.800     1.204009e-002      28.800    0.986129   122.507
 2023.5000   0.985973    122.208     1.233361e-002      28.482     1.233361e-002      28.482    0.985973   122.208
 2024.0000   0.985815    121.905     1.263582e-002      28.161     1.263582e-002      28.161    0.985815   121.905
 2024.5000   0.985653    121.600     1.294700e-002      27.835     1.294700e-002      27.835    0.985653   121.600
