!Port 1 is shunt  connected
!Port 2 is shunt  connected
!
!prototype= pole placed tchebycheff
!n=  5,  np= 0,  rl=  18.000dB
!
!transform= band pass
!f0= 2140.000MHz,  bw=  100.000MHz, q0=1200.000
!
!fstart= 1940.000MHz, fstep=    0.500MHz, fstop= 2340.000MHz
!
# MHZ S MA R 50
!Freq        Mag(S11)   Arg(S11)      Mag(S21)        Arg(S21)      Mag(S12)        Arg(S12)    Mag(S22)  Arg(S22)
 1940.0000   0.997754    153.812     4.011666e-004      62.426     4.011666e-004      62.426    0.997754   153.812
 1940.5000   0.997742    153.739     4.066473e-004      62.350     4.066473e-004      62.350    0.997742   153.739
 1941.0000   0.997730    153.666     4.122170e-004      62.273     4.122170e-004      62.273    0.997730   153.666
 1941.5000   0.997718    153.593     4.178773e-004      62.197     4.178773e-004      62.197    0.997718   153.593
 1942.0000   0.997705    153.520     4.236300e-004      62.119     4.236300e-004      62.119    0.997705   153.520
 1942.5000   0.997693    153.446     4.294767e-004      62.042     4.294767e-004      62.042    0.997693   153.446
 1943.0000   0.997680    153.371     4.354194e-004      61.964     4.354194e-004      61.964    0.997680   153.371
 1943.5000   0.997667    153.296     4.414597e-004      61.885     4.414597e-004      61.885    0.997667   153.296
 1944.0000   0.997655    153.221     4.475997e-004      61.807     4.475997e-004      61.807    0.997655   153.221
 1944.5000   0.997642    153.145     4.538412e-004      61.727     4.538412e-004      61.727    0.997642   153.145
 1945.0000   0.997629    153.069     4.601861e-004      61.648     4.601861e-004      61.648    0.997629   153.069
 1945.5000   0.997615    152.993     4.666365e-004      61.567     4.666365e-004      61.567    0.997615   152.993
 1946.0000   0.997602    152.916     4.731944e-004      61.487     4.731944e-004      61.487    0.997602   152.916
 1946.5000   0.997589    152.839     4.798618e-004      61.406     4.798618e-004      61.406    0.997589   152.839
 1947.0000   0.997575    152.761     4.866410e-004      61.324     4.866410e-004      61.324    0.997575   152.761
 1947.5000   0.997562    152.683     4.935341e-004      61.242     4.935341e-004      61.242    0.997562   152.683
 1948.0000   0.997548    152.604     5.005434e-004      61.160     5.005434e-004      61.160    0.997548   152.604
 1948.5000   0.997534    152.525     5.076710e-004      61.077     5.076710e-004      61.077    0.997534   152.525
 1949.0000   0.997520    152.445     5.149194e-004      60.994     5.149194e-004      60.994    0.997520   152.445
 1949.5000   0.997506    152.365     5.222909e-004      60.910     5.222909e-004      60.910    0.997506   152.365
 1950.0000   0.997492    152.285     5.297879e-004      60.825     5.297879e-004      60.825    0.997492   152.285
 1950.5000   0.997478    152.204     5.374131e-004      60.741     5.374131e-004      60.741    0.997478   152.204
 1951.0000   0.997463    152.123     5.451688e-004      60.655     5.451688e-004      60.655    0.997463   152.123
 1951.5000   0.997449    152.041     5.530577e-004      60.569     5.530577e-004      60.569    0.997449   152.041
 1952.0000   0.997434    151.959     5.610825e-004      60.483     5.610825e-004      60.483    0.997434   151.959
 1952.5000   0.997419    151.876     5.692459e-004      60.396     5.692459e-004      60.396    0.997419   151.876
 1953.0000   0.997404    151.793     5.775508e-004      60.309     5.775508e-004      60.309    0.997404   151.793
 1953.5000   0.997389    151.709     5.859998e-004      60.221     5.859998e-004      60.221    0.997389   151.709
 1954.0000   0.997374    151.625     5.945961e-004      60.133     5.945961e-004      60.133    0.997374   151.625
 1954.5000   0.997358    151.540     6.033425e-004      60.044     6.033425e-004      60.044    0.997358   151.540
 1955.0000   0.997343    151.455     6.122421e-004      59.955     6.122421e-004      59.955    0.997343   151.455
 1955.5000   0.997327    151.369     6.212981e-004      59.865     6.212981e-004      59.865    0.997327   151.369
 1956.0000   0.997311    151.283     6.305136e-004      59.775     6.305136e-004      59.775    0.997311   151.283
 1956.5000   0.997295    151.196     6.398920e-004      59.684     6.398920e-004      59.684    0.997295   151.196
 1957.0000   0.997279    151.109     6.494366e-004      59.592     6.494366e-004      59.592    0.997279   151.109
 1957.5000   0.997263    151.021     6.591508e-004      59.500     6.591508e-004      59.500    0.997263   151.021
 1958.0000   0.997247    150.933     6.690381e-004      59.407     6.690381e-004      59.407    0.997247   150.933
 1958.5000   0.997230    150.844     6.791022e-004      59.314     6.791022e-004      59.314    0.997230   150.844
 1959.0000   0.997213    150.754     6.893467e-004      59.221     6.893467e-004      59.221    0.997213   150.754
 1959.5000   0.997197    150.665     6.997755e-004      59.126     6.997755e-004      59.126    0.997197   150.665
 1960.0000   0.997180    150.574     7.103923e-004      59.032     7.103923e-004      59.032    0.997180   150.574
 1960.5000   0.997162    150.483     7.212011e-004      58.936     7.212011e-004      58.936    0.997162   150.483
 1961.0000   0.997145    150.392     7.322061e-004      58.840     7.322061e-004      58.840    0.997145   150.392
 1961.5000   0.997128    150.299     7.434112e-004      58.744     7.434112e-004      58.744    0.997128   150.299
 1962.0000   0.997110    150.207     7.548209e-004      58.646     7.548209e-004      58.646    0.997110   150.207
 1962.5000   0.997092    150.113     7.664394e-004      58.549     7.664394e-004      58.549    0.997092   150.113
 1963.0000   0.997074    150.020     7.782713e-004      58.450     7.782713e-004      58.450    0.997074   150.020
 1963.5000   0.997056    149.925     7.903210e-004      58.351     7.903210e-004      58.351    0.997056   149.925
 1964.0000   0.997037    149.830     8.025933e-004      58.251     8.025933e-004      58.251    0.997037   149.830
 1964.5000   0.997019    149.735     8.150929e-004      58.151     8.150929e-004      58.151    0.997019   149.735
 1965.0000   0.997000    149.638     8.278249e-004      58.050     8.278249e-004      58.050    0.997000   149.638
 1965.5000   0.996981    149.542     8.407942e-004      57.949     8.407942e-004      57.949    0.996981   149.542
 1966.0000   0.996962    149.444     8.540060e-004      57.847     8.540060e-004      57.847    0.996962   149.444
 1966.5000   0.996943    149.346     8.674656e-004      57.744     8.674656e-004      57.744    0.996943   149.346
 1967.0000   0.996923    149.247     8.811785e-004      57.640     8.811785e-004      57.640    0.996923   149.247
 1967.5000   0.996904    149.148     8.951501e-004      57.536     8.951501e-004      57.536    0.996904   149.148
 1968.0000   0.996884    149.048     9.093862e-004      57.431     9.093862e-004      57.431    0.996884   149.048
 1968.5000   0.996864    148.948     9.238928e-004      57.326     9.238928e-004      57.326    0.996864   148.948
 1969.0000   0.996844    148.846     9.386756e-004      57.220     9.386756e-004      57.220    0.996844   148.846
 1969.5000   0.996823    148.745     9.537410e-004      57.113     9.537410e-004      57.113    0.996823   148.745
 1970.0000   0.996802    148.642     9.690952e-004      57.005     9.690952e-004      57.005    0.996802   148.642
 1970.5000   0.996782    148.539     9.847447e-004      56.897     9.847447e-004      56.897    0.996782   148.539
 1971.0000   0.996760    148.435     1.000696e-003      56.788     1.000696e-003      56.788    0.996760   148.435
 1971.5000   0.996739    148.330     1.016956e-003      56.679     1.016956e-003      56.679    0.996739   148.330
 1972.0000   0.996718    148.225     1.033532e-003      56.568     1.033532e-003      56.568    0.996718   148.225
 1972.5000   0.996696    148.119     1.050431e-003      56.457     1.050431e-003      56.457    0.996696   148.119
 1973.0000   0.996674    148.012     1.067660e-003      56.345     1.067660e-003      56.345    0.996674   148.012
 1973.5000   0.996652    147.905     1.085227e-003      56.233     1.085227e-003      56.233    0.996652   147.905
 1974.0000   0.996629    147.797     1.103140e-003      56.119     1.103140e-003      56.119    0.996629   147.797
 1974.5000   0.996607    147.688     1.121406e-003      56.005     1.121406e-003      56.005    0.996607   147.688
 1975.0000   0.996584    147.579     1.140033e-003      55.890     1.140033e-003      55.890    0.996584   147.579
 1975.5000   0.996560    147.468     1.159031e-003      55.775     1.159031e-003      55.775    0.996560   147.468
 1976.0000   0.996537    147.357     1.178407e-003      55.658     1.178407e-003      55.658    0.996537   147.357
 1976.5000   0.996513    147.245     1.198171e-003      55.541     1.198171e-003      55.541    0.996513   147.245
 1977.0000   0.996490    147.133     1.218331e-003      55.423     1.218331e-003      55.423    0.996490   147.133
 1977.5000   0.996465    147.020     1.238898e-003      55.304     1.238898e-003      55.304    0.996465   147.020
 1978.0000   0.996441    146.905     1.259879e-003      55.184     1.259879e-003      55.184    0.996441   146.905
 1978.5000   0.996416    146.791     1.281286e-003      55.064     1.281286e-003      55.064    0.996416   146.791
 1979.0000   0.996391    146.675     1.303129e-003      54.942     1.303129e-003      54.942    0.996391   146.675
 1979.5000   0.996366    146.558     1.325417e-003      54.820     1.325417e-003      54.820    0.996366   146.558
 1980.0000   0.996341    146.441     1.348161e-003      54.697     1.348161e-003      54.697    0.996341   146.441
 1980.5000   0.996315    146.323     1.371373e-003      54.573     1.371373e-003      54.573    0.996315   146.323
 1981.0000   0.996289    146.204     1.395063e-003      54.448     1.395063e-003      54.448    0.996289   146.204
 1981.5000   0.996262    146.084     1.419243e-003      54.322     1.419243e-003      54.322    0.996262   146.084
 1982.0000   0.996236    145.963     1.443926e-003      54.196     1.443926e-003      54.196    0.996236   145.963
 1982.5000   0.996209    145.842     1.469122e-003      54.068     1.469122e-003      54.068    0.996209   145.842
 1983.0000   0.996182    145.719     1.494845e-003      53.940     1.494845e-003      53.940    0.996182   145.719
 1983.5000   0.996154    145.596     1.521108e-003      53.810     1.521108e-003      53.810    0.996154   145.596
 1984.0000   0.996126    145.472     1.547924e-003      53.680     1.547924e-003      53.680    0.996126   145.472
 1984.5000   0.996098    145.347     1.575307e-003      53.549     1.575307e-003      53.549    0.996098   145.347
 1985.0000   0.996069    145.221     1.603270e-003      53.417     1.603270e-003      53.417    0.996069   145.221
 1985.5000   0.996041    145.094     1.631828e-003      53.284     1.631828e-003      53.284    0.996041   145.094
 1986.0000   0.996011    144.966     1.660996e-003      53.149     1.660996e-003      53.149    0.996011   144.966
 1986.5000   0.995982    144.837     1.690789e-003      53.014     1.690789e-003      53.014    0.995982   144.837
 1987.0000   0.995952    144.707     1.721222e-003      52.878     1.721222e-003      52.878    0.995952   144.707
 1987.5000   0.995922    144.576     1.752313e-003      52.741     1.752313e-003      52.741    0.995922   144.576
 1988.0000   0.995891    144.445     1.784078e-003      52.603     1.784078e-003      52.603    0.995891   144.445
 1988.5000   0.995860    144.312     1.816533e-003      52.463     1.816533e-003      52.463    0.995860   144.312
 1989.0000   0.995829    144.178     1.849697e-003      52.323     1.849697e-003      52.323    0.995829   144.178
 1989.5000   0.995797    144.044     1.883587e-003      52.182     1.883587e-003      52.182    0.995797   144.044
 1990.0000   0.995765    143.908     1.918223e-003      52.039     1.918223e-003      52.039    0.995765   143.908
 1990.5000   0.995733    143.771     1.953622e-003      51.896     1.953622e-003      51.896    0.995733   143.771
 1991.0000   0.995700    143.633     1.989807e-003      51.751     1.989807e-003      51.751    0.995700   143.633
 1991.5000   0.995667    143.494     2.026795e-003      51.605     2.026795e-003      51.605    0.995667   143.494
 1992.0000   0.995633    143.354     2.064610e-003      51.459     2.064610e-003      51.459    0.995633   143.354
 1992.5000   0.995599    143.213     2.103271e-003      51.311     2.103271e-003      51.311    0.995599   143.213
 1993.0000   0.995565    143.071     2.142803e-003      51.161     2.142803e-003      51.161    0.995565   143.071
 1993.5000   0.995530    142.928     2.183226e-003      51.011     2.183226e-003      51.011    0.995530   142.928
 1994.0000   0.995494    142.783     2.224566e-003      50.859     2.224566e-003      50.859    0.995494   142.783
 1994.5000   0.995459    142.638     2.266847e-003      50.707     2.266847e-003      50.707    0.995459   142.638
 1995.0000   0.995422    142.491     2.310093e-003      50.553     2.310093e-003      50.553    0.995422   142.491
 1995.5000   0.995386    142.343     2.354331e-003      50.397     2.354331e-003      50.397    0.995386   142.343
 1996.0000   0.995349    142.194     2.399588e-003      50.241     2.399588e-003      50.241    0.995349   142.194
 1996.5000   0.995311    142.044     2.445890e-003      50.083     2.445890e-003      50.083    0.995311   142.044
 1997.0000   0.995273    141.892     2.493266e-003      49.924     2.493266e-003      49.924    0.995273   141.892
 1997.5000   0.995234    141.740     2.541746e-003      49.764     2.541746e-003      49.764    0.995234   141.740
 1998.0000   0.995195    141.586     2.591360e-003      49.602     2.591360e-003      49.602    0.995195   141.586
 1998.5000   0.995156    141.430     2.642139e-003      49.439     2.642139e-003      49.439    0.995156   141.430
 1999.0000   0.995115    141.274     2.694116e-003      49.275     2.694116e-003      49.275    0.995115   141.274
 1999.5000   0.995075    141.116     2.747322e-003      49.110     2.747322e-003      49.110    0.995075   141.116
 2000.0000   0.995034    140.957     2.801793e-003      48.942     2.801793e-003      48.942    0.995034   140.957
 2000.5000   0.994992    140.796     2.857565e-003      48.774     2.857565e-003      48.774    0.994992   140.796
 2001.0000   0.994950    140.634     2.914672e-003      48.604     2.914672e-003      48.604    0.994950   140.634
 2001.5000   0.994907    140.471     2.973154e-003      48.433     2.973154e-003      48.433    0.994907   140.471
 2002.0000   0.994863    140.307     3.033049e-003      48.260     3.033049e-003      48.260    0.994863   140.307
 2002.5000   0.994819    140.141     3.094397e-003      48.086     3.094397e-003      48.086    0.994819   140.141
 2003.0000   0.994775    139.973     3.157240e-003      47.910     3.157240e-003      47.910    0.994775   139.973
 2003.5000   0.994729    139.804     3.221621e-003      47.733     3.221621e-003      47.733    0.994729   139.804
 2004.0000   0.994683    139.634     3.287583e-003      47.554     3.287583e-003      47.554    0.994683   139.634
 2004.5000   0.994637    139.462     3.355173e-003      47.374     3.355173e-003      47.374    0.994637   139.462
 2005.0000   0.994590    139.289     3.424439e-003      47.192     3.424439e-003      47.192    0.994590   139.289
 2005.5000   0.994542    139.114     3.495428e-003      47.008     3.495428e-003      47.008    0.994542   139.114
 2006.0000   0.994493    138.938     3.568192e-003      46.823     3.568192e-003      46.823    0.994493   138.938
 2006.5000   0.994444    138.760     3.642782e-003      46.636     3.642782e-003      46.636    0.994444   138.760
 2007.0000   0.994394    138.580     3.719253e-003      46.448     3.719253e-003      46.448    0.994394   138.580
 2007.5000   0.994343    138.399     3.797661e-003      46.257     3.797661e-003      46.257    0.994343   138.399
 2008.0000   0.994292    138.216     3.878063e-003      46.066     3.878063e-003      46.066    0.994292   138.216
 2008.5000   0.994240    138.032     3.960519e-003      45.872     3.960519e-003      45.872    0.994240   138.032
 2009.0000   0.994187    137.846     4.045092e-003      45.676     4.045092e-003      45.676    0.994187   137.846
 2009.5000   0.994133    137.658     4.131845e-003      45.479     4.131845e-003      45.479    0.994133   137.658
 2010.0000   0.994079    137.468     4.220844e-003      45.280     4.220844e-003      45.280    0.994079   137.468
 2010.5000   0.994023    137.277     4.312159e-003      45.079     4.312159e-003      45.079    0.994023   137.277
 2011.0000   0.993967    137.083     4.405859e-003      44.876     4.405859e-003      44.876    0.993967   137.083
 2011.5000   0.993910    136.889     4.502020e-003      44.672     4.502020e-003      44.672    0.993910   136.889
 2012.0000   0.993852    136.692     4.600716e-003      44.465     4.600716e-003      44.465    0.993852   136.692
 2012.5000   0.993794    136.493     4.702027e-003      44.256     4.702027e-003      44.256    0.993794   136.493
 2013.0000   0.993734    136.292     4.806035e-003      44.046     4.806035e-003      44.046    0.993734   136.292
 2013.5000   0.993673    136.090     4.912824e-003      43.833     4.912824e-003      43.833    0.993673   136.090
 2014.0000   0.993612    135.885     5.022482e-003      43.618     5.022482e-003      43.618    0.993612   135.885
 2014.5000   0.993549    135.679     5.135101e-003      43.401     5.135101e-003      43.401    0.993549   135.679
 2015.0000   0.993486    135.471     5.250774e-003      43.183     5.250774e-003      43.183    0.993486   135.471
 2015.5000   0.993421    135.260     5.369600e-003      42.961     5.369600e-003      42.961    0.993421   135.260
 2016.0000   0.993356    135.047     5.491680e-003      42.738     5.491680e-003      42.738    0.993356   135.047
 2016.5000   0.993289    134.833     5.617120e-003      42.513     5.617120e-003      42.513    0.993289   134.833
 2017.0000   0.993221    134.616     5.746028e-003      42.285     5.746028e-003      42.285    0.993221   134.616
 2017.5000   0.993152    134.397     5.878519e-003      42.055     5.878519e-003      42.055    0.993152   134.397
 2018.0000   0.993082    134.175     6.014709e-003      41.822     6.014709e-003      41.822    0.993082   134.175
 2018.5000   0.993011    133.952     6.154722e-003      41.588     6.154722e-003      41.588    0.993011   133.952
 2019.0000   0.992939    133.726     6.298683e-003      41.350     6.298683e-003      41.350    0.992939   133.726
 2019.5000   0.992865    133.498     6.446726e-003      41.111     6.446726e-003      41.111    0.992865   133.498
 2020.0000   0.992790    133.267     6.598986e-003      40.869     6.598986e-003      40.869    0.992790   133.267
 2020.5000   0.992714    133.034     6.755605e-003      40.624     6.755605e-003      40.624    0.992714   133.034
 2021.0000   0.992636    132.799     6.916733e-003      40.377     6.916733e-003      40.377    0.992636   132.799
 2021.5000   0.992557    132.561     7.082522e-003      40.127     7.082522e-003      40.127    0.992557   132.561
 2022.0000   0.992477    132.321     7.253131e-003      39.874     7.253131e-003      39.874    0.992477   132.321
 2022.5000   0.992395    132.078     7.428728e-003      39.619     7.428728e-003      39.619    0.992395   132.078
 2023.0000   0.992312    131.832     7.609484e-003      39.361     7.609484e-003      39.361    0.992312   131.832
 2023.5000   0.992227    131.584     7.795580e-003      39.100     7.795580e-003      39.100    0.992227   131.584
 2024.0000   0.992141    131.333     7.987203e-003      38.836     7.987203e-003      38.836    0.992141   131.333
 2024.5000   0.992053    131.079     8.184546e-003      38.569     8.184546e-003      38.569    0.992053   131.079
