!Port 1 is shunt  connected
!Port 2 is shunt  connected
!
!prototype= pole placed tchebycheff
!n=  5,  np= 0,  rl=  22.000dB
!
!transform= band pass
!f0= 2140.000MHz,  bw=  100.000MHz, q0= 950.000
!
!fstart= 1940.000MHz, fstep=    0.500MHz, fstop= 2340.000MHz
!
# MHZ S MA R 50
!Freq        Mag(S11)   Arg(S11)      Mag(S21)        Arg(S21)      Mag(S12)        Arg(S12)    Mag(S22)  Arg(S22)
 1940.0000   0.996618    148.831     6.381320e-004      57.081     6.381320e-004      57.081    0.996618   148.831
 1940.5000   0.996599    148.745     6.468460e-004      56.990     6.468460e-004      56.990    0.996599   148.745
 1941.0000   0.996581    148.658     6.557014e-004      56.898     6.557014e-004      56.898    0.996581   148.658
 1941.5000   0.996563    148.571     6.647007e-004      56.807     6.647007e-004      56.807    0.996563   148.571
 1942.0000   0.996544    148.483     6.738468e-004      56.714     6.738468e-004      56.714    0.996544   148.483
 1942.5000   0.996525    148.395     6.831425e-004      56.622     6.831425e-004      56.622    0.996525   148.395
 1943.0000   0.996506    148.306     6.925905e-004      56.528     6.925905e-004      56.528    0.996506   148.306
 1943.5000   0.996487    148.217     7.021937e-004      56.434     7.021937e-004      56.434    0.996487   148.217
 1944.0000   0.996467    148.127     7.119552e-004      56.340     7.119552e-004      56.340    0.996467   148.127
 1944.5000   0.996448    148.037     7.218780e-004      56.245     7.218780e-004      56.245    0.996448   148.037
 1945.0000   0.996428    147.946     7.319652e-004      56.150     7.319652e-004      56.150    0.996428   147.946
 1945.5000   0.996408    147.855     7.422200e-004      56.054     7.422200e-004      56.054    0.996408   147.855
 1946.0000   0.996388    147.763     7.526455e-004      55.958     7.526455e-004      55.958    0.996388   147.763
 1946.5000   0.996368    147.671     7.632451e-004      55.861     7.632451e-004      55.861    0.996368   147.671
 1947.0000   0.996348    147.578     7.740223e-004      55.763     7.740223e-004      55.763    0.996348   147.578
 1947.5000   0.996327    147.484     7.849804e-004      55.665     7.849804e-004      55.665    0.996327   147.484
 1948.0000   0.996306    147.391     7.961230e-004      55.566     7.961230e-004      55.566    0.996306   147.391
 1948.5000   0.996286    147.296     8.074537e-004      55.467     8.074537e-004      55.467    0.996286   147.296
 1949.0000   0.996264    147.201     8.189762e-004      55.367     8.189762e-004      55.367    0.996264   147.201
 1949.5000   0.996243    147.106     8.306943e-004      55.267     8.306943e-004      55.267    0.996243   147.106
 1950.0000   0.996222    147.010     8.426120e-004      55.166     8.426120e-004      55.166    0.996222   147.010
 1950.5000   0.996200    146.913     8.547330e-004      55.065     8.547330e-004      55.065    0.996200   146.913
 1951.0000   0.996178    146.816     8.670615e-004      54.963     8.670615e-004      54.963    0.996178   146.816
 1951.5000   0.996156    146.719     8.796016e-004      54.860     8.796016e-004      54.860    0.996156   146.719
 1952.0000   0.996134    146.620     8.923576e-004      54.757     8.923576e-004      54.757    0.996134   146.620
 1952.5000   0.996111    146.522     9.053337e-004      54.653     9.053337e-004      54.653    0.996111   146.522
 1953.0000   0.996089    146.422     9.185345e-004      54.548     9.185345e-004      54.548    0.996089   146.422
 1953.5000   0.996066    146.322     9.319644e-004      54.443     9.319644e-004      54.443    0.996066   146.322
 1954.0000   0.996043    146.222     9.456280e-004      54.338     9.456280e-004      54.338    0.996043   146.222
 1954.5000   0.996020    146.121     9.595302e-004      54.231     9.595302e-004      54.231    0.996020   146.121
 1955.0000   0.995996    146.019     9.736758e-004      54.124     9.736758e-004      54.124    0.995996   146.019
 1955.5000   0.995972    145.917     9.880697e-004      54.017     9.880697e-004      54.017    0.995972   145.917
 1956.0000   0.995949    145.814     1.002717e-003      53.909     1.002717e-003      53.909    0.995949   145.814
 1956.5000   0.995924    145.710     1.017623e-003      53.800     1.017623e-003      53.800    0.995924   145.710
 1957.0000   0.995900    145.606     1.032793e-003      53.690     1.032793e-003      53.690    0.995900   145.606
 1957.5000   0.995875    145.501     1.048232e-003      53.580     1.048232e-003      53.580    0.995875   145.501
 1958.0000   0.995851    145.396     1.063947e-003      53.469     1.063947e-003      53.469    0.995851   145.396
 1958.5000   0.995826    145.290     1.079942e-003      53.358     1.079942e-003      53.358    0.995826   145.290
 1959.0000   0.995800    145.183     1.096223e-003      53.246     1.096223e-003      53.246    0.995800   145.183
 1959.5000   0.995775    145.076     1.112797e-003      53.133     1.112797e-003      53.133    0.995775   145.076
 1960.0000   0.995749    144.968     1.129670e-003      53.019     1.129670e-003      53.019    0.995749   144.968
 1960.5000   0.995723    144.859     1.146848e-003      52.905     1.146848e-003      52.905    0.995723   144.859
 1961.0000   0.995697    144.750     1.164337e-003      52.790     1.164337e-003      52.790    0.995697   144.750
 1961.5000   0.995670    144.640     1.182144e-003      52.674     1.182144e-003      52.674    0.995670   144.640
 1962.0000   0.995644    144.529     1.200276e-003      52.558     1.200276e-003      52.558    0.995644   144.529
 1962.5000   0.995617    144.418     1.218740e-003      52.441     1.218740e-003      52.441    0.995617   144.418
 1963.0000   0.995589    144.306     1.237542e-003      52.323     1.237542e-003      52.323    0.995589   144.306
 1963.5000   0.995562    144.193     1.256691e-003      52.205     1.256691e-003      52.205    0.995562   144.193
 1964.0000   0.995534    144.079     1.276192e-003      52.085     1.276192e-003      52.085    0.995534   144.079
 1964.5000   0.995506    143.965     1.296055e-003      51.965     1.296055e-003      51.965    0.995506   143.965
 1965.0000   0.995477    143.850     1.316287e-003      51.844     1.316287e-003      51.844    0.995477   143.850
 1965.5000   0.995449    143.735     1.336895e-003      51.723     1.336895e-003      51.723    0.995449   143.735
 1966.0000   0.995420    143.618     1.357888e-003      51.601     1.357888e-003      51.601    0.995420   143.618
 1966.5000   0.995391    143.501     1.379275e-003      51.477     1.379275e-003      51.477    0.995391   143.501
 1967.0000   0.995361    143.383     1.401064e-003      51.353     1.401064e-003      51.353    0.995361   143.383
 1967.5000   0.995331    143.265     1.423264e-003      51.229     1.423264e-003      51.229    0.995331   143.265
 1968.0000   0.995301    143.145     1.445884e-003      51.103     1.445884e-003      51.103    0.995301   143.145
 1968.5000   0.995271    143.025     1.468933e-003      50.977     1.468933e-003      50.977    0.995271   143.025
 1969.0000   0.995240    142.904     1.492420e-003      50.850     1.492420e-003      50.850    0.995240   142.904
 1969.5000   0.995209    142.783     1.516357e-003      50.722     1.516357e-003      50.722    0.995209   142.783
 1970.0000   0.995178    142.660     1.540751e-003      50.593     1.540751e-003      50.593    0.995178   142.660
 1970.5000   0.995146    142.537     1.565615e-003      50.463     1.565615e-003      50.463    0.995146   142.537
 1971.0000   0.995114    142.413     1.590957e-003      50.333     1.590957e-003      50.333    0.995114   142.413
 1971.5000   0.995082    142.288     1.616790e-003      50.201     1.616790e-003      50.201    0.995082   142.288
 1972.0000   0.995049    142.162     1.643124e-003      50.069     1.643124e-003      50.069    0.995049   142.162
 1972.5000   0.995016    142.035     1.669971e-003      49.936     1.669971e-003      49.936    0.995016   142.035
 1973.0000   0.994983    141.908     1.697342e-003      49.802     1.697342e-003      49.802    0.994983   141.908
 1973.5000   0.994949    141.780     1.725249e-003      49.667     1.725249e-003      49.667    0.994949   141.780
 1974.0000   0.994915    141.650     1.753704e-003      49.531     1.753704e-003      49.531    0.994915   141.650
 1974.5000   0.994881    141.520     1.782720e-003      49.394     1.782720e-003      49.394    0.994881   141.520
 1975.0000   0.994846    141.390     1.812311e-003      49.257     1.812311e-003      49.257    0.994846   141.390
 1975.5000   0.994811    141.258     1.842489e-003      49.118     1.842489e-003      49.118    0.994811   141.258
 1976.0000   0.994775    141.125     1.873267e-003      48.979     1.873267e-003      48.979    0.994775   141.125
 1976.5000   0.994740    140.991     1.904661e-003      48.838     1.904661e-003      48.838    0.994740   140.991
 1977.0000   0.994703    140.857     1.936684e-003      48.697     1.936684e-003      48.697    0.994703   140.857
 1977.5000   0.994667    140.721     1.969351e-003      48.554     1.969351e-003      48.554    0.994667   140.721
 1978.0000   0.994630    140.585     2.002677e-003      48.411     2.002677e-003      48.411    0.994630   140.585
 1978.5000   0.994592    140.448     2.036678e-003      48.266     2.036678e-003      48.266    0.994592   140.448
 1979.0000   0.994554    140.309     2.071370e-003      48.121     2.071370e-003      48.121    0.994554   140.309
 1979.5000   0.994516    140.170     2.106769e-003      47.974     2.106769e-003      47.974    0.994516   140.170
 1980.0000   0.994477    140.030     2.142892e-003      47.827     2.142892e-003      47.827    0.994477   140.030
 1980.5000   0.994438    139.888     2.179756e-003      47.678     2.179756e-003      47.678    0.994438   139.888
 1981.0000   0.994398    139.746     2.217380e-003      47.528     2.217380e-003      47.528    0.994398   139.746
 1981.5000   0.994358    139.603     2.255782e-003      47.378     2.255782e-003      47.378    0.994358   139.603
 1982.0000   0.994318    139.458     2.294979e-003      47.226     2.294979e-003      47.226    0.994318   139.458
 1982.5000   0.994277    139.313     2.334993e-003      47.073     2.334993e-003      47.073    0.994277   139.313
 1983.0000   0.994236    139.167     2.375842e-003      46.919     2.375842e-003      46.919    0.994236   139.167
 1983.5000   0.994194    139.019     2.417547e-003      46.764     2.417547e-003      46.764    0.994194   139.019
 1984.0000   0.994151    138.871     2.460129e-003      46.608     2.460129e-003      46.608    0.994151   138.871
 1984.5000   0.994109    138.721     2.503610e-003      46.450     2.503610e-003      46.450    0.994109   138.721
 1985.0000   0.994065    138.570     2.548012e-003      46.292     2.548012e-003      46.292    0.994065   138.570
 1985.5000   0.994021    138.418     2.593358e-003      46.132     2.593358e-003      46.132    0.994021   138.418
 1986.0000   0.993977    138.265     2.639671e-003      45.971     2.639671e-003      45.971    0.993977   138.265
 1986.5000   0.993932    138.111     2.686975e-003      45.809     2.686975e-003      45.809    0.993932   138.111
 1987.0000   0.993887    137.956     2.735296e-003      45.645     2.735296e-003      45.645    0.993887   137.956
 1987.5000   0.993841    137.800     2.784659e-003      45.481     2.784659e-003      45.481    0.993841   137.800
 1988.0000   0.993794    137.642     2.835090e-003      45.315     2.835090e-003      45.315    0.993794   137.642
 1988.5000   0.993747    137.483     2.886617e-003      45.148     2.886617e-003      45.148    0.993747   137.483
 1989.0000   0.993700    137.323     2.939267e-003      44.980     2.939267e-003      44.980    0.993700   137.323
 1989.5000   0.993651    137.162     2.993069e-003      44.810     2.993069e-003      44.810    0.993651   137.162
 1990.0000   0.993603    136.999     3.048052e-003      44.639     3.048052e-003      44.639    0.993603   136.999
 1990.5000   0.993553    136.836     3.104248e-003      44.467     3.104248e-003      44.467    0.993553   136.836
 1991.0000   0.993503    136.671     3.161687e-003      44.293     3.161687e-003      44.293    0.993503   136.671
 1991.5000   0.993453    136.504     3.220402e-003      44.118     3.220402e-003      44.118    0.993453   136.504
 1992.0000   0.993401    136.337     3.280426e-003      43.942     3.280426e-003      43.942    0.993401   136.337
 1992.5000   0.993350    136.168     3.341793e-003      43.765     3.341793e-003      43.765    0.993350   136.168
 1993.0000   0.993297    135.998     3.404538e-003      43.585     3.404538e-003      43.585    0.993297   135.998
 1993.5000   0.993244    135.826     3.468698e-003      43.405     3.468698e-003      43.405    0.993244   135.826
 1994.0000   0.993190    135.653     3.534311e-003      43.223     3.534311e-003      43.223    0.993190   135.653
 1994.5000   0.993136    135.479     3.601415e-003      43.040     3.601415e-003      43.040    0.993136   135.479
 1995.0000   0.993080    135.303     3.670049e-003      42.855     3.670049e-003      42.855    0.993080   135.303
 1995.5000   0.993024    135.126     3.740255e-003      42.668     3.740255e-003      42.668    0.993024   135.126
 1996.0000   0.992968    134.948     3.812075e-003      42.481     3.812075e-003      42.481    0.992968   134.948
 1996.5000   0.992910    134.768     3.885552e-003      42.291     3.885552e-003      42.291    0.992910   134.768
 1997.0000   0.992852    134.586     3.960732e-003      42.100     3.960732e-003      42.100    0.992852   134.586
 1997.5000   0.992793    134.403     4.037661e-003      41.908     4.037661e-003      41.908    0.992793   134.403
 1998.0000   0.992734    134.219     4.116387e-003      41.714     4.116387e-003      41.714    0.992734   134.219
 1998.5000   0.992673    134.033     4.196958e-003      41.518     4.196958e-003      41.518    0.992673   134.033
 1999.0000   0.992612    133.845     4.279427e-003      41.321     4.279427e-003      41.321    0.992612   133.845
 1999.5000   0.992550    133.656     4.363845e-003      41.122     4.363845e-003      41.122    0.992550   133.656
 2000.0000   0.992487    133.465     4.450266e-003      40.921     4.450266e-003      40.921    0.992487   133.465
 2000.5000   0.992423    133.273     4.538747e-003      40.718     4.538747e-003      40.718    0.992423   133.273
 2001.0000   0.992359    133.079     4.629344e-003      40.514     4.629344e-003      40.514    0.992359   133.079
 2001.5000   0.992293    132.883     4.722119e-003      40.309     4.722119e-003      40.309    0.992293   132.883
 2002.0000   0.992227    132.686     4.817132e-003      40.101     4.817132e-003      40.101    0.992227   132.686
 2002.5000   0.992159    132.487     4.914447e-003      39.891     4.914447e-003      39.891    0.992159   132.487
 2003.0000   0.992091    132.286     5.014129e-003      39.680     5.014129e-003      39.680    0.992091   132.286
 2003.5000   0.992022    132.084     5.116246e-003      39.467     5.116246e-003      39.467    0.992022   132.084
 2004.0000   0.991951    131.880     5.220868e-003      39.252     5.220868e-003      39.252    0.991951   131.880
 2004.5000   0.991880    131.673     5.328068e-003      39.035     5.328068e-003      39.035    0.991880   131.673
 2005.0000   0.991808    131.466     5.437921e-003      38.817     5.437921e-003      38.817    0.991808   131.466
 2005.5000   0.991735    131.256     5.550502e-003      38.596     5.550502e-003      38.596    0.991735   131.256
 2006.0000   0.991660    131.044     5.665893e-003      38.373     5.665893e-003      38.373    0.991660   131.044
 2006.5000   0.991585    130.831     5.784177e-003      38.148     5.784177e-003      38.148    0.991585   130.831
 2007.0000   0.991508    130.615     5.905437e-003      37.922     5.905437e-003      37.922    0.991508   130.615
 2007.5000   0.991431    130.398     6.029763e-003      37.693     6.029763e-003      37.693    0.991431   130.398
 2008.0000   0.991352    130.179     6.157246e-003      37.462     6.157246e-003      37.462    0.991352   130.179
 2008.5000   0.991272    129.957     6.287980e-003      37.229     6.287980e-003      37.229    0.991272   129.957
 2009.0000   0.991191    129.734     6.422064e-003      36.994     6.422064e-003      36.994    0.991191   129.734
 2009.5000   0.991108    129.508     6.559597e-003      36.757     6.559597e-003      36.757    0.991108   129.508
 2010.0000   0.991024    129.281     6.700686e-003      36.517     6.700686e-003      36.517    0.991024   129.281
 2010.5000   0.990939    129.051     6.845437e-003      36.275     6.845437e-003      36.275    0.990939   129.051
 2011.0000   0.990853    128.819     6.993964e-003      36.031     6.993964e-003      36.031    0.990853   128.819
 2011.5000   0.990765    128.585     7.146383e-003      35.784     7.146383e-003      35.784    0.990765   128.585
 2012.0000   0.990676    128.348     7.302813e-003      35.536     7.302813e-003      35.536    0.990676   128.348
 2012.5000   0.990586    128.110     7.463379e-003      35.284     7.463379e-003      35.284    0.990586   128.110
 2013.0000   0.990494    127.869     7.628211e-003      35.031     7.628211e-003      35.031    0.990494   127.869
 2013.5000   0.990401    127.626     7.797442e-003      34.775     7.797442e-003      34.775    0.990401   127.626
 2014.0000   0.990306    127.380     7.971210e-003      34.516     7.971210e-003      34.516    0.990306   127.380
 2014.5000   0.990210    127.132     8.149660e-003      34.255     8.149660e-003      34.255    0.990210   127.132
 2015.0000   0.990112    126.881     8.332939e-003      33.991     8.332939e-003      33.991    0.990112   126.881
 2015.5000   0.990012    126.628     8.521203e-003      33.725     8.521203e-003      33.725    0.990012   126.628
 2016.0000   0.989911    126.373     8.714612e-003      33.456     8.714612e-003      33.456    0.989911   126.373
 2016.5000   0.989808    126.114     8.913331e-003      33.184     8.913331e-003      33.184    0.989808   126.114
 2017.0000   0.989703    125.854     9.117533e-003      32.909     9.117533e-003      32.909    0.989703   125.854
 2017.5000   0.989597    125.590     9.327396e-003      32.632     9.327396e-003      32.632    0.989597   125.590
 2018.0000   0.989488    125.324     9.543107e-003      32.352     9.543107e-003      32.352    0.989488   125.324
 2018.5000   0.989378    125.055     9.764856e-003      32.069     9.764856e-003      32.069    0.989378   125.055
 2019.0000   0.989266    124.783     9.992846e-003      31.783     9.992846e-003      31.783    0.989266   124.783
 2019.5000   0.989152    124.509     1.022728e-002      31.494     1.022728e-002      31.494    0.989152   124.509
 2020.0000   0.989036    124.232     1.046838e-002      31.201     1.046838e-002      31.201    0.989036   124.232
 2020.5000   0.988918    123.951     1.071637e-002      30.906     1.071637e-002      30.906    0.988918   123.951
 2021.0000   0.988797    123.668     1.097147e-002      30.608     1.097147e-002      30.608    0.988797   123.668
 2021.5000   0.988675    123.381     1.123393e-002      30.306     1.123393e-002      30.306    0.988675   123.381
 2022.0000   0.988550    123.092     1.150401e-002      30.001     1.150401e-002      30.001    0.988550   123.092
 2022.5000   0.988423    122.799     1.178196e-002      29.693     1.178196e-002      29.693    0.988423   122.799
 2023.0000   0.988294    122.503     1.206806e-002      29.382     1.206806e-002      29.382    0.988294   122.503
 2023.5000   0.988162    122.204     1.236258e-002      29.067     1.236258e-002      29.067    0.988162   122.204
 2024.0000   0.988028    121.902     1.266582e-002      28.748     1.266582e-002      28.748    0.988028   121.902
 2024.5000   0.987891    121.596     1.297810e-002      28.426     1.297810e-002      28.426    0.987891   121.596
