# GHz S MA R 50

5.700000000000000e+00  9.186984e-01 -9.042583e+01  3.949597e-01  1.795742e+02  3.949597e-01  1.795742e+02  9.186984e-01 -9.042583e+01
5.703000000000000e+00  8.934646e-01 -9.604230e+01  4.491336e-01  1.739577e+02  4.491336e-01  1.739577e+02  8.934646e-01 -9.604230e+01
5.706000000000000e+00  8.595896e-01 -1.024025e+02  5.109850e-01  1.675975e+02  5.109850e-01  1.675975e+02  8.595896e-01 -1.024025e+02
5.709000000000001e+00  8.144016e-01 -1.095999e+02  5.803016e-01  1.604001e+02  5.803016e-01  1.604001e+02  8.144016e-01 -1.095999e+02
5.712000000000001e+00  7.550273e-01 -1.177017e+02  6.556934e-01  1.522983e+02  6.556934e-01  1.522983e+02  7.550273e-01 -1.177017e+02
5.715000000000001e+00  6.790787e-01 -1.267158e+02  7.340654e-01  1.432842e+02  7.340654e-01  1.432842e+02  6.790787e-01 -1.267158e+02
5.718000000000000e+00  5.858156e-01 -1.365528e+02  8.104444e-01  1.334472e+02  8.104444e-01  1.334472e+02  5.858156e-01 -1.365528e+02
5.721000000000000e+00  4.774219e-01 -1.470016e+02  8.786742e-01  1.229984e+02  8.786742e-01  1.229984e+02  4.774219e-01 -1.470016e+02
5.724000000000000e+00  3.595036e-01 -1.577459e+02  9.331437e-01  1.122541e+02  9.331437e-01  1.122541e+02  3.595036e-01 -1.577459e+02
5.727000000000000e+00  2.399976e-01 -1.684299e+02  9.707735e-01  1.015701e+02  9.707735e-01  1.015701e+02  2.399976e-01 -1.684299e+02
5.730000000000000e+00  1.268410e-01 -1.787459e+02  9.919231e-01  9.125405e+01  9.919231e-01  9.125405e+01  1.268410e-01 -1.787459e+02
5.733000000000001e+00  2.585187e-02  1.715034e+02  9.996658e-01  8.150341e+01  9.996658e-01  8.150341e+01  2.585187e-02  1.715034e+02
5.736000000000001e+00  6.005640e-02 -1.760555e+01  9.981950e-01  7.239445e+01  9.981950e-01  7.239445e+01  6.005640e-02 -1.760555e+01
5.739000000000001e+00  1.304231e-01 -2.609099e+01  9.914584e-01  6.390901e+01  9.914584e-01  6.390901e+01  1.304231e-01 -2.609099e+01
5.742000000000000e+00  1.863043e-01 -3.402705e+01  9.824921e-01  5.597295e+01  9.824921e-01  5.597295e+01  1.863043e-01 -3.402705e+01
5.745000000000000e+00  2.294442e-01 -4.151174e+01  9.733218e-01  4.848826e+01  9.733218e-01  4.848826e+01  2.294442e-01 -4.151174e+01
5.748000000000000e+00  2.617496e-01 -4.864628e+01  9.651358e-01  4.135372e+01  9.651358e-01  4.135372e+01  2.617496e-01 -4.864628e+01
5.751000000000000e+00  2.850312e-01 -5.552430e+01  9.585182e-01  3.447570e+01  9.585182e-01  3.447570e+01  2.850312e-01 -5.552430e+01
5.754000000000000e+00  3.009159e-01 -6.222739e+01  9.536507e-01  2.777261e+01  9.536507e-01  2.777261e+01  3.009159e-01 -6.222739e+01
5.757000000000001e+00  3.108454e-01 -6.882403e+01  9.504605e-01  2.117597e+01  9.504605e-01  2.117597e+01  3.108454e-01 -6.882403e+01
5.760000000000001e+00  3.161138e-01 -7.537035e+01  9.487213e-01  1.462965e+01  9.487213e-01  1.462965e+01  3.161138e-01 -7.537035e+01
5.763000000000001e+00  3.179137e-01 -8.191152e+01  9.481196e-01  8.088478e+00  9.481196e-01  8.088478e+00  3.179137e-01 -8.191152e+01
5.766000000000000e+00  3.173796e-01 -8.848354e+01  9.482986e-01  1.516457e+00  9.482986e-01  1.516457e+00  3.173796e-01 -8.848354e+01
5.769000000000000e+00  3.156208e-01 -9.511508e+01  9.488854e-01 -5.115078e+00  9.488854e-01 -5.115078e+00  3.156208e-01 -9.511508e+01
5.772000000000000e+00  3.137428e-01 -1.018293e+02  9.495080e-01 -1.182934e+01  9.495080e-01 -1.182934e+01  3.137428e-01 -1.018293e+02
5.775000000000000e+00  3.128546e-01 -1.086459e+02  9.498010e-01 -1.864593e+01  9.498010e-01 -1.864593e+01  3.128546e-01 -1.086459e+02
5.778000000000001e+00  3.140637e-01 -1.155825e+02  9.494019e-01 -2.558254e+01  9.494019e-01 -2.558254e+01  3.140637e-01 -1.155825e+02
5.781000000000001e+00  3.184586e-01 -1.226563e+02  9.479368e-01 -3.265627e+01  9.479368e-01 -3.265627e+01  3.184586e-01 -1.226563e+02
5.784000000000001e+00  3.270773e-01 -1.298845e+02  9.449976e-01 -3.988448e+01  9.449976e-01 -3.988448e+01  3.270773e-01 -1.298845e+02
5.787000000000000e+00  3.408623e-01 -1.372847e+02  9.401132e-01 -4.728469e+01  9.401132e-01 -4.728469e+01  3.408623e-01 -1.372847e+02
5.790000000000000e+00  3.605973e-01 -1.448734e+02  9.327216e-01 -5.487340e+01  9.327216e-01 -5.487340e+01  3.605973e-01 -1.448734e+02
5.793000000000000e+00  3.868251e-01 -1.526635e+02  9.221531e-01 -6.266347e+01  9.221531e-01 -6.266347e+01  3.868251e-01 -1.526635e+02
5.796000000000000e+00  4.197479e-01 -1.606600e+02  9.076407e-01 -7.065999e+01  9.076407e-01 -7.065999e+01  4.197479e-01 -1.606600e+02
5.799000000000000e+00  4.591208e-01 -1.688549e+02  8.883739e-01 -7.885494e+01  8.883739e-01 -7.885494e+01  4.591208e-01 -1.688549e+02
5.802000000000001e+00  5.041645e-01 -1.772215e+02  8.636077e-01 -8.722153e+01  8.636077e-01 -8.722153e+01  5.041645e-01 -1.772215e+02
5.805000000000001e+00  5.535372e-01  1.742903e+02  8.328244e-01 -9.570972e+01  8.328244e-01 -9.570972e+01  5.535372e-01  1.742903e+02
5.808000000000001e+00  6.054094e-01  1.657550e+02  7.959142e-01 -1.042450e+02  7.959142e-01 -1.042450e+02  6.054094e-01  1.657550e+02
5.811000000000000e+00  6.576610e-01  1.572678e+02  7.533141e-01 -1.127322e+02  7.533141e-01 -1.127322e+02  6.576610e-01  1.572678e+02
5.814000000000000e+00  7.081739e-01  1.489357e+02  7.060381e-01 -1.210643e+02  7.060381e-01 -1.210643e+02  7.081739e-01  1.489357e+02
5.817000000000000e+00  7.551388e-01  1.408647e+02  6.555649e-01 -1.291353e+02  6.555649e-01 -1.291353e+02  7.551388e-01  1.408647e+02
5.820000000000000e+00  7.972802e-01  1.331477e+02  6.036093e-01 -1.368523e+02  6.036093e-01 -1.368523e+02  7.972802e-01  1.331477e+02
5.823000000000000e+00  8.339388e-01  1.258551e+02  5.518570e-01 -1.441449e+02  5.518570e-01 -1.441449e+02  8.339388e-01  1.258551e+02
5.826000000000001e+00  8.650143e-01  1.190308e+02  5.017472e-01 -1.509692e+02  5.017472e-01 -1.509692e+02  8.650143e-01  1.190308e+02
5.829000000000001e+00  8.908221e-01  1.126935e+02  4.543523e-01 -1.573065e+02  4.543523e-01 -1.573065e+02  8.908221e-01  1.126935e+02
5.832000000000001e+00  9.119257e-01  1.068407e+02  4.103554e-01 -1.631593e+02  4.103554e-01 -1.631593e+02  9.119257e-01  1.068407e+02
5.835000000000000e+00  9.289936e-01  1.014547e+02  3.700958e-01 -1.685453e+02  3.700958e-01 -1.685453e+02  9.289936e-01  1.014547e+02
5.838000000000000e+00  9.426982e-01  9.650801e+01  3.336468e-01 -1.734920e+02  3.336468e-01 -1.734920e+02  9.426982e-01  9.650801e+01
5.841000000000000e+00  9.536565e-01  9.196766e+01  3.008974e-01 -1.780323e+02  3.008974e-01 -1.780323e+02  9.536565e-01  9.196766e+01
5.844000000000000e+00  9.624037e-01  8.779896e+01  2.716231e-01  1.777990e+02  2.716231e-01  1.777990e+02  9.624037e-01  8.779896e+01
5.847000000000000e+00  9.693867e-01  8.396749e+01  2.455392e-01  1.739675e+02  2.455392e-01  1.739675e+02  9.693867e-01  8.396749e+01
5.850000000000001e+00  9.749696e-01  8.044055e+01  2.223382e-01  1.704405e+02  2.223382e-01  1.704405e+02  9.749696e-01  8.044055e+01
5.853000000000001e+00  9.794444e-01  7.718785e+01  2.017145e-01  1.671878e+02  2.017145e-01  1.671878e+02  9.794444e-01  7.718785e+01
5.856000000000001e+00  9.830425e-01  7.418185e+01  1.833776e-01  1.641818e+02  1.833776e-01  1.641818e+02  9.830425e-01  7.418185e+01
5.859000000000000e+00  9.859466e-01  7.139777e+01  1.670605e-01  1.613978e+02  1.670605e-01  1.613978e+02  9.859466e-01  7.139777e+01
5.862000000000000e+00  9.883001e-01  6.881350e+01  1.525222e-01  1.588135e+02  1.525222e-01  1.588135e+02  9.883001e-01  6.881350e+01
5.865000000000000e+00  9.902153e-01  6.640937e+01  1.395479e-01  1.564094e+02  1.395479e-01  1.564094e+02  9.902153e-01  6.640937e+01
5.868000000000000e+00  9.917808e-01  6.416794e+01  1.279485e-01  1.541679e+02  1.279485e-01  1.541679e+02  9.917808e-01  6.416794e+01
5.871000000000000e+00  9.930660e-01  6.207376e+01  1.175578e-01  1.520738e+02  1.175578e-01  1.520738e+02  9.930660e-01  6.207376e+01
5.874000000000001e+00  9.941258e-01  6.011315e+01  1.082309e-01  1.501132e+02  1.082309e-01  1.501132e+02  9.941258e-01  6.011315e+01
5.877000000000001e+00  9.950034e-01  5.827398e+01  9.984119e-02  1.482740e+02  9.984119e-02  1.482740e+02  9.950034e-01  5.827398e+01
5.880000000000001e+00  9.957332e-01  5.654545e+01  9.227850e-02  1.465455e+02  9.227850e-02  1.465455e+02  9.957332e-01  5.654545e+01
5.883000000000000e+00  9.963427e-01  5.491799e+01  8.544689e-02  1.449180e+02  8.544689e-02  1.449180e+02  9.963427e-01  5.491799e+01
5.886000000000000e+00  9.968538e-01  5.338306e+01  7.926277e-02  1.433831e+02  7.926277e-02  1.433831e+02  9.968538e-01  5.338306e+01
5.889000000000000e+00  9.972839e-01  5.193301e+01  7.365322e-02  1.419330e+02  7.365322e-02  1.419330e+02  9.972839e-01  5.193301e+01
5.892000000000000e+00  9.976474e-01  5.056102e+01  6.855458e-02  1.405610e+02  6.855458e-02  1.405610e+02  9.976474e-01  5.056102e+01
5.895000000000001e+00  9.979556e-01  4.926095e+01  6.391118e-02  1.392610e+02  6.391118e-02  1.392610e+02  9.979556e-01  4.926095e+01
5.898000000000001e+00  9.982179e-01  4.802730e+01  5.967425e-02  1.380273e+02  5.967425e-02  1.380273e+02  9.982179e-01  4.802730e+01
5.901000000000001e+00  9.984419e-01  4.685510e+01  5.580099e-02  1.368551e+02  5.580099e-02  1.368551e+02  9.984419e-01  4.685510e+01
5.904000000000001e+00  9.986338e-01  4.573984e+01  5.225376e-02  1.357398e+02  5.225376e-02  1.357398e+02  9.986338e-01  4.573984e+01
5.907000000000000e+00  9.987988e-01  4.467748e+01  4.899940e-02  1.346775e+02  4.899940e-02  1.346775e+02  9.987988e-01  4.467748e+01
5.910000000000000e+00  9.989410e-01  4.366431e+01  4.600866e-02  1.336643e+02  4.600866e-02  1.336643e+02  9.989410e-01  4.366431e+01
5.913000000000000e+00  9.990640e-01  4.269698e+01  4.325564e-02  1.326970e+02  4.325564e-02  1.326970e+02  9.990640e-01  4.269698e+01
5.916000000000000e+00  9.991707e-01  4.177245e+01  4.071742e-02  1.317724e+02  4.071742e-02  1.317724e+02  9.991707e-01  4.177245e+01
5.919000000000001e+00  9.992635e-01  4.088790e+01  3.837360e-02  1.308879e+02  3.837360e-02  1.308879e+02  9.992635e-01  4.088790e+01
5.922000000000001e+00  9.993443e-01  4.004080e+01  3.620607e-02  1.300408e+02  3.620607e-02  1.300408e+02  9.993443e-01  4.004080e+01
5.925000000000001e+00  9.994151e-01  3.922879e+01  3.419867e-02  1.292288e+02  3.419867e-02  1.292288e+02  9.994151e-01  3.922879e+01
5.928000000000000e+00  9.994770e-01  3.844974e+01  3.233697e-02  1.284497e+02  3.233697e-02  1.284497e+02  9.994770e-01  3.844974e+01
5.931000000000000e+00  9.995315e-01  3.770165e+01  3.060806e-02  1.277017e+02  3.060806e-02  1.277017e+02  9.995315e-01  3.770165e+01
5.934000000000000e+00  9.995794e-01  3.698272e+01  2.900035e-02  1.269827e+02  2.900035e-02  1.269827e+02  9.995794e-01  3.698272e+01
5.937000000000000e+00  9.996217e-01  3.629126e+01  2.750346e-02  1.262913e+02  2.750346e-02  1.262913e+02  9.996217e-01  3.629126e+01
5.940000000000000e+00  9.996591e-01  3.562571e+01  2.610804e-02  1.256257e+02  2.610804e-02  1.256257e+02  9.996591e-01  3.562571e+01
5.943000000000001e+00  9.996923e-01  3.498464e+01  2.480565e-02  1.249846e+02  2.480565e-02  1.249846e+02  9.996923e-01  3.498464e+01
5.946000000000001e+00  9.997217e-01  3.436670e+01  2.358869e-02  1.243667e+02  2.358869e-02  1.243667e+02  9.997217e-01  3.436670e+01
5.949000000000001e+00  9.997480e-01  3.377068e+01  2.245030e-02  1.237707e+02  2.245030e-02  1.237707e+02  9.997480e-01  3.377068e+01
5.952000000000000e+00  9.997713e-01  3.319540e+01  2.138424e-02  1.231954e+02  2.138424e-02  1.231954e+02  9.997713e-01  3.319540e+01
5.955000000000000e+00  9.997922e-01  3.263981e+01  2.038486e-02  1.226398e+02  2.038486e-02  1.226398e+02  9.997922e-01  3.263981e+01
5.958000000000000e+00  9.998109e-01  3.210290e+01  1.944705e-02  1.221029e+02  1.944705e-02  1.221029e+02  9.998109e-01  3.210290e+01
5.961000000000000e+00  9.998276e-01  3.158375e+01  1.856613e-02  1.215837e+02  1.856613e-02  1.215837e+02  9.998276e-01  3.158375e+01
5.964000000000000e+00  9.998427e-01  3.108147e+01  1.773787e-02  1.210815e+02  1.773787e-02  1.210815e+02  9.998427e-01  3.108147e+01
5.967000000000001e+00  9.998562e-01  3.059525e+01  1.695838e-02  1.205953e+02  1.695838e-02  1.205953e+02  9.998562e-01  3.059525e+01
5.970000000000001e+00  9.998684e-01  3.012434e+01  1.622414e-02  1.201243e+02  1.622414e-02  1.201243e+02  9.998684e-01  3.012434e+01
5.973000000000001e+00  9.998794e-01  2.966802e+01  1.553190e-02  1.196680e+02  1.553190e-02  1.196680e+02  9.998794e-01  2.966802e+01
5.976000000000000e+00  9.998893e-01  2.922561e+01  1.487870e-02  1.192256e+02  1.487870e-02  1.192256e+02  9.998893e-01  2.922561e+01
5.979000000000000e+00  9.998983e-01  2.879649e+01  1.426184e-02  1.187965e+02  1.426184e-02  1.187965e+02  9.998983e-01  2.879649e+01
5.982000000000000e+00  9.999064e-01  2.838006e+01  1.367881e-02  1.183801e+02  1.367881e-02  1.183801e+02  9.999064e-01  2.838006e+01
5.985000000000000e+00  9.999138e-01  2.797577e+01  1.312733e-02  1.179758e+02  1.312733e-02  1.179758e+02  9.999138e-01  2.797577e+01
5.988000000000000e+00  9.999206e-01  2.758308e+01  1.260529e-02  1.175831e+02  1.260529e-02  1.175831e+02  9.999206e-01  2.758308e+01
5.991000000000001e+00  9.999267e-01  2.720151e+01  1.211074e-02  1.172015e+02  1.211074e-02  1.172015e+02  9.999267e-01  2.720151e+01
5.994000000000001e+00  9.999322e-01  2.683059e+01  1.164191e-02  1.168306e+02  1.164191e-02  1.168306e+02  9.999322e-01  2.683059e+01
5.997000000000001e+00  9.999373e-01  2.646988e+01  1.119714e-02  1.164699e+02  1.119714e-02  1.164699e+02  9.999373e-01  2.646988e+01
6.000000000000000e+00  9.999419e-01  2.611895e+01  1.077490e-02  1.161189e+02  1.077490e-02  1.161189e+02  9.999419e-01  2.611895e+01
