# GHz S MA R 50

2.000000000000000e-14  3.893197e-02 -9.290598e+00  9.615187e-01 -3.742565e-01  9.615187e-01 -3.742565e-01  3.893197e-02 -9.290598e+00
1.699500000000000e-13  6.403589e-02 -5.626503e+01  9.601152e-01 -3.177208e+00  9.601152e-01 -3.177208e+00  6.403589e-02 -5.626503e+01
3.199000000000000e-13  1.034291e-01 -7.413969e+01  9.565241e-01 -5.965869e+00  9.565241e-01 -5.965869e+00  1.034291e-01 -7.413969e+01
4.698500000000000e-13  1.453565e-01 -8.339074e+01  9.508181e-01 -8.728029e+00  9.508181e-01 -8.728029e+00  1.453565e-01 -8.339074e+01
6.198000000000000e-13  1.874028e-01 -8.961591e+01  9.431104e-01 -1.145218e+01  9.431104e-01 -1.145218e+01  1.874028e-01 -8.961591e+01
7.697500000000001e-13  2.287354e-01 -9.445478e+01  9.335478e-01 -1.412780e+01  9.335478e-01 -1.412780e+01  2.287354e-01 -9.445478e+01
9.197000000000000e-13  2.689238e-01 -9.852937e+01  9.223038e-01 -1.674554e+01  9.223038e-01 -1.674554e+01  2.689238e-01 -9.852937e+01
1.069650000000000e-12  3.076958e-01 -1.021215e+02  9.095704e-01 -1.929739e+01  9.095704e-01 -1.929739e+01  3.076958e-01 -1.021215e+02
1.219600000000000e-12  3.448672e-01 -1.053753e+02  8.955501e-01 -2.177674e+01  8.955501e-01 -2.177674e+01  3.448672e-01 -1.053753e+02
1.369550000000000e-12  3.803156e-01 -1.083719e+02  8.804482e-01 -2.417839e+01  8.804482e-01 -2.417839e+01  3.803156e-01 -1.083719e+02
1.519500000000000e-12  4.139666e-01 -1.111598e+02  8.644664e-01 -2.649851e+01  8.644664e-01 -2.649851e+01  4.139666e-01 -1.111598e+02
1.669450000000000e-12  4.457854e-01 -1.137705e+02  8.477972e-01 -2.873454e+01  8.477972e-01 -2.873454e+01  4.457854e-01 -1.137705e+02
1.819400000000000e-12  4.757698e-01 -1.162254e+02  8.306202e-01 -3.088510e+01  8.306202e-01 -3.088510e+01  4.757698e-01 -1.162254e+02
1.969350000000000e-12  5.039442e-01 -1.185402e+02  8.130995e-01 -3.294982e+01  8.130995e-01 -3.294982e+01  5.039442e-01 -1.185402e+02
2.119300000000001e-12  5.303536e-01 -1.207268e+02  7.953815e-01 -3.492920e+01  7.953815e-01 -3.492920e+01  5.303536e-01 -1.207268e+02
2.269250000000000e-12  5.550590e-01 -1.227949e+02  7.775950e-01 -3.682447e+01  7.775950e-01 -3.682447e+01  5.550590e-01 -1.227949e+02
2.419200000000000e-12  5.781330e-01 -1.247527e+02  7.598512e-01 -3.863746e+01  7.598512e-01 -3.863746e+01  5.781330e-01 -1.247527e+02
2.569150000000000e-12  5.996557e-01 -1.266073e+02  7.422440e-01 -4.037045e+01  7.422440e-01 -4.037045e+01  5.996557e-01 -1.266073e+02
2.719100000000000e-12  6.197121e-01 -1.283653e+02  7.248520e-01 -4.202609e+01  7.248520e-01 -4.202609e+01  6.197121e-01 -1.283653e+02
2.869050000000000e-12  6.383893e-01 -1.300325e+02  7.077391e-01 -4.360725e+01  7.077391e-01 -4.360725e+01  6.383893e-01 -1.300325e+02
3.019000000000000e-12  6.557743e-01 -1.316143e+02  6.909567e-01 -4.511697e+01  6.909567e-01 -4.511697e+01  6.557743e-01 -1.316143e+02
3.168950000000000e-12  6.719527e-01 -1.331160e+02  6.745445e-01 -4.655840e+01  6.745445e-01 -4.655840e+01  6.719527e-01 -1.331160e+02
3.318900000000000e-12  6.870076e-01 -1.345422e+02  6.585326e-01 -4.793471e+01  6.585326e-01 -4.793471e+01  6.870076e-01 -1.345422e+02
3.468850000000000e-12  7.010188e-01 -1.358975e+02  6.429427e-01 -4.924905e+01  6.429427e-01 -4.924905e+01  7.010188e-01 -1.358975e+02
3.618800000000000e-12  7.140617e-01 -1.371861e+02  6.277894e-01 -5.050454e+01  6.277894e-01 -5.050454e+01  7.140617e-01 -1.371861e+02
3.768750000000001e-12  7.262080e-01 -1.384120e+02  6.130811e-01 -5.170422e+01  6.130811e-01 -5.170422e+01  7.262080e-01 -1.384120e+02
3.918700000000000e-12  7.375245e-01 -1.395789e+02  5.988215e-01 -5.285102e+01  5.988215e-01 -5.285102e+01  7.375245e-01 -1.395789e+02
4.068650000000000e-12  7.480739e-01 -1.406902e+02  5.850103e-01 -5.394777e+01  5.850103e-01 -5.394777e+01  7.480739e-01 -1.406902e+02
4.218600000000001e-12  7.579144e-01 -1.417494e+02  5.716436e-01 -5.499718e+01  5.716436e-01 -5.499718e+01  7.579144e-01 -1.417494e+02
4.368550000000000e-12  7.670999e-01 -1.427594e+02  5.587151e-01 -5.600185e+01  5.587151e-01 -5.600185e+01  7.670999e-01 -1.427594e+02
4.518500000000000e-12  7.756803e-01 -1.437233e+02  5.462166e-01 -5.696421e+01  5.462166e-01 -5.696421e+01  7.756803e-01 -1.437233e+02
4.668450000000000e-12  7.837017e-01 -1.446436e+02  5.341382e-01 -5.788661e+01  5.341382e-01 -5.788661e+01  7.837017e-01 -1.446436e+02
4.818400000000000e-12  7.912066e-01 -1.455229e+02  5.224687e-01 -5.877125e+01  5.224687e-01 -5.877125e+01  7.912066e-01 -1.455229e+02
4.968350000000000e-12  7.982339e-01 -1.463636e+02  5.111963e-01 -5.962020e+01  5.111963e-01 -5.962020e+01  7.982339e-01 -1.463636e+02
5.118300000000000e-12  8.048197e-01 -1.471679e+02  5.003084e-01 -6.043542e+01  5.003084e-01 -6.043542e+01  8.048197e-01 -1.471679e+02
5.268250000000000e-12  8.109969e-01 -1.479379e+02  4.897924e-01 -6.121876e+01  4.897924e-01 -6.121876e+01  8.109969e-01 -1.479379e+02
5.418200000000001e-12  8.167959e-01 -1.486755e+02  4.796351e-01 -6.197196e+01  4.796351e-01 -6.197196e+01  8.167959e-01 -1.486755e+02
5.568150000000000e-12  8.222446e-01 -1.493825e+02  4.698235e-01 -6.269664e+01  4.698235e-01 -6.269664e+01  8.222446e-01 -1.493825e+02
5.718100000000001e-12  8.273686e-01 -1.500606e+02  4.603449e-01 -6.339434e+01  4.603449e-01 -6.339434e+01  8.273686e-01 -1.500606e+02
5.868050000000001e-12  8.321913e-01 -1.507115e+02  4.511863e-01 -6.406650e+01  4.511863e-01 -6.406650e+01  8.321913e-01 -1.507115e+02
6.018000000000000e-12  8.367344e-01 -1.513365e+02  4.423355e-01 -6.471446e+01  4.423355e-01 -6.471446e+01  8.367344e-01 -1.513365e+02
6.167950000000001e-12  8.410177e-01 -1.519371e+02  4.337802e-01 -6.533950e+01  4.337802e-01 -6.533950e+01  8.410177e-01 -1.519371e+02
6.317900000000000e-12  8.450595e-01 -1.525146e+02  4.255085e-01 -6.594281e+01  4.255085e-01 -6.594281e+01  8.450595e-01 -1.525146e+02
6.467850000000000e-12  8.488766e-01 -1.530702e+02  4.175091e-01 -6.652551e+01  4.175091e-01 -6.652551e+01  8.488766e-01 -1.530702e+02
6.617800000000000e-12  8.524844e-01 -1.536050e+02  4.097709e-01 -6.708864e+01  4.097709e-01 -6.708864e+01  8.524844e-01 -1.536050e+02
6.767750000000001e-12  8.558971e-01 -1.541200e+02  4.022833e-01 -6.763320e+01  4.022833e-01 -6.763320e+01  8.558971e-01 -1.541200e+02
6.917700000000000e-12  8.591280e-01 -1.546164e+02  3.950359e-01 -6.816010e+01  3.950359e-01 -6.816010e+01  8.591280e-01 -1.546164e+02
7.067650000000000e-12  8.621890e-01 -1.550951e+02  3.880190e-01 -6.867023e+01  3.880190e-01 -6.867023e+01  8.621890e-01 -1.550951e+02
7.217600000000000e-12  8.650914e-01 -1.555568e+02  3.812232e-01 -6.916441e+01  3.812232e-01 -6.916441e+01  8.650914e-01 -1.555568e+02
7.367550000000000e-12  8.678454e-01 -1.560025e+02  3.746394e-01 -6.964339e+01  3.746394e-01 -6.964339e+01  8.678454e-01 -1.560025e+02
7.517500000000001e-12  8.704606e-01 -1.564329e+02  3.682589e-01 -7.010791e+01  3.682589e-01 -7.010791e+01  8.704606e-01 -1.564329e+02
7.667450000000001e-12  8.729458e-01 -1.568488e+02  3.620736e-01 -7.055865e+01  3.620736e-01 -7.055865e+01  8.729458e-01 -1.568488e+02
7.817399999999999e-12  8.753090e-01 -1.572508e+02  3.560755e-01 -7.099626e+01  3.560755e-01 -7.099626e+01  8.753090e-01 -1.572508e+02
7.967349999999998e-12  8.775580e-01 -1.576396e+02  3.502570e-01 -7.142134e+01  3.502570e-01 -7.142134e+01  8.775580e-01 -1.576396e+02
8.117299999999999e-12  8.796996e-01 -1.580158e+02  3.446110e-01 -7.183446e+01  3.446110e-01 -7.183446e+01  8.796996e-01 -1.580158e+02
8.267249999999998e-12  8.817404e-01 -1.583799e+02  3.391305e-01 -7.223616e+01  3.391305e-01 -7.223616e+01  8.817404e-01 -1.583799e+02
8.417200000000001e-12  8.836864e-01 -1.587326e+02  3.338091e-01 -7.262695e+01  3.338091e-01 -7.262695e+01  8.836864e-01 -1.587326e+02
8.567150000000000e-12  8.855432e-01 -1.590743e+02  3.286404e-01 -7.300731e+01  3.286404e-01 -7.300731e+01  8.855432e-01 -1.590743e+02
8.717100000000000e-12  8.873160e-01 -1.594055e+02  3.236185e-01 -7.337770e+01  3.236185e-01 -7.337770e+01  8.873160e-01 -1.594055e+02
8.867050000000001e-12  8.890096e-01 -1.597267e+02  3.187377e-01 -7.373854e+01  3.187377e-01 -7.373854e+01  8.890096e-01 -1.597267e+02
9.017000000000000e-12  8.906286e-01 -1.600383e+02  3.139925e-01 -7.409025e+01  3.139925e-01 -7.409025e+01  8.906286e-01 -1.600383e+02
9.166949999999999e-12  8.921772e-01 -1.603407e+02  3.093777e-01 -7.443320e+01  3.093777e-01 -7.443320e+01  8.921772e-01 -1.603407e+02
9.316900000000000e-12  8.936592e-01 -1.606342e+02  3.048884e-01 -7.476776e+01  3.048884e-01 -7.476776e+01  8.936592e-01 -1.606342e+02
9.466850000000000e-12  8.950784e-01 -1.609194e+02  3.005199e-01 -7.509428e+01  3.005199e-01 -7.509428e+01  8.950784e-01 -1.609194e+02
9.616799999999999e-12  8.964382e-01 -1.611964e+02  2.962676e-01 -7.541308e+01  2.962676e-01 -7.541308e+01  8.964382e-01 -1.611964e+02
9.766750000000000e-12  8.977417e-01 -1.614657e+02  2.921273e-01 -7.572447e+01  2.921273e-01 -7.572447e+01  8.977417e-01 -1.614657e+02
9.916700000000000e-12  8.989920e-01 -1.617275e+02  2.880947e-01 -7.602875e+01  2.880947e-01 -7.602875e+01  8.989920e-01 -1.617275e+02
1.006665000000000e-11  9.001919e-01 -1.619821e+02  2.841661e-01 -7.632619e+01  2.841661e-01 -7.632619e+01  9.001919e-01 -1.619821e+02
1.021660000000000e-11  9.013439e-01 -1.622298e+02  2.803376e-01 -7.661707e+01  2.803376e-01 -7.661707e+01  9.013439e-01 -1.622298e+02
1.036655000000000e-11  9.024506e-01 -1.624710e+02  2.766056e-01 -7.690164e+01  2.766056e-01 -7.690164e+01  9.024506e-01 -1.624710e+02
1.051650000000000e-11  9.035142e-01 -1.627058e+02  2.729667e-01 -7.718012e+01  2.729667e-01 -7.718012e+01  9.035142e-01 -1.627058e+02
1.066645000000000e-11  9.045369e-01 -1.629344e+02  2.694177e-01 -7.745277e+01  2.694177e-01 -7.745277e+01  9.045369e-01 -1.629344e+02
1.081640000000000e-11  9.055208e-01 -1.631572e+02  2.659554e-01 -7.771978e+01  2.659554e-01 -7.771978e+01  9.055208e-01 -1.631572e+02
1.096635000000000e-11  9.064678e-01 -1.633742e+02  2.625768e-01 -7.798137e+01  2.625768e-01 -7.798137e+01  9.064678e-01 -1.633742e+02
1.111630000000000e-11  9.073796e-01 -1.635859e+02  2.592790e-01 -7.823773e+01  2.592790e-01 -7.823773e+01  9.073796e-01 -1.635859e+02
1.126625000000000e-11  9.082579e-01 -1.637922e+02  2.560593e-01 -7.848906e+01  2.560593e-01 -7.848906e+01  9.082579e-01 -1.637922e+02
1.141620000000000e-11  9.091044e-01 -1.639935e+02  2.529150e-01 -7.873553e+01  2.529150e-01 -7.873553e+01  9.091044e-01 -1.639935e+02
1.156615000000000e-11  9.099205e-01 -1.641899e+02  2.498437e-01 -7.897732e+01  2.498437e-01 -7.897732e+01  9.099205e-01 -1.641899e+02
1.171610000000000e-11  9.107077e-01 -1.643815e+02  2.468429e-01 -7.921458e+01  2.468429e-01 -7.921458e+01  9.107077e-01 -1.643815e+02
1.186605000000000e-11  9.114673e-01 -1.645686e+02  2.439103e-01 -7.944747e+01  2.439103e-01 -7.944747e+01  9.114673e-01 -1.645686e+02
1.201600000000000e-11  9.122005e-01 -1.647512e+02  2.410436e-01 -7.967615e+01  2.410436e-01 -7.967615e+01  9.122005e-01 -1.647512e+02
1.216595000000000e-11  9.129086e-01 -1.649297e+02  2.382408e-01 -7.990075e+01  2.382408e-01 -7.990075e+01  9.129086e-01 -1.649297e+02
1.231590000000000e-11  9.135926e-01 -1.651040e+02  2.354999e-01 -8.012141e+01  2.354999e-01 -8.012141e+01  9.135926e-01 -1.651040e+02
1.246585000000000e-11  9.142537e-01 -1.652743e+02  2.328188e-01 -8.033827e+01  2.328188e-01 -8.033827e+01  9.142537e-01 -1.652743e+02
1.261580000000000e-11  9.148929e-01 -1.654408e+02  2.301956e-01 -8.055144e+01  2.301956e-01 -8.055144e+01  9.148929e-01 -1.654408e+02
1.276575000000000e-11  9.155110e-01 -1.656035e+02  2.276287e-01 -8.076105e+01  2.276287e-01 -8.076105e+01  9.155110e-01 -1.656035e+02
1.291570000000000e-11  9.161090e-01 -1.657627e+02  2.251161e-01 -8.096720e+01  2.251161e-01 -8.096720e+01  9.161090e-01 -1.657627e+02
1.306565000000000e-11  9.166878e-01 -1.659184e+02  2.226564e-01 -8.117002e+01  2.226564e-01 -8.117002e+01  9.166878e-01 -1.659184e+02
1.321560000000000e-11  9.172482e-01 -1.660707e+02  2.202478e-01 -8.136961e+01  2.202478e-01 -8.136961e+01  9.172482e-01 -1.660707e+02
1.336555000000000e-11  9.177909e-01 -1.662197e+02  2.178889e-01 -8.156606e+01  2.178889e-01 -8.156606e+01  9.177909e-01 -1.662197e+02
1.351550000000000e-11  9.183167e-01 -1.663656e+02  2.155781e-01 -8.175947e+01  2.155781e-01 -8.175947e+01  9.183167e-01 -1.663656e+02
1.366545000000000e-11  9.188262e-01 -1.665084e+02  2.133140e-01 -8.194994e+01  2.133140e-01 -8.194994e+01  9.188262e-01 -1.665084e+02
1.381540000000000e-11  9.193202e-01 -1.666482e+02  2.110953e-01 -8.213755e+01  2.110953e-01 -8.213755e+01  9.193202e-01 -1.666482e+02
1.396535000000000e-11  9.197992e-01 -1.667851e+02  2.089207e-01 -8.232240e+01  2.089207e-01 -8.232240e+01  9.197992e-01 -1.667851e+02
1.411530000000000e-11  9.202638e-01 -1.669193e+02  2.067888e-01 -8.250456e+01  2.067888e-01 -8.250456e+01  9.202638e-01 -1.669193e+02
1.426525000000000e-11  9.207147e-01 -1.670507e+02  2.046985e-01 -8.268411e+01  2.046985e-01 -8.268411e+01  9.207147e-01 -1.670507e+02
1.441520000000000e-11  9.211523e-01 -1.671795e+02  2.026486e-01 -8.286113e+01  2.026486e-01 -8.286113e+01  9.211523e-01 -1.671795e+02
1.456515000000000e-11  9.215772e-01 -1.673058e+02  2.006379e-01 -8.303569e+01  2.006379e-01 -8.303569e+01  9.215772e-01 -1.673058e+02
1.471510000000000e-11  9.219898e-01 -1.674295e+02  1.986654e-01 -8.320787e+01  1.986654e-01 -8.320787e+01  9.219898e-01 -1.674295e+02
1.486505000000000e-11  9.223907e-01 -1.675508e+02  1.967299e-01 -8.337772e+01  1.967299e-01 -8.337772e+01  9.223907e-01 -1.675508e+02
1.501500000000000e-11  9.227802e-01 -1.676698e+02  1.948305e-01 -8.354532e+01  1.948305e-01 -8.354532e+01  9.227802e-01 -1.676698e+02
1.516495000000000e-11  9.231588e-01 -1.677865e+02  1.929663e-01 -8.371073e+01  1.929663e-01 -8.371073e+01  9.231588e-01 -1.677865e+02
1.531490000000000e-11  9.235269e-01 -1.679010e+02  1.911362e-01 -8.387401e+01  1.911362e-01 -8.387401e+01  9.235269e-01 -1.679010e+02
1.546485000000000e-11  9.238849e-01 -1.680134e+02  1.893393e-01 -8.403521e+01  1.893393e-01 -8.403521e+01  9.238849e-01 -1.680134e+02
1.561480000000000e-11  9.242332e-01 -1.681236e+02  1.875747e-01 -8.419440e+01  1.875747e-01 -8.419440e+01  9.242332e-01 -1.681236e+02
1.576475000000000e-11  9.245720e-01 -1.682318e+02  1.858417e-01 -8.435162e+01  1.858417e-01 -8.435162e+01  9.245720e-01 -1.682318e+02
1.591470000000000e-11  9.249018e-01 -1.683381e+02  1.841394e-01 -8.450694e+01  1.841394e-01 -8.450694e+01  9.249018e-01 -1.683381e+02
1.606465000000000e-11  9.252229e-01 -1.684424e+02  1.824669e-01 -8.466039e+01  1.824669e-01 -8.466039e+01  9.252229e-01 -1.684424e+02
1.621460000000000e-11  9.255355e-01 -1.685448e+02  1.808236e-01 -8.481204e+01  1.808236e-01 -8.481204e+01  9.255355e-01 -1.685448e+02
1.636455000000000e-11  9.258400e-01 -1.686454e+02  1.792086e-01 -8.496192e+01  1.792086e-01 -8.496192e+01  9.258400e-01 -1.686454e+02
1.651450000000000e-11  9.261366e-01 -1.687442e+02  1.776213e-01 -8.511009e+01  1.776213e-01 -8.511009e+01  9.261366e-01 -1.687442e+02
1.666445000000000e-11  9.264257e-01 -1.688412e+02  1.760610e-01 -8.525658e+01  1.760610e-01 -8.525658e+01  9.264257e-01 -1.688412e+02
1.681440000000000e-11  9.267074e-01 -1.689366e+02  1.745269e-01 -8.540143e+01  1.745269e-01 -8.540143e+01  9.267074e-01 -1.689366e+02
1.696435000000000e-11  9.269821e-01 -1.690303e+02  1.730185e-01 -8.554470e+01  1.730185e-01 -8.554470e+01  9.269821e-01 -1.690303e+02
1.711430000000000e-11  9.272499e-01 -1.691224e+02  1.715351e-01 -8.568642e+01  1.715351e-01 -8.568642e+01  9.272499e-01 -1.691224e+02
1.726425000000000e-11  9.275111e-01 -1.692130e+02  1.700761e-01 -8.582662e+01  1.700761e-01 -8.582662e+01  9.275111e-01 -1.692130e+02
1.741420000000000e-11  9.277659e-01 -1.693020e+02  1.686409e-01 -8.596535e+01  1.686409e-01 -8.596535e+01  9.277659e-01 -1.693020e+02
1.756415000000000e-11  9.280146e-01 -1.693895e+02  1.672289e-01 -8.610264e+01  1.672289e-01 -8.610264e+01  9.280146e-01 -1.693895e+02
1.771410000000000e-11  9.282572e-01 -1.694756e+02  1.658397e-01 -8.623852e+01  1.658397e-01 -8.623852e+01  9.282572e-01 -1.694756e+02
1.786405000000000e-11  9.284941e-01 -1.695603e+02  1.644726e-01 -8.637303e+01  1.644726e-01 -8.637303e+01  9.284941e-01 -1.695603e+02
1.801400000000000e-11  9.287254e-01 -1.696435e+02  1.631271e-01 -8.650621e+01  1.631271e-01 -8.650621e+01  9.287254e-01 -1.696435e+02
1.816395000000000e-11  9.289513e-01 -1.697254e+02  1.618027e-01 -8.663807e+01  1.618027e-01 -8.663807e+01  9.289513e-01 -1.697254e+02
1.831390000000000e-11  9.291719e-01 -1.698060e+02  1.604990e-01 -8.676866e+01  1.604990e-01 -8.676866e+01  9.291719e-01 -1.698060e+02
1.846385000000000e-11  9.293874e-01 -1.698853e+02  1.592154e-01 -8.689801e+01  1.592154e-01 -8.689801e+01  9.293874e-01 -1.698853e+02
1.861380000000000e-11  9.295980e-01 -1.699634e+02  1.579515e-01 -8.702613e+01  1.579515e-01 -8.702613e+01  9.295980e-01 -1.699634e+02
1.876375000000000e-11  9.298038e-01 -1.700402e+02  1.567069e-01 -8.715306e+01  1.567069e-01 -8.715306e+01  9.298038e-01 -1.700402e+02
1.891370000000000e-11  9.300050e-01 -1.701158e+02  1.554811e-01 -8.727883e+01  1.554811e-01 -8.727883e+01  9.300050e-01 -1.701158e+02
1.906365000000000e-11  9.302017e-01 -1.701903e+02  1.542737e-01 -8.740347e+01  1.542737e-01 -8.740347e+01  9.302017e-01 -1.701903e+02
1.921360000000000e-11  9.303941e-01 -1.702636e+02  1.530843e-01 -8.752699e+01  1.530843e-01 -8.752699e+01  9.303941e-01 -1.702636e+02
1.936355000000000e-11  9.305822e-01 -1.703357e+02  1.519125e-01 -8.764942e+01  1.519125e-01 -8.764942e+01  9.305822e-01 -1.703357e+02
1.951350000000000e-11  9.307663e-01 -1.704068e+02  1.507579e-01 -8.777079e+01  1.507579e-01 -8.777079e+01  9.307663e-01 -1.704068e+02
1.966345000000000e-11  9.309463e-01 -1.704768e+02  1.496202e-01 -8.789112e+01  1.496202e-01 -8.789112e+01  9.309463e-01 -1.704768e+02
1.981340000000000e-11  9.311226e-01 -1.705458e+02  1.484989e-01 -8.801043e+01  1.484989e-01 -8.801043e+01  9.311226e-01 -1.705458e+02
1.996335000000000e-11  9.312950e-01 -1.706137e+02  1.473937e-01 -8.812875e+01  1.473937e-01 -8.812875e+01  9.312950e-01 -1.706137e+02
2.011330000000000e-11  9.314639e-01 -1.706806e+02  1.463044e-01 -8.824609e+01  1.463044e-01 -8.824609e+01  9.314639e-01 -1.706806e+02
2.026325000000000e-11  9.316292e-01 -1.707466e+02  1.452304e-01 -8.836247e+01  1.452304e-01 -8.836247e+01  9.316292e-01 -1.707466e+02
2.041320000000000e-11  9.317911e-01 -1.708116e+02  1.441716e-01 -8.847792e+01  1.441716e-01 -8.847792e+01  9.317911e-01 -1.708116e+02
2.056315000000000e-11  9.319496e-01 -1.708756e+02  1.431276e-01 -8.859246e+01  1.431276e-01 -8.859246e+01  9.319496e-01 -1.708756e+02
2.071310000000000e-11  9.321049e-01 -1.709387e+02  1.420981e-01 -8.870611e+01  1.420981e-01 -8.870611e+01  9.321049e-01 -1.709387e+02
2.086305000000000e-11  9.322571e-01 -1.710010e+02  1.410828e-01 -8.881887e+01  1.410828e-01 -8.881887e+01  9.322571e-01 -1.710010e+02
2.101300000000000e-11  9.324062e-01 -1.710623e+02  1.400814e-01 -8.893078e+01  1.400814e-01 -8.893078e+01  9.324062e-01 -1.710623e+02
2.116295000000000e-11  9.325524e-01 -1.711228e+02  1.390936e-01 -8.904184e+01  1.390936e-01 -8.904184e+01  9.325524e-01 -1.711228e+02
2.131290000000000e-11  9.326956e-01 -1.711824e+02  1.381192e-01 -8.915208e+01  1.381192e-01 -8.915208e+01  9.326956e-01 -1.711824e+02
2.146285000000000e-11  9.328360e-01 -1.712412e+02  1.371578e-01 -8.926151e+01  1.371578e-01 -8.926151e+01  9.328360e-01 -1.712412e+02
2.161280000000000e-11  9.329737e-01 -1.712992e+02  1.362093e-01 -8.937015e+01  1.362093e-01 -8.937015e+01  9.329737e-01 -1.712992e+02
2.176275000000000e-11  9.331088e-01 -1.713564e+02  1.352734e-01 -8.947801e+01  1.352734e-01 -8.947801e+01  9.331088e-01 -1.713564e+02
2.191270000000000e-11  9.332412e-01 -1.714128e+02  1.343497e-01 -8.958511e+01  1.343497e-01 -8.958511e+01  9.332412e-01 -1.714128e+02
2.206265000000000e-11  9.333712e-01 -1.714684e+02  1.334382e-01 -8.969146e+01  1.334382e-01 -8.969146e+01  9.333712e-01 -1.714684e+02
2.221260000000000e-11  9.334986e-01 -1.715233e+02  1.325385e-01 -8.979708e+01  1.325385e-01 -8.979708e+01  9.334986e-01 -1.715233e+02
