# GHz S MA R 50

3.700000000000000e-01  9.999999e-01 -9.200303e+00  5.447795e-04 -9.920030e+01  5.447795e-04 -9.920030e+01  9.999999e-01 -9.200303e+00
3.704000000000000e-01  9.999998e-01 -9.330106e+00  5.685197e-04 -9.933011e+01  5.685197e-04 -9.933011e+01  9.999998e-01 -9.330106e+00
3.708000000000000e-01  9.999998e-01 -9.463473e+00  5.936301e-04 -9.946347e+01  5.936301e-04 -9.946347e+01  9.999998e-01 -9.463473e+00
3.712000000000000e-01  9.999998e-01 -9.600554e+00  6.202102e-04 -9.960055e+01  6.202102e-04 -9.960055e+01  9.999998e-01 -9.600554e+00
3.716000000000000e-01  9.999998e-01 -9.741506e+00  6.483680e-04 -9.974151e+01  6.483680e-04 -9.974151e+01  9.999998e-01 -9.741506e+00
3.720000000000000e-01  9.999998e-01 -9.886496e+00  6.782217e-04 -9.988650e+01  6.782217e-04 -9.988650e+01  9.999998e-01 -9.886496e+00
3.724000000000000e-01  9.999997e-01 -1.003570e+01  7.098997e-04 -1.000357e+02  7.098997e-04 -1.000357e+02  9.999997e-01 -1.003570e+01
3.728000000000000e-01  9.999997e-01 -1.018931e+01  7.435426e-04 -1.001893e+02  7.435426e-04 -1.001893e+02  9.999997e-01 -1.018931e+01
3.732000000000000e-01  9.999997e-01 -1.034752e+01  7.793039e-04 -1.003475e+02  7.793039e-04 -1.003475e+02  9.999997e-01 -1.034752e+01
3.736000000000000e-01  9.999997e-01 -1.051054e+01  8.173518e-04 -1.005105e+02  8.173518e-04 -1.005105e+02  9.999997e-01 -1.051054e+01
3.740000000000000e-01  9.999996e-01 -1.067860e+01  8.578708e-04 -1.006786e+02  8.578708e-04 -1.006786e+02  9.999996e-01 -1.067860e+01
3.744000000000000e-01  9.999996e-01 -1.085193e+01  9.010634e-04 -1.008519e+02  9.010634e-04 -1.008519e+02  9.999996e-01 -1.085193e+01
3.748000000000000e-01  9.999996e-01 -1.103079e+01  9.471521e-04 -1.010308e+02  9.471521e-04 -1.010308e+02  9.999996e-01 -1.103079e+01
3.752000000000000e-01  9.999995e-01 -1.121545e+01  9.963823e-04 -1.012154e+02  9.963823e-04 -1.012154e+02  9.999995e-01 -1.121545e+01
3.756000000000000e-01  9.999994e-01 -1.140619e+01  1.049024e-03 -1.014062e+02  1.049024e-03 -1.014062e+02  9.999994e-01 -1.140619e+01
3.760000000000000e-01  9.999994e-01 -1.160332e+01  1.105377e-03 -1.016033e+02  1.105377e-03 -1.016033e+02  9.999994e-01 -1.160332e+01
3.764000000000000e-01  9.999993e-01 -1.180717e+01  1.165772e-03 -1.018072e+02  1.165772e-03 -1.018072e+02  9.999993e-01 -1.180717e+01
3.768000000000000e-01  9.999992e-01 -1.201810e+01  1.230575e-03 -1.020181e+02  1.230575e-03 -1.020181e+02  9.999992e-01 -1.201810e+01
3.772000000000000e-01  9.999992e-01 -1.223647e+01  1.300193e-03 -1.022365e+02  1.300193e-03 -1.022365e+02  9.999992e-01 -1.223647e+01
3.776000000000001e-01  9.999991e-01 -1.246269e+01  1.375080e-03 -1.024627e+02  1.375080e-03 -1.024627e+02  9.999991e-01 -1.246269e+01
3.780000000000000e-01  9.999989e-01 -1.269720e+01  1.455741e-03 -1.026972e+02  1.455741e-03 -1.026972e+02  9.999989e-01 -1.269720e+01
3.784000000000000e-01  9.999988e-01 -1.294047e+01  1.542740e-03 -1.029405e+02  1.542740e-03 -1.029405e+02  9.999988e-01 -1.294047e+01
3.788000000000000e-01  9.999987e-01 -1.319298e+01  1.636709e-03 -1.031930e+02  1.636709e-03 -1.031930e+02  9.999987e-01 -1.319298e+01
3.792000000000000e-01  9.999985e-01 -1.345529e+01  1.738356e-03 -1.034553e+02  1.738356e-03 -1.034553e+02  9.999985e-01 -1.345529e+01
3.796000000000001e-01  9.999983e-01 -1.372798e+01  1.848477e-03 -1.037280e+02  1.848477e-03 -1.037280e+02  9.999983e-01 -1.372798e+01
3.800000000000000e-01  9.999981e-01 -1.401168e+01  1.967971e-03 -1.040117e+02  1.967971e-03 -1.040117e+02  9.999981e-01 -1.401168e+01
3.804000000000000e-01  9.999978e-01 -1.430708e+01  2.097852e-03 -1.043071e+02  2.097852e-03 -1.043071e+02  9.999978e-01 -1.430708e+01
3.808000000000000e-01  9.999975e-01 -1.461493e+01  2.239267e-03 -1.046149e+02  2.239267e-03 -1.046149e+02  9.999975e-01 -1.461493e+01
3.812000000000000e-01  9.999971e-01 -1.493602e+01  2.393522e-03 -1.049360e+02  2.393522e-03 -1.049360e+02  9.999971e-01 -1.493602e+01
3.816000000000001e-01  9.999967e-01 -1.527125e+01  2.562100e-03 -1.052712e+02  2.562100e-03 -1.052712e+02  9.999967e-01 -1.527125e+01
3.820000000000000e-01  9.999962e-01 -1.562157e+01  2.746697e-03 -1.056216e+02  2.746697e-03 -1.056216e+02  9.999962e-01 -1.562157e+01
3.824000000000000e-01  9.999957e-01 -1.598803e+01  2.949255e-03 -1.059880e+02  2.949255e-03 -1.059880e+02  9.999957e-01 -1.598803e+01
3.828000000000000e-01  9.999950e-01 -1.637180e+01  3.172005e-03 -1.063718e+02  3.172005e-03 -1.063718e+02  9.999950e-01 -1.637180e+01
3.832000000000000e-01  9.999942e-01 -1.677413e+01  3.417519e-03 -1.067741e+02  3.417519e-03 -1.067741e+02  9.999942e-01 -1.677413e+01
3.836000000000000e-01  9.999932e-01 -1.719643e+01  3.688772e-03 -1.071964e+02  3.688772e-03 -1.071964e+02  9.999932e-01 -1.719643e+01
3.840000000000000e-01  9.999920e-01 -1.764022e+01  3.989218e-03 -1.076402e+02  3.989218e-03 -1.076402e+02  9.999920e-01 -1.764022e+01
3.844000000000000e-01  9.999907e-01 -1.810722e+01  4.322883e-03 -1.081072e+02  4.322883e-03 -1.081072e+02  9.999907e-01 -1.810722e+01
3.848000000000000e-01  9.999890e-01 -1.859932e+01  4.694477e-03 -1.085993e+02  4.694477e-03 -1.085993e+02  9.999890e-01 -1.859932e+01
3.852000000000000e-01  9.999869e-01 -1.911863e+01  5.109538e-03 -1.091186e+02  5.109538e-03 -1.091186e+02  9.999869e-01 -1.911863e+01
3.856000000000000e-01  9.999845e-01 -1.966749e+01  5.574601e-03 -1.096675e+02  5.574601e-03 -1.096675e+02  9.999845e-01 -1.966749e+01
3.860000000000000e-01  9.999814e-01 -2.024855e+01  6.097418e-03 -1.102486e+02  6.097418e-03 -1.102486e+02  9.999814e-01 -2.024855e+01
3.864000000000000e-01  9.999776e-01 -2.086478e+01  6.687235e-03 -1.108648e+02  6.687235e-03 -1.108648e+02  9.999776e-01 -2.086478e+01
3.868000000000000e-01  9.999730e-01 -2.151953e+01  7.355131e-03 -1.115195e+02  7.355131e-03 -1.115195e+02  9.999730e-01 -2.151953e+01
3.872000000000000e-01  9.999671e-01 -2.221660e+01  8.114468e-03 -1.122166e+02  8.114468e-03 -1.122166e+02  9.999671e-01 -2.221660e+01
3.876000000000000e-01  9.999597e-01 -2.296033e+01  8.981454e-03 -1.129603e+02  8.981454e-03 -1.129603e+02  9.999597e-01 -2.296033e+01
3.880000000000000e-01  9.999502e-01 -2.375567e+01  9.975881e-03 -1.137557e+02  9.975881e-03 -1.137557e+02  9.999502e-01 -2.375567e+01
3.884000000000000e-01  9.999381e-01 -2.460834e+01  1.112209e-02 -1.146083e+02  1.112209e-02 -1.146083e+02  9.999381e-01 -2.460834e+01
3.888000000000000e-01  9.999225e-01 -2.552495e+01  1.245026e-02 -1.155250e+02  1.245026e-02 -1.155250e+02  9.999225e-01 -2.552495e+01
3.892000000000001e-01  9.999020e-01 -2.651322e+01  1.399807e-02 -1.165132e+02  1.399807e-02 -1.165132e+02  9.999020e-01 -2.651322e+01
3.896000000000000e-01  9.998750e-01 -2.758221e+01  1.581307e-02 -1.175822e+02  1.581307e-02 -1.175822e+02  9.998750e-01 -2.758221e+01
3.900000000000000e-01  9.998388e-01 -2.874263e+01  1.795576e-02 -1.187426e+02  1.795576e-02 -1.187426e+02  9.998388e-01 -2.874263e+01
3.904000000000000e-01  9.997898e-01 -3.000729e+01  2.050400e-02 -1.200073e+02  2.050400e-02 -1.200073e+02  9.997898e-01 -3.000729e+01
3.908000000000000e-01  9.997224e-01 -3.139163e+01  2.355916e-02 -1.213916e+02  2.355916e-02 -1.213916e+02  9.997224e-01 -3.139163e+01
3.912000000000001e-01  9.996285e-01 -3.291449e+01  2.725492e-02 -1.229145e+02  2.725492e-02 -1.229145e+02  9.996285e-01 -3.291449e+01
3.916000000000000e-01  9.994952e-01 -3.459916e+01  3.177010e-02 -1.245992e+02  3.177010e-02 -1.245992e+02  9.994952e-01 -3.459916e+01
3.920000000000000e-01  9.993023e-01 -3.647487e+01  3.734775e-02 -1.264749e+02  3.734775e-02 -1.264749e+02  9.993023e-01 -3.647487e+01
3.924000000000000e-01  9.990172e-01 -3.857896e+01  4.432413e-02 -1.285790e+02  4.432413e-02 -1.285790e+02  9.990172e-01 -3.857896e+01
3.928000000000000e-01  9.985853e-01 -4.096008e+01  5.317400e-02 -1.309601e+02  5.317400e-02 -1.309601e+02  9.985853e-01 -4.096008e+01
3.932000000000001e-01  9.979123e-01 -4.368321e+01  6.458307e-02 -1.336832e+02  6.458307e-02 -1.336832e+02  9.979123e-01 -4.368321e+01
3.936000000000000e-01  9.968295e-01 -4.683762e+01  7.956778e-02 -1.368376e+02  7.956778e-02 -1.368376e+02  9.968295e-01 -4.683762e+01
3.940000000000000e-01  9.950195e-01 -5.055034e+01  9.968009e-02 -1.405503e+02  9.968009e-02 -1.405503e+02  9.950195e-01 -5.055034e+01
3.944000000000000e-01  9.918553e-01 -5.500960e+01  1.273696e-01 -1.450096e+02  1.273696e-01 -1.450096e+02  9.918553e-01 -5.500960e+01
3.948000000000000e-01  9.860170e-01 -6.050830e+01  1.666450e-01 -1.505083e+02  1.666450e-01 -1.505083e+02  9.860170e-01 -6.050830e+01
3.952000000000001e-01  9.745210e-01 -6.752836e+01  2.242965e-01 -1.575284e+02  2.242965e-01 -1.575284e+02  9.745210e-01 -6.752836e+01
3.956000000000000e-01  9.500733e-01 -7.690960e+01  3.120268e-01 -1.669096e+02  3.120268e-01 -1.669096e+02  9.500733e-01 -7.690960e+01
3.960000000000000e-01  8.936236e-01 -9.016852e+01  4.488172e-01  1.798315e+02  4.488172e-01  1.798315e+02  8.936236e-01 -9.016852e+01
3.964000000000000e-01  7.567490e-01 -1.098305e+02  6.537056e-01  1.601695e+02  6.537056e-01  1.601695e+02  7.567490e-01 -1.098305e+02
3.968000000000000e-01  4.605730e-01 -1.379807e+02  8.876218e-01  1.320193e+02  8.876218e-01  1.320193e+02  4.605730e-01 -1.379807e+02
3.972000000000000e-01  4.926469e-02 -1.700467e+02  9.987858e-01  9.995332e+01  9.987858e-01  9.995332e+01  4.926469e-02 -1.700467e+02
3.976000000000000e-01  2.664094e-01 -1.706770e+01  9.638600e-01  7.293230e+01  9.638600e-01  7.293230e+01  2.664094e-01 -1.706770e+01
3.980000000000000e-01  4.352762e-01 -3.767528e+01  9.002970e-01  5.232472e+01  9.002970e-01  5.232472e+01  4.352762e-01 -3.767528e+01
3.984000000000000e-01  5.125789e-01 -5.468728e+01  8.586401e-01  3.531272e+01  8.586401e-01  3.531272e+01  5.125789e-01 -5.468728e+01
3.988000000000000e-01  5.400964e-01 -7.038489e+01  8.416032e-01  1.961511e+01  8.416032e-01  1.961511e+01  5.400964e-01 -7.038489e+01
3.992000000000000e-01  5.405851e-01 -8.609648e+01  8.412893e-01  3.903522e+00  8.412893e-01  3.903522e+00  5.405851e-01 -8.609648e+01
3.996000000000000e-01  5.294020e-01 -1.025481e+02  8.483711e-01 -1.254812e+01  8.483711e-01 -1.254812e+01  5.294020e-01 -1.025481e+02
4.000000000000000e-01  5.211056e-01 -1.201058e+02  8.534922e-01 -3.010579e+01  8.534922e-01 -3.010579e+01  5.211056e-01 -1.201058e+02
4.004000000000000e-01  5.308970e-01 -1.389285e+02  8.474364e-01 -4.892852e+01  8.474364e-01 -4.892852e+01  5.308970e-01 -1.389285e+02
4.008000000000001e-01  5.712175e-01 -1.590351e+02  8.207988e-01 -6.903510e+01  8.207988e-01 -6.903510e+01  5.712175e-01 -1.590351e+02
4.012000000000000e-01  6.445056e-01  1.798160e+02  7.645996e-01 -9.018402e+01  7.645996e-01 -9.018402e+01  6.445056e-01  1.798160e+02
4.016000000000000e-01  7.372909e-01  1.584061e+02  6.755754e-01 -1.115939e+02  6.755754e-01 -1.115939e+02  7.372909e-01  1.584061e+02
4.020000000000000e-01  8.259140e-01  1.380595e+02  5.637962e-01 -1.319405e+02  5.637962e-01 -1.319405e+02  8.259140e-01  1.380595e+02
4.024000000000000e-01  8.932742e-01  1.200295e+02  4.495123e-01 -1.499705e+02  4.495123e-01 -1.499705e+02  8.932742e-01  1.200295e+02
4.028000000000001e-01  9.369740e-01  1.048764e+02  3.493991e-01 -1.651236e+02  3.493991e-01 -1.651236e+02  9.369740e-01  1.048764e+02
4.032000000000000e-01  9.629677e-01  9.247991e+01  2.696167e-01 -1.775201e+02  2.696167e-01 -1.775201e+02  9.629677e-01  9.247991e+01
4.036000000000000e-01  9.779265e-01  8.240216e+01  2.089492e-01  1.724022e+02  2.089492e-01  1.724022e+02  9.779265e-01  8.240216e+01
4.040000000000000e-01  9.865284e-01  7.416464e+01  1.635902e-01  1.641646e+02  1.635902e-01  1.641646e+02  9.865284e-01  7.416464e+01
4.044000000000000e-01  9.915541e-01  6.735912e+01  1.296940e-01  1.573591e+02  1.296940e-01  1.573591e+02  9.915541e-01  6.735912e+01
4.048000000000001e-01  9.945596e-01  6.166730e+01  1.041694e-01  1.516673e+02  1.041694e-01  1.516673e+02  9.945596e-01  6.166730e+01
4.052000000000000e-01  9.964039e-01  5.684874e+01  8.473061e-02  1.468487e+02  8.473061e-02  1.468487e+02  9.964039e-01  5.684874e+01
4.056000000000000e-01  9.975653e-01  5.272296e+01  6.973895e-02  1.427230e+02  6.973895e-02  1.427230e+02  9.975653e-01  5.272296e+01
4.060000000000000e-01  9.983149e-01  4.915380e+01  5.802906e-02  1.391538e+02  5.802906e-02  1.391538e+02  9.983149e-01  4.915380e+01
4.064000000000000e-01  9.988101e-01  4.603745e+01  4.876958e-02  1.360375e+02  4.876958e-02  1.360375e+02  9.988101e-01  4.603745e+01
4.068000000000001e-01  9.991442e-01  4.329385e+01  4.136246e-02  1.332939e+02  4.136246e-02  1.332939e+02  9.991442e-01  4.329385e+01
4.072000000000000e-01  9.993742e-01  4.086044e+01  3.537285e-02  1.308604e+02  3.537285e-02  1.308604e+02  9.993742e-01  4.086044e+01
4.076000000000000e-01  9.995354e-01  3.868774e+01  3.048078e-02  1.286877e+02  3.048078e-02  1.286877e+02  9.995354e-01  3.868774e+01
4.080000000000000e-01  9.996502e-01  3.673616e+01  2.644806e-02  1.267362e+02  2.644806e-02  1.267362e+02  9.996502e-01  3.673616e+01
4.084000000000000e-01  9.997333e-01  3.497369e+01  2.309523e-02  1.249737e+02  2.309523e-02  1.249737e+02  9.997333e-01  3.497369e+01
4.088000000000001e-01  9.997942e-01  3.337417e+01  2.028561e-02  1.233742e+02  2.028561e-02  1.233742e+02  9.997942e-01  3.337417e+01
4.092000000000000e-01  9.998395e-01  3.191605e+01  1.791396e-02  1.219160e+02  1.791396e-02  1.219160e+02  9.998395e-01  3.191605e+01
4.096000000000000e-01  9.998736e-01  3.058138e+01  1.589845e-02  1.205814e+02  1.589845e-02  1.205814e+02  9.998736e-01  3.058138e+01
4.100000000000000e-01  9.998995e-01  2.935513e+01  1.417483e-02  1.193551e+02  1.417483e-02  1.193551e+02  9.998995e-01  2.935513e+01
