# GHz S RI R 50

2.275000000000000e+00  9.750507e-01 -2.219823e-01  3.525949e-08  1.548763e-07  3.525949e-08  1.548763e-07  9.750507e-01 -2.219823e-01
2.275450450450451e+00  9.747393e-01 -2.233455e-01  4.054578e-08  1.769526e-07  4.054578e-08  1.769526e-07  9.747393e-01 -2.233455e-01
2.275900900900901e+00  9.744199e-01 -2.247350e-01  4.668842e-08  2.024345e-07  4.668842e-08  2.024345e-07  9.744199e-01 -2.247350e-01
2.276351351351352e+00  9.740920e-01 -2.261519e-01  5.383732e-08  2.318906e-07  5.383732e-08  2.318906e-07  9.740920e-01 -2.261519e-01
2.276801801801802e+00  9.737554e-01 -2.275972e-01  6.217070e-08  2.659921e-07  6.217070e-08  2.659921e-07  9.737554e-01 -2.275972e-01
2.277252252252252e+00  9.734095e-01 -2.290719e-01  7.190097e-08  3.055332e-07  7.190097e-08  3.055332e-07  9.734095e-01 -2.290719e-01
2.277702702702703e+00  9.730540e-01 -2.305774e-01  8.328170e-08  3.514551e-07  8.328170e-08  3.514551e-07  9.730540e-01 -2.305774e-01
2.278153153153153e+00  9.726884e-01 -2.321147e-01  9.661634e-08  4.048757e-07  9.661634e-08  4.048757e-07  9.726884e-01 -2.321147e-01
2.278603603603604e+00  9.723123e-01 -2.336853e-01  1.122688e-07  4.671254e-07  1.122688e-07  4.671254e-07  9.723123e-01 -2.336853e-01
2.279054054054055e+00  9.719251e-01 -2.352905e-01  1.306766e-07  5.397915e-07  1.306766e-07  5.397915e-07  9.719251e-01 -2.352905e-01
2.279504504504505e+00  9.715263e-01 -2.369319e-01  1.523667e-07  6.247713e-07  1.523667e-07  6.247713e-07  9.715263e-01 -2.369319e-01
2.279954954954955e+00  9.711152e-01 -2.386110e-01  1.779759e-07  7.243382e-07  1.779759e-07  7.243382e-07  9.711152e-01 -2.386110e-01
2.280405405405406e+00  9.706914e-01 -2.403295e-01  2.082751e-07  8.412235e-07  2.082751e-07  8.412235e-07  9.706914e-01 -2.403295e-01
2.280855855855856e+00  9.702540e-01 -2.420893e-01  2.442006e-07  9.787158e-07  2.442006e-07  9.787158e-07  9.702540e-01 -2.420893e-01
2.281306306306306e+00  9.698023e-01 -2.438923e-01  2.868924e-07  1.140786e-06  2.868924e-07  1.140786e-06  9.698023e-01 -2.438923e-01
2.281756756756757e+00  9.693356e-01 -2.457406e-01  3.377425e-07  1.332241e-06  3.377425e-07  1.332241e-06  9.693356e-01 -2.457406e-01
2.282207207207208e+00  9.688530e-01 -2.476365e-01  3.984557e-07  1.558918e-06  3.984557e-07  1.558918e-06  9.688530e-01 -2.476365e-01
2.282657657657658e+00  9.683536e-01 -2.495823e-01  4.711268e-07  1.827923e-06  4.711268e-07  1.827923e-06  9.683536e-01 -2.495823e-01
2.283108108108108e+00  9.678363e-01 -2.515808e-01  5.583374e-07  2.147935e-06  5.583374e-07  2.147935e-06  9.678363e-01 -2.515808e-01
2.283558558558559e+00  9.673001e-01 -2.536346e-01  6.632807e-07  2.529589e-06  6.632807e-07  2.529589e-06  9.673001e-01 -2.536346e-01
2.284009009009009e+00  9.667438e-01 -2.557470e-01  7.899199e-07  2.985960e-06  7.899199e-07  2.985960e-06  9.667438e-01 -2.557470e-01
2.284459459459459e+00  9.661660e-01 -2.579211e-01  9.431920e-07  3.533174e-06  9.431920e-07  3.533174e-06  9.661660e-01 -2.579211e-01
2.284909909909910e+00  9.655654e-01 -2.601606e-01  1.129272e-06  4.191202e-06  1.129272e-06  4.191202e-06  9.655654e-01 -2.601606e-01
2.285360360360361e+00  9.649403e-01 -2.624694e-01  1.355912e-06  4.984863e-06  1.355912e-06  4.984863e-06  9.649403e-01 -2.624694e-01
2.285810810810811e+00  9.642891e-01 -2.648519e-01  1.632891e-06  5.945130e-06  1.632891e-06  5.945130e-06  9.642891e-01 -2.648519e-01
2.286261261261262e+00  9.636098e-01 -2.673128e-01  1.972595e-06  7.110815e-06  1.972595e-06  7.110815e-06  9.636098e-01 -2.673128e-01
2.286711711711712e+00  9.629004e-01 -2.698572e-01  2.390788e-06  8.530776e-06  2.390788e-06  8.530776e-06  9.629004e-01 -2.698572e-01
2.287162162162162e+00  9.621584e-01 -2.724908e-01  2.907639e-06  1.026680e-05  2.907639e-06  1.026680e-05  9.621584e-01 -2.724908e-01
2.287612612612613e+00  9.613812e-01 -2.752201e-01  3.549083e-06  1.239743e-05  3.549083e-06  1.239743e-05  9.613812e-01 -2.752201e-01
2.288063063063063e+00  9.605660e-01 -2.780521e-01  4.348658e-06  1.502299e-05  4.348658e-06  1.502299e-05  9.605660e-01 -2.780521e-01
2.288513513513514e+00  9.597094e-01 -2.809945e-01  5.350001e-06  1.827241e-05  5.350001e-06  1.827241e-05  9.597094e-01 -2.809945e-01
2.288963963963964e+00  9.588076e-01 -2.840562e-01  6.610243e-06  2.231231e-05  6.610243e-06  2.231231e-05  9.588076e-01 -2.840562e-01
2.289414414414415e+00  9.578565e-01 -2.872471e-01  8.204693e-06  2.735944e-05  8.204693e-06  2.735944e-05  9.578565e-01 -2.872471e-01
2.289864864864865e+00  9.568512e-01 -2.905783e-01  1.023335e-05  3.369760e-05  1.023335e-05  3.369760e-05  9.568512e-01 -2.905783e-01
2.290315315315315e+00  9.557862e-01 -2.940625e-01  1.283002e-05  4.170120e-05  1.283002e-05  4.170120e-05  9.557862e-01 -2.940625e-01
2.290765765765766e+00  9.546550e-01 -2.977142e-01  1.617530e-05  5.186796e-05  1.617530e-05  5.186796e-05  9.546550e-01 -2.977142e-01
2.291216216216216e+00  9.534503e-01 -3.015502e-01  2.051509e-05  6.486523e-05  2.051509e-05  6.486523e-05  9.534503e-01 -3.015502e-01
2.291666666666667e+00  9.521633e-01 -3.055897e-01  2.618760e-05  8.159593e-05  2.618760e-05  8.159593e-05  9.521633e-01 -3.055897e-01
2.292117117117117e+00  9.507838e-01 -3.098552e-01  3.366296e-05  1.032941e-04  3.366296e-05  1.032941e-04  9.507838e-01 -3.098552e-01
2.292567567567568e+00  9.492995e-01 -3.143732e-01  4.360246e-05  1.316645e-04  4.360246e-05  1.316645e-04  9.492995e-01 -3.143732e-01
2.293018018018018e+00  9.476957e-01 -3.191754e-01  5.694833e-05  1.690910e-04  5.694833e-05  1.690910e-04  9.476957e-01 -3.191754e-01
2.293468468468469e+00  9.459545e-01 -3.242994e-01  7.506255e-05  2.189512e-04  7.506255e-05  2.189512e-04  9.459545e-01 -3.242994e-01
2.293918918918919e+00  9.440538e-01 -3.297913e-01  9.994550e-05  2.861019e-04  9.994550e-05  2.861019e-04  9.440538e-01 -3.297913e-01
2.294369369369370e+00  9.419661e-01 -3.357078e-01  1.345884e-04  3.776431e-04  1.345884e-04  3.776431e-04  9.419661e-01 -3.357078e-01
2.294819819819820e+00  9.396561e-01 -3.421199e-01  1.835563e-04  5.041502e-04  1.835563e-04  5.041502e-04  9.396561e-01 -3.421199e-01
2.295270270270271e+00  9.370784e-01 -3.491182e-01  2.539799e-04  6.817149e-04  2.539799e-04  6.817149e-04  9.370784e-01 -3.491182e-01
2.295720720720721e+00  9.341723e-01 -3.568209e-01  3.573027e-04  9.354337e-04  3.573027e-04  9.354337e-04  9.341723e-01 -3.568209e-01
2.296171171171171e+00  9.308549e-01 -3.653864e-01  5.124824e-04  1.305595e-03  5.124824e-04  1.305595e-03  9.308549e-01 -3.653864e-01
2.296621621621622e+00  9.270088e-01 -3.750343e-01  7.521403e-04  1.859138e-03  7.521403e-04  1.859138e-03  9.270088e-01 -3.750343e-01
2.297072072072072e+00  9.224602e-01 -3.860811e-01  1.135079e-03  2.712034e-03  1.135079e-03  2.712034e-03  9.224602e-01 -3.860811e-01
2.297522522522522e+00  9.169366e-01 -3.990081e-01  1.773663e-03  4.075948e-03  1.773663e-03  4.075948e-03  9.169366e-01 -3.990081e-01
2.297972972972973e+00  9.099765e-01 -4.146009e-01  2.899575e-03  6.364061e-03  2.899575e-03  6.364061e-03  9.099765e-01 -4.146009e-01
2.298423423423424e+00  9.007072e-01 -4.342714e-01  5.042894e-03  1.045929e-02  5.042894e-03  1.045929e-02  9.007072e-01 -4.342714e-01
2.298873873873874e+00  8.871825e-01 -4.609470e-01  9.616806e-03  1.850942e-02  9.616806e-03  1.850942e-02  8.871825e-01 -4.609470e-01
2.299324324324324e+00  8.636793e-01 -5.022293e-01  2.146772e-02  3.691785e-02  2.146772e-02  3.691785e-02  8.636793e-01 -5.022293e-01
2.299774774774775e+00  8.008605e-01 -5.875858e-01  6.838867e-02  9.321155e-02  6.838867e-02  9.321155e-02  8.008605e-01 -5.875858e-01
2.300225225225226e+00 -3.671418e-02 -4.629667e-01  8.828433e-01 -7.001124e-02  8.828433e-01 -7.001124e-02 -3.671418e-02 -4.629667e-01
2.300675675675676e+00  9.046493e-01 -2.926886e-01 -9.534869e-02 -2.947061e-01 -9.534869e-02 -2.947061e-01  9.046493e-01 -2.926886e-01
2.301126126126126e+00  8.579644e-01 -4.484692e-01 -1.160632e-01 -2.220400e-01 -1.160632e-01 -2.220400e-01  8.579644e-01 -4.484692e-01
2.301576576576577e+00  7.687455e-01 -5.594264e-01 -1.823794e-01 -2.506198e-01 -1.823794e-01 -2.506198e-01  7.687455e-01 -5.594264e-01
2.302027027027027e+00  4.883744e-01 -6.789143e-01 -4.450525e-01 -3.201468e-01 -4.450525e-01 -3.201468e-01  4.883744e-01 -6.789143e-01
2.302477477477478e+00  1.087853e-01  1.580745e-01 -8.084678e-01  5.563793e-01 -8.084678e-01  5.563793e-01  1.087853e-01  1.580745e-01
2.302927927927928e+00  8.649372e-01  6.160237e-02 -3.538488e-02  4.968267e-01 -3.538488e-02  4.968267e-01  8.649372e-01  6.160237e-02
2.303378378378378e+00  9.332911e-01 -1.533735e-01  5.265725e-02  3.204240e-01  5.265725e-02  3.204240e-01  9.332911e-01 -1.533735e-01
2.303828828828829e+00  9.278101e-01 -2.616643e-01  7.217340e-02  2.559126e-01  7.217340e-02  2.559126e-01  9.278101e-01 -2.616643e-01
2.304279279279279e+00  9.079703e-01 -3.362546e-01  8.683741e-02  2.344824e-01  8.683741e-02  2.344824e-01  9.079703e-01 -3.362546e-01
2.304729729729730e+00  8.776537e-01 -4.019246e-01  1.087199e-01  2.374038e-01  1.087199e-01  2.374038e-01  8.776537e-01 -4.019246e-01
2.305180180180180e+00  8.290122e-01 -4.716307e-01  1.485954e-01  2.611946e-01  1.485954e-01  2.611946e-01  8.290122e-01 -4.716307e-01
2.305630630630631e+00  7.370514e-01 -5.550415e-01  2.319596e-01  3.080241e-01  2.319596e-01  3.080241e-01  7.370514e-01 -5.550415e-01
2.306081081081081e+00  5.198669e-01 -6.375338e-01  4.406534e-01  3.593239e-01  4.406534e-01  3.593239e-01  5.198669e-01 -6.375338e-01
2.306531531531531e+00  3.525467e-02 -3.893520e-01  9.166640e-01  8.300120e-02  9.166640e-01  8.300120e-02  3.525467e-02 -3.893520e-01
2.306981981981982e+00  3.919861e-01  3.271472e-01  5.509439e-01 -6.601382e-01  5.509439e-01 -6.601382e-01  3.919861e-01  3.271472e-01
2.307432432432433e+00  8.209510e-01  1.731210e-01  1.122744e-01 -5.324125e-01  1.122744e-01 -5.324125e-01  8.209510e-01  1.731210e-01
2.307882882882883e+00  9.211591e-01  2.929961e-03  1.237856e-03 -3.891733e-01  1.237856e-03 -3.891733e-01  9.211591e-01  2.929961e-03
2.308333333333334e+00  9.439998e-01 -1.033243e-01 -3.409375e-02 -3.114901e-01 -3.409375e-02 -3.114901e-01  9.439998e-01 -1.033243e-01
2.308783783783784e+00  9.453402e-01 -1.766327e-01 -5.034386e-02 -2.694408e-01 -5.034386e-02 -2.694408e-01  9.453402e-01 -1.766327e-01
2.309234234234235e+00  9.382226e-01 -2.337254e-01 -6.168111e-02 -2.476009e-01 -6.168111e-02 -2.476009e-01  9.382226e-01 -2.337254e-01
2.309684684684685e+00  9.258969e-01 -2.831985e-01 -7.313004e-02 -2.390934e-01 -7.313004e-02 -2.390934e-01  9.258969e-01 -2.831985e-01
2.310135135135135e+00  9.083583e-01 -3.302632e-01 -8.765839e-02 -2.410963e-01 -8.765839e-02 -2.410963e-01  9.083583e-01 -3.302632e-01
2.310585585585586e+00  8.835298e-01 -3.788928e-01 -1.085214e-01 -2.530581e-01 -1.085214e-01 -2.530581e-01  8.835298e-01 -3.788928e-01
2.311036036036036e+00  8.464683e-01 -4.328696e-01 -1.411551e-01 -2.760262e-01 -1.411551e-01 -2.760262e-01  8.464683e-01 -4.328696e-01
2.311486486486487e+00  7.861458e-01 -4.959123e-01 -1.967896e-01 -3.119611e-01 -1.967896e-01 -3.119611e-01  7.861458e-01 -4.959123e-01
2.311936936936937e+00  6.761294e-01 -5.678490e-01 -3.019246e-01 -3.594971e-01 -3.019246e-01 -3.594971e-01  6.761294e-01 -5.678490e-01
2.312387387387387e+00  4.519971e-01 -6.142588e-01 -5.209804e-01 -3.833590e-01 -5.209804e-01 -3.833590e-01  4.519971e-01 -6.142588e-01
2.312837837837838e+00  6.613480e-02 -4.009446e-01 -9.015300e-01 -1.487051e-01 -9.015300e-01 -1.487051e-01  6.613480e-02 -4.009446e-01
2.313288288288288e+00  1.501080e-01  2.383838e-01 -8.119384e-01  5.112697e-01 -8.119384e-01  5.112697e-01  1.501080e-01  2.383838e-01
2.313738738738739e+00  6.292101e-01  3.299535e-01 -3.268176e-01  6.232300e-01 -3.268176e-01  6.232300e-01  6.292101e-01  3.299535e-01
2.314189189189189e+00  8.389599e-01  1.856543e-01 -1.105266e-01  4.994624e-01 -1.105266e-01  4.994624e-01  8.389599e-01  1.856543e-01
2.314639639639640e+00  9.137079e-01  6.521921e-02 -2.855758e-02  4.000859e-01 -2.855758e-02  4.000859e-01  9.137079e-01  6.521921e-02
2.315090090090091e+00  9.417005e-01 -2.115118e-02  7.540079e-03  3.357021e-01  7.540079e-03  3.357021e-01  9.417005e-01 -2.115118e-02
2.315540540540541e+00  9.514377e-01 -8.574583e-02  2.653788e-02  2.944649e-01  2.653788e-02  2.944649e-01  9.514377e-01 -8.574583e-02
2.315990990990991e+00  9.527532e-01 -1.372606e-01  3.863798e-02  2.681939e-01  3.863798e-02  2.681939e-01  9.527532e-01 -1.372606e-01
2.316441441441442e+00  9.493760e-01 -1.809911e-01  4.808394e-02  2.522209e-01  4.808394e-02  2.522209e-01  9.493760e-01 -1.809911e-01
2.316891891891892e+00  9.427055e-01 -2.203056e-01  5.701447e-02  2.439696e-01  5.701447e-02  2.439696e-01  9.427055e-01 -2.203056e-01
2.317342342342343e+00  9.330471e-01 -2.575640e-01  6.683347e-02  2.421099e-01  6.683347e-02  2.421099e-01  9.330471e-01 -2.575640e-01
2.317792792792793e+00  9.199937e-01 -2.946464e-01  7.882877e-02  2.461322e-01  7.882877e-02  2.461322e-01  9.199937e-01 -2.946464e-01
2.318243243243243e+00  9.024174e-01 -3.332826e-01  9.460391e-02  2.561557e-01  9.460391e-02  2.561557e-01  9.024174e-01 -3.332826e-01
2.318693693693694e+00  8.781348e-01 -3.752746e-01  1.166067e-01  2.728572e-01  1.166067e-01  2.728572e-01  8.781348e-01 -3.752746e-01
2.319144144144144e+00  8.430566e-01 -4.225957e-01  1.490751e-01  2.973970e-01  1.490751e-01  2.973970e-01  8.430566e-01 -4.225957e-01
2.319594594594595e+00  7.892254e-01 -4.770401e-01  2.000479e-01  3.309636e-01  2.000479e-01  3.309636e-01  7.892254e-01 -4.770401e-01
2.320045045045045e+00  7.002916e-01 -5.378110e-01  2.859154e-01  3.722947e-01  2.859154e-01  3.722947e-01  7.002916e-01 -5.378110e-01
2.320495495495496e+00  5.423816e-01 -5.893451e-01  4.405658e-01  4.054582e-01  4.405658e-01  4.054582e-01  5.423816e-01 -5.893451e-01
2.320945945945946e+00  2.664251e-01 -5.481019e-01  7.130655e-01  3.466117e-01  7.130655e-01  3.466117e-01  2.664251e-01 -5.481019e-01
2.321396396396397e+00 -6.418582e-03 -1.843903e-01  9.822372e-01 -3.419144e-02  9.822372e-01 -3.419144e-02 -6.418582e-03 -1.843903e-01
2.321846846846847e+00  2.091984e-01  2.987297e-01  7.627035e-01 -5.341160e-01  7.627035e-01 -5.341160e-01  2.091984e-01  2.987297e-01
2.322297297297298e+00  5.884300e-01  3.628858e-01  3.792687e-01 -6.149954e-01  3.792687e-01 -6.149954e-01  5.884300e-01  3.628858e-01
2.322747747747748e+00  7.899244e-01  2.591278e-01  1.732305e-01 -5.280753e-01  1.732305e-01 -5.280753e-01  7.899244e-01  2.591278e-01
2.323198198198198e+00  8.807748e-01  1.547072e-01  7.742647e-02 -4.408023e-01  7.742647e-02 -4.408023e-01  8.807748e-01  1.547072e-01
2.323648648648649e+00  9.232327e-01  7.244031e-02  2.951765e-02 -3.761947e-01  2.951765e-02 -3.761947e-01  9.232327e-01  7.244031e-02
2.324099099099100e+00  9.437740e-01  8.330535e-03  2.917035e-03 -3.304736e-01  2.917035e-03 -3.304736e-01  9.437740e-01  8.330535e-03
2.324549549549550e+00  9.534080e-01 -4.324109e-02 -1.352747e-02 -2.982624e-01 -1.352747e-02 -2.982624e-01  9.534080e-01 -4.324109e-02
2.325000000000000e+00  9.570259e-01 -8.640521e-02 -2.489249e-02 -2.757098e-01 -2.489249e-02 -2.757098e-01  9.570259e-01 -8.640521e-02
2.325450450450451e+00  9.569338e-01 -1.239845e-01 -3.372853e-02 -2.603227e-01 -3.372853e-02 -2.603227e-01  9.569338e-01 -1.239845e-01
2.325900900900901e+00  9.542362e-01 -1.579457e-01 -4.146840e-02 -2.505332e-01 -4.146840e-02 -2.505332e-01  9.542362e-01 -1.579457e-01
2.326351351351351e+00  9.494105e-01 -1.897341e-01 -4.903953e-02 -2.453889e-01 -4.903953e-02 -2.453889e-01  9.494105e-01 -1.897341e-01
2.326801801801802e+00  9.425499e-01 -2.204936e-01 -5.716516e-02 -2.443654e-01 -5.716516e-02 -2.443654e-01  9.425499e-01 -2.204936e-01
2.327252252252252e+00  9.334473e-01 -2.512152e-01 -6.654489e-02 -2.472627e-01 -6.654489e-02 -2.472627e-01  9.334473e-01 -2.512152e-01
2.327702702702703e+00  9.215852e-01 -2.828449e-01 -7.800312e-02 -2.541553e-01 -7.800312e-02 -2.541553e-01  9.215852e-01 -2.828449e-01
2.328153153153153e+00  9.060343e-01 -3.163695e-01 -9.266475e-02 -2.653779e-01 -9.266475e-02 -2.653779e-01  9.060343e-01 -3.163695e-01
2.328603603603603e+00  8.852245e-01 -3.528830e-01 -1.122262e-01 -2.815251e-01 -1.122262e-01 -2.815251e-01  8.852245e-01 -3.528830e-01
2.329054054054054e+00  8.564860e-01 -3.936017e-01 -1.394396e-01 -3.034237e-01 -1.394396e-01 -3.034237e-01  8.564860e-01 -3.936017e-01
2.329504504504505e+00  8.151292e-01 -4.396923e-01 -1.790474e-01 -3.319294e-01 -1.790474e-01 -3.319294e-01  8.151292e-01 -4.396923e-01
2.329954954954955e+00  7.525799e-01 -4.913999e-01 -2.396566e-01 -3.670345e-01 -2.396566e-01 -3.670345e-01  7.525799e-01 -4.913999e-01
2.330405405405406e+00  6.527816e-01 -5.445704e-01 -3.373423e-01 -4.043753e-01 -3.373423e-01 -4.043753e-01  6.527816e-01 -5.445704e-01
2.330855855855856e+00  4.876980e-01 -5.776764e-01 -5.001488e-01 -4.222461e-01 -5.001488e-01 -4.222461e-01  4.876980e-01 -5.776764e-01
2.331306306306307e+00  2.326406e-01 -5.121583e-01 -7.527645e-01 -3.419325e-01 -7.527645e-01 -3.419325e-01  2.326406e-01 -5.121583e-01
2.331756756756757e+00  1.912190e-03 -1.943690e-01 -9.808792e-01 -9.649829e-03 -9.808792e-01 -9.649829e-03  1.912190e-03 -1.943690e-01
2.332207207207207e+00  1.254414e-01  2.426805e-01 -8.545507e-01  4.417167e-01 -8.545507e-01  4.417167e-01  1.254414e-01  2.426805e-01
2.332657657657658e+00  4.596115e-01  3.925176e-01 -5.173763e-01  6.058126e-01 -5.173763e-01  6.058126e-01  4.596115e-01  3.925176e-01
2.333108108108108e+00  6.936053e-01  3.414565e-01 -2.801470e-01  5.690666e-01 -2.801470e-01  5.690666e-01  6.936053e-01  3.414565e-01
2.333558558558559e+00  8.184975e-01  2.515966e-01 -1.517550e-01  4.936916e-01 -1.517550e-01  4.936916e-01  8.184975e-01  2.515966e-01
2.334009009009009e+00  8.841617e-01  1.703118e-01 -8.228522e-02  4.271780e-01 -8.228522e-02  4.271780e-01  8.841617e-01  1.703118e-01
2.334459459459460e+00  9.199723e-01  1.036183e-01 -4.231184e-02  3.756646e-01 -4.231184e-02  3.756646e-01  9.199723e-01  1.036183e-01
2.334909909909910e+00  9.400951e-01  4.912664e-02 -1.760512e-02  3.368943e-01 -1.760512e-02  3.368943e-01  9.400951e-01  4.912664e-02
2.335360360360360e+00  9.514179e-01  3.701440e-03 -1.197783e-03  3.078780e-01 -1.197783e-03  3.078780e-01  9.514179e-01  3.701440e-03
2.335810810810811e+00  9.574494e-01 -3.518259e-02  1.051879e-02  2.862554e-01  1.051879e-02  2.862554e-01  9.574494e-01 -3.518259e-02
2.336261261261261e+00  9.600597e-01 -6.939424e-02  1.954107e-02  2.703480e-01  1.954107e-02  2.703480e-01  9.600597e-01 -6.939424e-02
2.336711711711712e+00  9.602730e-01 -1.003110e-01  2.705546e-02  2.590009e-01  2.705546e-02  2.590009e-01  9.602730e-01 -1.003110e-01
2.337162162162163e+00  9.586453e-01 -1.289748e-01  3.382796e-02  2.514367e-01  3.382796e-02  2.514367e-01  9.586453e-01 -1.289748e-01
2.337612612612613e+00  9.554485e-01 -1.562086e-01  4.040751e-02  2.471522e-01  4.040751e-02  2.471522e-01  9.554485e-01 -1.562086e-01
2.338063063063063e+00  9.507610e-01 -1.826992e-01  4.724291e-02  2.458506e-01  4.724291e-02  2.458506e-01  9.507610e-01 -1.826992e-01
2.338513513513514e+00  9.445040e-01 -2.090588e-01  5.476061e-02  2.474023e-01  5.476061e-02  2.474023e-01  9.445040e-01 -2.090588e-01
2.338963963963964e+00  9.364431e-01 -2.358730e-01  6.342972e-02  2.518233e-01  6.342972e-02  2.518233e-01  9.364431e-01 -2.358730e-01
2.339414414414414e+00  9.261579e-01 -2.637420e-01  7.383214e-02  2.592694e-01  7.383214e-02  2.592694e-01  9.261579e-01 -2.637420e-01
2.339864864864865e+00  9.129718e-01 -2.933164e-01  8.675725e-02  2.700392e-01  8.675725e-02  2.700392e-01  9.129718e-01 -2.933164e-01
2.340315315315316e+00  8.958207e-01 -3.253277e-01  1.033488e-01  2.845808e-01  1.033488e-01  2.845808e-01  8.958207e-01 -3.253277e-01
2.340765765765766e+00  8.730150e-01 -3.605959e-01  1.253527e-01  3.034832e-01  1.253527e-01  3.034832e-01  8.730150e-01 -3.605959e-01
2.341216216216216e+00  8.418058e-01 -3.999669e-01  1.555578e-01  3.274007e-01  1.555578e-01  3.274007e-01  8.418058e-01 -3.999669e-01
2.341666666666667e+00  7.975812e-01 -4.440171e-01  1.986036e-01  3.567487e-01  1.986036e-01  3.567487e-01  7.975812e-01 -4.440171e-01
