# MHz S RI R 50
! S-Parameters data
! Freq   reS11   imS11   reS21   imS21   reS12   imS12   reS22   imS22
10.2000000000                    0.9959962960          -0.0787357264           0.0000000090           0.0000000657           0.0000000090           0.0000000657           0.9959962960          -0.0787357264
10.4000000000                    0.9958484152          -0.0803459043           0.0000000100           0.0000000727           0.0000000100           0.0000000727           0.9958484152          -0.0803459043
10.6000000000                    0.9956974784          -0.0819600844           0.0000000112           0.0000000803           0.0000000112           0.0000000803           0.9956974784          -0.0819600844
10.8000000000                    0.9955434550          -0.0835783560           0.0000000125           0.0000000885           0.0000000125           0.0000000885           0.9955434550          -0.0835783560
11.0000000000                    0.9953863134          -0.0852008087           0.0000000140           0.0000000975           0.0000000140           0.0000000975           0.9953863134          -0.0852008087
11.2000000000                    0.9952260212          -0.0868275330           0.0000000155           0.0000001071           0.0000000155           0.0000001071           0.9952260212          -0.0868275330
11.4000000000                    0.9950625455          -0.0884586201           0.0000000173           0.0000001176           0.0000000173           0.0000001176           0.9950625455          -0.0884586201
11.6000000000                    0.9948958523          -0.0900941617           0.0000000191           0.0000001289           0.0000000191           0.0000001289           0.9948958523          -0.0900941617
11.8000000000                    0.9947259068          -0.0917342507           0.0000000212           0.0000001410           0.0000000212           0.0000001410           0.9947259068          -0.0917342507
12.0000000000                    0.9945526736          -0.0933789805           0.0000000234           0.0000001541           0.0000000234           0.0000001541           0.9945526736          -0.0933789805
12.2000000000                    0.9943761161          -0.0950284451           0.0000000259           0.0000001682           0.0000000259           0.0000001682           0.9943761161          -0.0950284451
12.4000000000                    0.9941961972          -0.0966827397           0.0000000285           0.0000001834           0.0000000285           0.0000001834           0.9941961972          -0.0966827397
12.6000000000                    0.9940128787          -0.0983419600           0.0000000314           0.0000001997           0.0000000314           0.0000001997           0.9940128787          -0.0983419600
12.8000000000                    0.9938261215          -0.1000062028           0.0000000346           0.0000002172           0.0000000346           0.0000002172           0.9938261215          -0.1000062028
13.0000000000                    0.9936358857          -0.1016755656           0.0000000380           0.0000002359           0.0000000380           0.0000002359           0.9936358857          -0.1016755656
13.2000000000                    0.9934421303          -0.1033501468           0.0000000417           0.0000002560           0.0000000417           0.0000002560           0.9934421303          -0.1033501468
13.4000000000                    0.9932448135          -0.1050300458           0.0000000457           0.0000002775           0.0000000457           0.0000002775           0.9932448135          -0.1050300458
13.6000000000                    0.9930438925          -0.1067153628           0.0000000500           0.0000003005           0.0000000500           0.0000003005           0.9930438925          -0.1067153628
13.8000000000                    0.9928393234          -0.1084061990           0.0000000547           0.0000003251           0.0000000547           0.0000003251           0.9928393234          -0.1084061990
14.0000000000                    0.9926310615          -0.1101026565           0.0000000597           0.0000003513           0.0000000597           0.0000003513           0.9926310615          -0.1101026565
14.2000000000                    0.9924190608          -0.1118048385           0.0000000652           0.0000003794           0.0000000652           0.0000003794           0.9924190608          -0.1118048385
14.4000000000                    0.9922032745          -0.1135128492           0.0000000711           0.0000004092           0.0000000711           0.0000004092           0.9922032745          -0.1135128492
14.6000000000                    0.9919836547          -0.1152267938           0.0000000775           0.0000004411           0.0000000775           0.0000004411           0.9919836547          -0.1152267938
14.8000000000                    0.9917601521          -0.1169467784           0.0000000843           0.0000004750           0.0000000843           0.0000004750           0.9917601521          -0.1169467784
15.0000000000                    0.9915327167          -0.1186729105           0.0000000917           0.0000005111           0.0000000917           0.0000005111           0.9915327167          -0.1186729105
15.2000000000                    0.9913012972          -0.1204052984           0.0000000996           0.0000005496           0.0000000996           0.0000005496           0.9913012972          -0.1204052984
15.4000000000                    0.9910658410          -0.1221440516           0.0000001081           0.0000005904           0.0000001081           0.0000005904           0.9910658410          -0.1221440516
15.6000000000                    0.9908262945          -0.1238892808           0.0000001173           0.0000006339           0.0000001173           0.0000006339           0.9908262945          -0.1238892808
15.8000000000                    0.9905826027          -0.1256410980           0.0000001271           0.0000006800           0.0000001271           0.0000006800           0.9905826027          -0.1256410980
16.0000000000                    0.9903347096          -0.1273996160           0.0000001377           0.0000007289           0.0000001377           0.0000007289           0.9903347096          -0.1273996160
16.2000000000                    0.9900825578          -0.1291649493           0.0000001490           0.0000007809           0.0000001490           0.0000007809           0.9900825578          -0.1291649493
16.4000000000                    0.9898260886          -0.1309372132           0.0000001612           0.0000008360           0.0000001612           0.0000008360           0.9898260886          -0.1309372132
16.6000000000                    0.9895652419          -0.1327165247           0.0000001742           0.0000008944           0.0000001742           0.0000008944           0.9895652419          -0.1327165247
16.8000000000                    0.9892999564          -0.1345030018           0.0000001881           0.0000009562           0.0000001881           0.0000009562           0.9892999564          -0.1345030018
17.0000000000                    0.9890301694          -0.1362967638           0.0000002030           0.0000010217           0.0000002030           0.0000010217           0.9890301694          -0.1362967638
17.2000000000                    0.9887558166          -0.1380979317           0.0000002190           0.0000010911           0.0000002190           0.0000010911           0.9887558166          -0.1380979317
17.4000000000                    0.9884768325          -0.1399066274           0.0000002360           0.0000011645           0.0000002360           0.0000011645           0.9884768325          -0.1399066274
17.6000000000                    0.9881931501          -0.1417229747           0.0000002543           0.0000012421           0.0000002543           0.0000012421           0.9881931501          -0.1417229747
17.8000000000                    0.9879047006          -0.1435470984           0.0000002738           0.0000013242           0.0000002738           0.0000013242           0.9879047006          -0.1435470984
18.0000000000                    0.9876114141          -0.1453791252           0.0000002946           0.0000014109           0.0000002946           0.0000014109           0.9876114141          -0.1453791252
18.2000000000                    0.9873132186          -0.1472191829           0.0000003168           0.0000015026           0.0000003168           0.0000015026           0.9873132186          -0.1472191829
18.4000000000                    0.9870100410          -0.1490674010           0.0000003405           0.0000015993           0.0000003405           0.0000015993           0.9870100410          -0.1490674010
18.6000000000                    0.9867018061          -0.1509239107           0.0000003658           0.0000017015           0.0000003658           0.0000017015           0.9867018061          -0.1509239107
18.8000000000                    0.9863884373          -0.1527888447           0.0000003928           0.0000018093           0.0000003928           0.0000018093           0.9863884373          -0.1527888447
19.0000000000                    0.9860698562          -0.1546623372           0.0000004215           0.0000019231           0.0000004215           0.0000019231           0.9860698562          -0.1546623372
19.2000000000                    0.9857459825          -0.1565445241           0.0000004521           0.0000020431           0.0000004521           0.0000020431           0.9857459825          -0.1565445241
19.4000000000                    0.9854167342          -0.1584355433           0.0000004847           0.0000021696           0.0000004847           0.0000021696           0.9854167342          -0.1584355433
19.6000000000                    0.9850820274          -0.1603355340           0.0000005195           0.0000023030           0.0000005195           0.0000023030           0.9850820274          -0.1603355340
19.8000000000                    0.9847417762          -0.1622446374           0.0000005565           0.0000024435           0.0000005565           0.0000024435           0.9847417762          -0.1622446374
20.0000000000                    0.9843958930          -0.1641629966           0.0000005958           0.0000025915           0.0000005958           0.0000025915           0.9843958930          -0.1641629966
20.2000000000                    0.9840442878          -0.1660907562           0.0000006377           0.0000027474           0.0000006377           0.0000027474           0.9840442878          -0.1660907562
20.4000000000                    0.9836868689          -0.1680280631           0.0000006822           0.0000029116           0.0000006822           0.0000029116           0.9836868689          -0.1680280631
20.6000000000                    0.9833235424          -0.1699750658           0.0000007295           0.0000030844           0.0000007295           0.0000030844           0.9833235424          -0.1699750658
20.8000000000                    0.9829542121          -0.1719319149           0.0000007798           0.0000032662           0.0000007798           0.0000032662           0.9829542121          -0.1719319149
21.0000000000                    0.9825787796          -0.1738987630           0.0000008333           0.0000034575           0.0000008333           0.0000034575           0.9825787796          -0.1738987630
21.2000000000                    0.9821971445          -0.1758757647           0.0000008901           0.0000036588           0.0000008901           0.0000036588           0.9821971445          -0.1758757647
21.4000000000                    0.9818092038          -0.1778630766           0.0000009504           0.0000038704           0.0000009504           0.0000038704           0.9818092038          -0.1778630766
21.6000000000                    0.9814148522          -0.1798608576           0.0000010144           0.0000040930           0.0000010144           0.0000040930           0.9814148522          -0.1798608576
21.8000000000                    0.9810139819          -0.1818692686           0.0000010824           0.0000043269           0.0000010824           0.0000043269           0.9810139819          -0.1818692686
22.0000000000                    0.9806064827          -0.1838884729           0.0000011546           0.0000045727           0.0000011546           0.0000045727           0.9806064827          -0.1838884729
22.2000000000                    0.9801922416          -0.1859186359           0.0000012312           0.0000048311           0.0000012312           0.0000048311           0.9801922416          -0.1859186359
22.4000000000                    0.9797711433          -0.1879599253           0.0000013124           0.0000051024           0.0000013124           0.0000051024           0.9797711433          -0.1879599253
22.6000000000                    0.9793430695          -0.1900125113           0.0000013986           0.0000053875           0.0000013986           0.0000053875           0.9793430695          -0.1900125113
22.8000000000                    0.9789078993          -0.1920765663           0.0000014900           0.0000056869           0.0000014900           0.0000056869           0.9789078993          -0.1920765663
23.0000000000                    0.9784655086          -0.1941522653           0.0000015869           0.0000060013           0.0000015869           0.0000060013           0.9784655086          -0.1941522653
23.2000000000                    0.9780157709          -0.1962397858           0.0000016896           0.0000063313           0.0000016896           0.0000063313           0.9780157709          -0.1962397858
23.4000000000                    0.9775585562          -0.1983393078           0.0000017985           0.0000066777           0.0000017985           0.0000066777           0.9775585562          -0.1983393078
23.6000000000                    0.9770937316          -0.2004510138           0.0000019139           0.0000070413           0.0000019139           0.0000070413           0.9770937316          -0.2004510138
23.8000000000                    0.9766211611          -0.2025750892           0.0000020362           0.0000074229           0.0000020362           0.0000074229           0.9766211611          -0.2025750892
24.0000000000                    0.9761407053          -0.2047117219           0.0000021657           0.0000078232           0.0000021657           0.0000078232           0.9761407053          -0.2047117219
24.2000000000                    0.9756522214          -0.2068611027           0.0000023029           0.0000082432           0.0000023029           0.0000082432           0.9756522214          -0.2068611027
24.4000000000                    0.9751555634          -0.2090234251           0.0000024482           0.0000086837           0.0000024482           0.0000086837           0.9751555634          -0.2090234251
24.6000000000                    0.9746505814          -0.2111988856           0.0000026021           0.0000091458           0.0000026021           0.0000091458           0.9746505814          -0.2111988856
24.8000000000                    0.9741371221          -0.2133876836           0.0000027651           0.0000096303           0.0000027651           0.0000096303           0.9741371221          -0.2133876836
25.0000000000                    0.9736150284          -0.2155900215           0.0000029377           0.0000101384           0.0000029377           0.0000101384           0.9736150284          -0.2155900215
25.2000000000                    0.9730841394          -0.2178061049           0.0000031203           0.0000106710           0.0000031203           0.0000106710           0.9730841394          -0.2178061049
25.4000000000                    0.9725442901          -0.2200361423           0.0000033136           0.0000112295           0.0000033136           0.0000112295           0.9725442901          -0.2200361423
25.6000000000                    0.9719953114          -0.2222803455           0.0000035183           0.0000118148           0.0000035183           0.0000118148           0.9719953114          -0.2222803455
25.8000000000                    0.9714370303          -0.2245389296           0.0000037348           0.0000124284           0.0000037348           0.0000124284           0.9714370303          -0.2245389296
26.0000000000                    0.9708692691          -0.2268121131           0.0000039640           0.0000130714           0.0000039640           0.0000130714           0.9708692691          -0.2268121131
26.2000000000                    0.9702918460          -0.2291001176           0.0000042064           0.0000137452           0.0000042064           0.0000137452           0.9702918460          -0.2291001176
26.4000000000                    0.9697045743          -0.2314031687           0.0000044630           0.0000144513           0.0000044630           0.0000144513           0.9697045743          -0.2314031687
26.6000000000                    0.9691072630          -0.2337214950           0.0000047344           0.0000151911           0.0000047344           0.0000151911           0.9691072630          -0.2337214950
26.8000000000                    0.9684997159          -0.2360553290           0.0000050214           0.0000159663           0.0000050214           0.0000159663           0.9684997159          -0.2360553290
27.0000000000                    0.9678817319          -0.2384049069           0.0000053251           0.0000167783           0.0000053251           0.0000167783           0.9678817319          -0.2384049069
27.2000000000                    0.9672531050          -0.2407704687           0.0000056463           0.0000176289           0.0000056463           0.0000176289           0.9672531050          -0.2407704687
27.4000000000                    0.9666136236          -0.2431522581           0.0000059861           0.0000185199           0.0000059861           0.0000185199           0.9666136236          -0.2431522581
27.6000000000                    0.9659630709          -0.2455505228           0.0000063454           0.0000194532           0.0000063454           0.0000194532           0.9659630709          -0.2455505228
27.8000000000                    0.9653012243          -0.2479655146           0.0000067253           0.0000204307           0.0000067253           0.0000204307           0.9653012243          -0.2479655146
28.0000000000                    0.9646278556          -0.2503974894           0.0000071272           0.0000214544           0.0000071272           0.0000214544           0.9646278556          -0.2503974894
28.2000000000                    0.9639427306          -0.2528467072           0.0000075521           0.0000225265           0.0000075521           0.0000225265           0.9639427306          -0.2528467072
28.4000000000                    0.9632456087          -0.2553134322           0.0000080014           0.0000236493           0.0000080014           0.0000236493           0.9632456087          -0.2553134322
28.6000000000                    0.9625362435          -0.2577979333           0.0000084766           0.0000248250           0.0000084766           0.0000248250           0.9625362435          -0.2577979333
28.8000000000                    0.9618143815          -0.2603004836           0.0000089790           0.0000260561           0.0000089790           0.0000260561           0.9618143815          -0.2603004836
29.0000000000                    0.9610797629          -0.2628213608           0.0000095102           0.0000273453           0.0000095102           0.0000273453           0.9610797629          -0.2628213608
29.2000000000                    0.9603321209          -0.2653608472           0.0000100719           0.0000286951           0.0000100719           0.0000286951           0.9603321209          -0.2653608472
