# GHz S RI R 50
! S-Parameters data
! Freq   reS11   imS11   reS21   imS21   reS12   imS12   reS22   imS22
1.9804000000                     0.9368558101          -0.3435000623          -0.0000002337          -0.0000005619          -0.0000002337          -0.0000005619           0.9368558101          -0.3435000623
1.9808000000                     0.9364150991          -0.3446564082          -0.0000002403          -0.0000005755          -0.0000002403          -0.0000005755           0.9364150991          -0.3446564082
1.9812000000                     0.9359698385          -0.3458201860          -0.0000002471          -0.0000005895          -0.0000002471          -0.0000005895           0.9359698385          -0.3458201860
1.9816000000                     0.9355199658          -0.3469914661          -0.0000002541          -0.0000006039          -0.0000002541          -0.0000006039           0.9355199658          -0.3469914661
1.9820000000                     0.9350654172          -0.3481703196          -0.0000002614          -0.0000006186          -0.0000002614          -0.0000006186           0.9350654172          -0.3481703196
1.9824000000                     0.9346061278          -0.3493568186          -0.0000002688          -0.0000006338          -0.0000002688          -0.0000006338           0.9346061278          -0.3493568186
1.9828000000                     0.9341420314          -0.3505510362          -0.0000002766          -0.0000006494          -0.0000002766          -0.0000006494           0.9341420314          -0.3505510362
1.9832000000                     0.9336730610          -0.3517530462          -0.0000002845          -0.0000006654          -0.0000002845          -0.0000006654           0.9336730610          -0.3517530462
1.9836000000                     0.9331991483          -0.3529629234          -0.0000002927          -0.0000006819          -0.0000002927          -0.0000006819           0.9331991483          -0.3529629234
1.9840000000                     0.9327202235          -0.3541807436          -0.0000003012          -0.0000006988          -0.0000003012          -0.0000006988           0.9327202235          -0.3541807436
1.9844000000                     0.9322362160          -0.3554065834          -0.0000003100          -0.0000007162          -0.0000003100          -0.0000007162           0.9322362160          -0.3554065834
1.9848000000                     0.9317470536          -0.3566405205          -0.0000003190          -0.0000007341          -0.0000003190          -0.0000007341           0.9317470536          -0.3566405205
1.9852000000                     0.9312526631          -0.3578826335          -0.0000003283          -0.0000007525          -0.0000003283          -0.0000007525           0.9312526631          -0.3578826335
1.9856000000                     0.9307529698          -0.3591330020          -0.0000003380          -0.0000007714          -0.0000003380          -0.0000007714           0.9307529698          -0.3591330020
1.9860000000                     0.9302478978          -0.3603917065          -0.0000003480          -0.0000007909          -0.0000003480          -0.0000007909           0.9302478978          -0.3603917065
1.9864000000                     0.9297373696          -0.3616588288          -0.0000003582          -0.0000008110          -0.0000003582          -0.0000008110           0.9297373696          -0.3616588288
1.9868000000                     0.9292213066          -0.3629344514          -0.0000003689          -0.0000008316          -0.0000003689          -0.0000008316           0.9292213066          -0.3629344514
1.9872000000                     0.9286996285          -0.3642186580          -0.0000003799          -0.0000008528          -0.0000003799          -0.0000008528           0.9286996285          -0.3642186580
1.9876000000                     0.9281722537          -0.3655115334          -0.0000003912          -0.0000008746          -0.0000003912          -0.0000008746           0.9281722537          -0.3655115334
1.9880000000                     0.9276390992          -0.3668131634          -0.0000004030          -0.0000008970          -0.0000004030          -0.0000008970           0.9276390992          -0.3668131634
1.9884000000                     0.9271000803          -0.3681236350          -0.0000004151          -0.0000009202          -0.0000004151          -0.0000009202           0.9271000803          -0.3681236350
1.9888000000                     0.9265551107          -0.3694430362          -0.0000004276          -0.0000009439          -0.0000004276          -0.0000009439           0.9265551107          -0.3694430362
1.9892000000                     0.9260041028          -0.3707714561          -0.0000004406          -0.0000009684          -0.0000004406          -0.0000009684           0.9260041028          -0.3707714561
1.9896000000                     0.9254469669          -0.3721089852          -0.0000004540          -0.0000009936          -0.0000004540          -0.0000009936           0.9254469669          -0.3721089852
1.9900000000                     0.9248836122          -0.3734557148          -0.0000004679          -0.0000010196          -0.0000004679          -0.0000010196           0.9248836122          -0.3734557148
1.9904000000                     0.9243139458          -0.3748117376          -0.0000004822          -0.0000010463          -0.0000004822          -0.0000010463           0.9243139458          -0.3748117376
1.9908000000                     0.9237378732          -0.3761771476          -0.0000004971          -0.0000010738          -0.0000004971          -0.0000010738           0.9237378732          -0.3761771476
1.9912000000                     0.9231552980          -0.3775520397          -0.0000005124          -0.0000011021          -0.0000005124          -0.0000011021           0.9231552980          -0.3775520397
1.9916000000                     0.9225661222          -0.3789365103          -0.0000005283          -0.0000011313          -0.0000005283          -0.0000011313           0.9225661222          -0.3789365103
1.9920000000                     0.9219702458          -0.3803306569          -0.0000005448          -0.0000011614          -0.0000005448          -0.0000011614           0.9219702458          -0.3803306569
1.9924000000                     0.9213675669          -0.3817345784          -0.0000005618          -0.0000011924          -0.0000005618          -0.0000011924           0.9213675669          -0.3817345784
1.9928000000                     0.9207579817          -0.3831483750          -0.0000005794          -0.0000012243          -0.0000005794          -0.0000012243           0.9207579817          -0.3831483750
1.9932000000                     0.9201413843          -0.3845721480          -0.0000005976          -0.0000012571          -0.0000005976          -0.0000012571           0.9201413843          -0.3845721480
1.9936000000                     0.9195176669          -0.3860060003          -0.0000006165          -0.0000012910          -0.0000006165          -0.0000012910           0.9195176669          -0.3860060003
1.9940000000                     0.9188867196          -0.3874500360          -0.0000006361          -0.0000013259          -0.0000006361          -0.0000013259           0.9188867196          -0.3874500360
1.9944000000                     0.9182484303          -0.3889043606          -0.0000006563          -0.0000013619          -0.0000006563          -0.0000013619           0.9182484303          -0.3889043606
1.9948000000                     0.9176026847          -0.3903690810          -0.0000006773          -0.0000013990          -0.0000006773          -0.0000013990           0.9176026847          -0.3903690810
1.9952000000                     0.9169493664          -0.3918443055          -0.0000006990          -0.0000014373          -0.0000006990          -0.0000014373           0.9169493664          -0.3918443055
1.9956000000                     0.9162883564          -0.3933301439          -0.0000007215          -0.0000014767          -0.0000007215          -0.0000014767           0.9162883564          -0.3933301439
1.9960000000                     0.9156195339          -0.3948267074          -0.0000007448          -0.0000015174          -0.0000007448          -0.0000015174           0.9156195339          -0.3948267074
1.9964000000                     0.9149427751          -0.3963341087          -0.0000007690          -0.0000015593          -0.0000007690          -0.0000015593           0.9149427751          -0.3963341087
1.9968000000                     0.9142579542          -0.3978524620          -0.0000007940          -0.0000016026          -0.0000007940          -0.0000016026           0.9142579542          -0.3978524620
1.9972000000                     0.9135649426          -0.3993818831          -0.0000008200          -0.0000016472          -0.0000008200          -0.0000016472           0.9135649426          -0.3993818831
1.9976000000                     0.9128636093          -0.4009224892          -0.0000008469          -0.0000016932          -0.0000008469          -0.0000016932           0.9128636093          -0.4009224892
1.9980000000                     0.9121538206          -0.4024743992          -0.0000008748          -0.0000017407          -0.0000008748          -0.0000017407           0.9121538206          -0.4024743992
1.9984000000                     0.9114354400          -0.4040377335          -0.0000009038          -0.0000017897          -0.0000009038          -0.0000017897           0.9114354400          -0.4040377335
1.9988000000                     0.9107083285          -0.4056126144          -0.0000009338          -0.0000018402          -0.0000009338          -0.0000018402           0.9107083285          -0.4056126144
1.9992000000                     0.9099723440          -0.4071991654          -0.0000009649          -0.0000018924          -0.0000009649          -0.0000018924           0.9099723440          -0.4071991654
1.9996000000                     0.9092273416          -0.4087975121          -0.0000009972          -0.0000019463          -0.0000009972          -0.0000019463           0.9092273416          -0.4087975121
2.0000000000                     0.9084731734          -0.4104077815          -0.0000010308          -0.0000020019          -0.0000010308          -0.0000020019           0.9084731734          -0.4104077815
2.0004000000                     0.9077096886          -0.4120301025          -0.0000010656          -0.0000020593          -0.0000010656          -0.0000020593           0.9077096886          -0.4120301025
2.0008000000                     0.9069367329          -0.4136646056          -0.0000011017          -0.0000021186          -0.0000011017          -0.0000021186           0.9069367329          -0.4136646056
2.0012000000                     0.9061541492          -0.4153114233          -0.0000011392          -0.0000021798          -0.0000011392          -0.0000021798           0.9061541492          -0.4153114233
2.0016000000                     0.9053617770          -0.4169706898          -0.0000011781          -0.0000022430          -0.0000011781          -0.0000022430           0.9053617770          -0.4169706898
2.0020000000                     0.9045594523          -0.4186425410          -0.0000012185          -0.0000023084          -0.0000012185          -0.0000023084           0.9045594523          -0.4186425410
2.0024000000                     0.9037470077          -0.4203271148          -0.0000012605          -0.0000023758          -0.0000012605          -0.0000023758           0.9037470077          -0.4203271148
2.0028000000                     0.9029242724          -0.4220245511          -0.0000013041          -0.0000024455          -0.0000013041          -0.0000024455           0.9029242724          -0.4220245511
2.0032000000                     0.9020910717          -0.4237349915          -0.0000013494          -0.0000025176          -0.0000013494          -0.0000025176           0.9020910717          -0.4237349915
2.0036000000                     0.9012472275          -0.4254585797          -0.0000013965          -0.0000025920          -0.0000013965          -0.0000025920           0.9012472275          -0.4254585797
2.0040000000                     0.9003925577          -0.4271954613          -0.0000014455          -0.0000026690          -0.0000014455          -0.0000026690           0.9003925577          -0.4271954613
2.0044000000                     0.8995268763          -0.4289457838          -0.0000014963          -0.0000027485          -0.0000014963          -0.0000027485           0.8995268763          -0.4289457838
2.0048000000                     0.8986499931          -0.4307096971          -0.0000015492          -0.0000028307          -0.0000015492          -0.0000028307           0.8986499931          -0.4307096971
2.0052000000                     0.8977617142          -0.4324873528          -0.0000016042          -0.0000029158          -0.0000016042          -0.0000029158           0.8977617142          -0.4324873528
2.0056000000                     0.8968618411          -0.4342789048          -0.0000016613          -0.0000030037          -0.0000016613          -0.0000030037           0.8968618411          -0.4342789048
2.0060000000                     0.8959501710          -0.4360845091          -0.0000017208          -0.0000030946          -0.0000017208          -0.0000030946           0.8959501710          -0.4360845091
2.0064000000                     0.8950264968          -0.4379043238          -0.0000017827          -0.0000031887          -0.0000017827          -0.0000031887           0.8950264968          -0.4379043238
2.0068000000                     0.8940906068          -0.4397385091          -0.0000018470          -0.0000032860          -0.0000018470          -0.0000032860           0.8940906068          -0.4397385091
2.0072000000                     0.8931422844          -0.4415872278          -0.0000019140          -0.0000033866          -0.0000019140          -0.0000033866           0.8931422844          -0.4415872278
2.0076000000                     0.8921813083          -0.4434506446          -0.0000019837          -0.0000034908          -0.0000019837          -0.0000034908           0.8921813083          -0.4434506446
2.0080000000                     0.8912074523          -0.4453289267          -0.0000020563          -0.0000035986          -0.0000020563          -0.0000035986           0.8912074523          -0.4453289267
2.0084000000                     0.8902204850          -0.4472222434          -0.0000021318          -0.0000037102          -0.0000021318          -0.0000037102           0.8902204850          -0.4472222434
2.0088000000                     0.8892201699          -0.4491307666          -0.0000022105          -0.0000038258          -0.0000022105          -0.0000038258           0.8892201699          -0.4491307666
2.0092000000                     0.8882062649          -0.4510546705          -0.0000022925          -0.0000039454          -0.0000022925          -0.0000039454           0.8882062649          -0.4510546705
2.0096000000                     0.8871785226          -0.4529941318          -0.0000023778          -0.0000040692          -0.0000023778          -0.0000040692           0.8871785226          -0.4529941318
2.0100000000                     0.8861366899          -0.4549493295          -0.0000024668          -0.0000041975          -0.0000024668          -0.0000041975           0.8861366899          -0.4549493295
2.0104000000                     0.8850805077          -0.4569204452          -0.0000025595          -0.0000043303          -0.0000025595          -0.0000043303           0.8850805077          -0.4569204452
2.0108000000                     0.8840097111          -0.4589076631          -0.0000026561          -0.0000044680          -0.0000026561          -0.0000044680           0.8840097111          -0.4589076631
2.0112000000                     0.8829240289          -0.4609111698          -0.0000027569          -0.0000046106          -0.0000027569          -0.0000046106           0.8829240289          -0.4609111698
2.0116000000                     0.8818231836          -0.4629311547          -0.0000028619          -0.0000047583          -0.0000028619          -0.0000047583           0.8818231836          -0.4629311547
2.0120000000                     0.8807068913          -0.4649678097          -0.0000029714          -0.0000049115          -0.0000029714          -0.0000049115           0.8807068913          -0.4649678097
2.0124000000                     0.8795748611          -0.4670213294          -0.0000030857          -0.0000050702          -0.0000030857          -0.0000050702           0.8795748611          -0.4670213294
2.0128000000                     0.8784267957          -0.4690919112          -0.0000032049          -0.0000052347          -0.0000032049          -0.0000052347           0.8784267957          -0.4690919112
2.0132000000                     0.8772623901          -0.4711797551          -0.0000033293          -0.0000054053          -0.0000033293          -0.0000054053           0.8772623901          -0.4711797551
2.0136000000                     0.8760813326          -0.4732850640          -0.0000034592          -0.0000055822          -0.0000034592          -0.0000055822           0.8760813326          -0.4732850640
2.0140000000                     0.8748833036          -0.4754080436          -0.0000035947          -0.0000057657          -0.0000035947          -0.0000057657           0.8748833036          -0.4754080436
2.0144000000                     0.8736679759          -0.4775489024          -0.0000037362          -0.0000059560          -0.0000037362          -0.0000059560           0.8736679759          -0.4775489024
2.0148000000                     0.8724350143          -0.4797078518          -0.0000038841          -0.0000061535          -0.0000038841          -0.0000061535           0.8724350143          -0.4797078518
2.0152000000                     0.8711840756          -0.4818851062          -0.0000040385          -0.0000063583          -0.0000040385          -0.0000063583           0.8711840756          -0.4818851062
2.0156000000                     0.8699148079          -0.4840808829          -0.0000041998          -0.0000065709          -0.0000041998          -0.0000065709           0.8699148079          -0.4840808829
2.0160000000                     0.8686268509          -0.4862954022          -0.0000043684          -0.0000067916          -0.0000043684          -0.0000067916           0.8686268509          -0.4862954022
2.0164000000                     0.8673198351          -0.4885288874          -0.0000045446          -0.0000070207          -0.0000045446          -0.0000070207           0.8673198351          -0.4885288874
2.0168000000                     0.8659933821          -0.4907815650          -0.0000047288          -0.0000072585          -0.0000047288          -0.0000072585           0.8659933821          -0.4907815650
2.0172000000                     0.8646471037          -0.4930536644          -0.0000049214          -0.0000075055          -0.0000049214          -0.0000075055           0.8646471037          -0.4930536644
2.0176000000                     0.8632806022          -0.4953454182          -0.0000051229          -0.0000077619          -0.0000051229          -0.0000077619           0.8632806022          -0.4953454182
2.0180000000                     0.8618934697          -0.4976570622          -0.0000053337          -0.0000080284          -0.0000053337          -0.0000080284           0.8618934697          -0.4976570622
2.0184000000                     0.8604852879          -0.4999888355          -0.0000055542          -0.0000083051          -0.0000055542          -0.0000083051           0.8604852879          -0.4999888355
