# GHz S MA R 50

5.700000000000000e+00  1.000000e+00 -2.107578e+01  1.882073e-05  6.892422e+01  1.882073e-05  6.892422e+01  1.000000e+00 -2.107578e+01
5.702000000000000e+00  1.000000e+00 -2.151122e+01  2.083983e-05  6.848878e+01  2.083983e-05  6.848878e+01  1.000000e+00 -2.151122e+01
5.704000000000001e+00  1.000000e+00 -2.196491e+01  2.312365e-05  6.803509e+01  2.312365e-05  6.803509e+01  1.000000e+00 -2.196491e+01
5.706000000000000e+00  1.000000e+00 -2.243801e+01  2.571350e-05  6.756199e+01  2.571350e-05  6.756199e+01  1.000000e+00 -2.243801e+01
5.708000000000000e+00  1.000000e+00 -2.293180e+01  2.865822e-05  6.706820e+01  2.865822e-05  6.706820e+01  1.000000e+00 -2.293180e+01
5.710000000000000e+00  1.000000e+00 -2.344767e+01  3.201575e-05  6.655233e+01  3.201575e-05  6.655233e+01  1.000000e+00 -2.344767e+01
5.712000000000001e+00  1.000000e+00 -2.398714e+01  3.585508e-05  6.601286e+01  3.585508e-05  6.601286e+01  1.000000e+00 -2.398714e+01
5.714000000000000e+00  1.000000e+00 -2.455188e+01  4.025870e-05  6.544813e+01  4.025870e-05  6.544813e+01  1.000000e+00 -2.455188e+01
5.716000000000000e+00  1.000000e+00 -2.514369e+01  4.532560e-05  6.485631e+01  4.532560e-05  6.485631e+01  1.000000e+00 -2.514369e+01
5.718000000000000e+00  1.000000e+00 -2.576459e+01  5.117510e-05  6.423541e+01  5.117510e-05  6.423541e+01  1.000000e+00 -2.576459e+01
5.720000000000001e+00  1.000000e+00 -2.641678e+01  5.795169e-05  6.358322e+01  5.795169e-05  6.358322e+01  1.000000e+00 -2.641678e+01
5.722000000000000e+00  1.000000e+00 -2.710268e+01  6.583111e-05  6.289732e+01  6.583111e-05  6.289732e+01  1.000000e+00 -2.710268e+01
5.724000000000000e+00  1.000000e+00 -2.782501e+01  7.502820e-05  6.217499e+01  7.502820e-05  6.217499e+01  1.000000e+00 -2.782501e+01
5.726000000000000e+00  1.000000e+00 -2.858673e+01  8.580692e-05  6.141327e+01  8.580692e-05  6.141327e+01  1.000000e+00 -2.858673e+01
5.728000000000001e+00  1.000000e+00 -2.939118e+01  9.849337e-05  6.060882e+01  9.849337e-05  6.060882e+01  1.000000e+00 -2.939118e+01
5.730000000000000e+00  1.000000e+00 -3.024208e+01  1.134927e-04  5.975792e+01  1.134927e-04  5.975792e+01  1.000000e+00 -3.024208e+01
5.732000000000000e+00  1.000000e+00 -3.114357e+01  1.313115e-04  5.885643e+01  1.313115e-04  5.885643e+01  1.000000e+00 -3.114357e+01
5.734000000000000e+00  1.000000e+00 -3.210034e+01  1.525868e-04  5.789966e+01  1.525868e-04  5.789966e+01  1.000000e+00 -3.210034e+01
5.736000000000001e+00  1.000000e+00 -3.311764e+01  1.781256e-04  5.688236e+01  1.781256e-04  5.688236e+01  1.000000e+00 -3.311764e+01
5.738000000000000e+00  1.000000e+00 -3.420144e+01  2.089574e-04  5.579856e+01  2.089574e-04  5.579856e+01  1.000000e+00 -3.420144e+01
5.740000000000000e+00  1.000000e+00 -3.535851e+01  2.464055e-04  5.464149e+01  2.464055e-04  5.464149e+01  1.000000e+00 -3.535851e+01
5.742000000000000e+00  1.000000e+00 -3.659659e+01  2.921848e-04  5.340341e+01  2.921848e-04  5.340341e+01  1.000000e+00 -3.659659e+01
5.744000000000001e+00  9.999999e-01 -3.792454e+01  3.485371e-04  5.207546e+01  3.485371e-04  5.207546e+01  9.999999e-01 -3.792454e+01
5.746000000000000e+00  9.999999e-01 -3.935258e+01  4.184200e-04  5.064742e+01  4.184200e-04  5.064742e+01  9.999999e-01 -3.935258e+01
5.748000000000000e+00  9.999999e-01 -4.089256e+01  5.057751e-04  4.910744e+01  5.057751e-04  4.910744e+01  9.999999e-01 -4.089256e+01
5.750000000000000e+00  9.999998e-01 -4.255828e+01  6.159109e-04  4.744172e+01  6.159109e-04  4.744172e+01  9.999998e-01 -4.255828e+01
5.752000000000001e+00  9.999997e-01 -4.436593e+01  7.560603e-04  4.563407e+01  7.560603e-04  4.563407e+01  9.999997e-01 -4.436593e+01
5.754000000000000e+00  9.999996e-01 -4.633463e+01  9.362016e-04  4.366537e+01  9.362016e-04  4.366537e+01  9.999996e-01 -4.633463e+01
5.756000000000000e+00  9.999993e-01 -4.848714e+01  1.170287e-03  4.151286e+01  1.170287e-03  4.151286e+01  9.999993e-01 -4.848714e+01
5.758000000000000e+00  9.999989e-01 -5.085077e+01  1.478114e-03  3.914923e+01  1.478114e-03  3.914923e+01  9.999989e-01 -5.085077e+01
5.760000000000001e+00  9.999982e-01 -5.345860e+01  1.888230e-03  3.654140e+01  1.888230e-03  3.654140e+01  9.999982e-01 -5.345860e+01
5.762000000000001e+00  9.999970e-01 -5.635113e+01  2.442525e-03  3.364887e+01  2.442525e-03  3.364887e+01  9.999970e-01 -5.635113e+01
5.764000000000000e+00  9.999949e-01 -5.957850e+01  3.203679e-03  3.042150e+01  3.203679e-03  3.042150e+01  9.999949e-01 -5.957850e+01
5.766000000000000e+00  9.999909e-01 -6.320362e+01  4.267501e-03  2.679638e+01  4.267501e-03  2.679638e+01  9.999909e-01 -6.320362e+01
5.768000000000001e+00  9.999833e-01 -6.730665e+01  5.783983e-03  2.269335e+01  5.783983e-03  2.269335e+01  9.999833e-01 -6.730665e+01
5.770000000000001e+00  9.999680e-01 -7.199153e+01  7.994300e-03  1.800847e+01  7.994300e-03  1.800847e+01  9.999680e-01 -7.199153e+01
5.772000000000000e+00  9.999362e-01 -7.739592e+01  1.129808e-02  1.260408e+01  1.129808e-02  1.260408e+01  9.999362e-01 -7.739592e+01
5.774000000000000e+00  9.998658e-01 -8.370679e+01  1.638045e-02  6.293211e+00  1.638045e-02  6.293211e+00  9.998658e-01 -8.370679e+01
5.776000000000001e+00  9.997007e-01 -9.118620e+01  2.446254e-02 -1.186202e+00  2.446254e-02 -1.186202e+00  9.997007e-01 -9.118620e+01
5.778000000000001e+00  9.992846e-01 -1.002164e+02  3.781909e-02 -1.021637e+01  3.781909e-02 -1.021637e+01  9.992846e-01 -1.002164e+02
5.780000000000000e+00  9.981437e-01 -1.113842e+02  6.090317e-02 -2.138419e+01  6.090317e-02 -2.138419e+01  9.981437e-01 -1.113842e+02
5.782000000000000e+00  9.946920e-01 -1.256530e+02  1.028971e-01 -3.565299e+01  1.028971e-01 -3.565299e+01  9.946920e-01 -1.256530e+02
5.784000000000001e+00  9.830266e-01 -1.447325e+02  1.834630e-01 -5.473251e+01  1.834630e-01 -5.473251e+01  9.830266e-01 -1.447325e+02
5.786000000000001e+00  9.395862e-01 -1.718035e+02  3.423125e-01 -8.180351e+01  3.423125e-01 -8.180351e+01  9.395862e-01 -1.718035e+02
5.788000000000000e+00  7.852427e-01  1.484683e+02  6.191881e-01 -1.215317e+02  6.191881e-01 -1.215317e+02  7.852427e-01  1.484683e+02
5.790000000000000e+00  4.535105e-01  9.794846e+01  8.912509e-01 -1.720515e+02  8.912509e-01 -1.720515e+02  4.535105e-01  9.794846e+01
5.792000000000001e+00  1.641578e-01  5.071812e+01  9.864341e-01  1.407181e+02  9.864341e-01  1.407181e+02  1.641578e-01  5.071812e+01
5.794000000000001e+00  3.935566e-02  1.109451e+01  9.992253e-01  1.010945e+02  9.992253e-01  1.010945e+02  3.935566e-02  1.109451e+01
5.796000000000000e+00  5.163499e-03 -2.425709e+01  9.999867e-01  6.574289e+01  9.999867e-01  6.574289e+01  5.163499e-03 -2.425709e+01
5.798000000000000e+00  1.594888e-04 -5.761153e+01  1.000000e+00  3.238787e+01  1.000000e+00  3.238787e+01  1.594888e-04 -5.761153e+01
5.800000000000001e+00  1.697371e-09 -1.386597e-01  1.000000e+00 -1.396368e-01  1.000000e+00 -1.396368e-01  1.697371e-09 -1.375511e-01
5.802000000000001e+00  1.662268e-04  5.734024e+01  1.000000e+00 -3.265918e+01  1.000000e+00 -3.265918e+01  1.662268e-04  5.734024e+01
5.804000000000000e+00  5.257825e-03  2.401027e+01  9.999862e-01 -6.598971e+01  9.999862e-01 -6.598971e+01  5.257825e-03  2.401027e+01
5.806000000000000e+00  3.971865e-02 -1.129829e+01  9.992109e-01 -1.012983e+02  9.992109e-01 -1.012983e+02  3.971865e-02 -1.129829e+01
5.808000000000001e+00  1.647786e-01 -5.085133e+01  9.863306e-01 -1.408513e+02  9.863306e-01 -1.408513e+02  1.647786e-01 -5.085133e+01
5.810000000000001e+00  4.535105e-01 -9.794846e+01  8.912509e-01  1.720515e+02  8.912509e-01  1.720515e+02  4.535105e-01 -9.794846e+01
5.812000000000000e+00  7.842898e-01 -1.482909e+02  6.203947e-01  1.217091e+02  6.203947e-01  1.217091e+02  7.842898e-01 -1.482909e+02
5.814000000000000e+00  9.389322e-01  1.720735e+02  3.441023e-01  8.207346e+01  3.441023e-01  8.207346e+01  9.389322e-01  1.720735e+02
5.816000000000001e+00  9.827463e-01  1.450333e+02  1.849588e-01  5.503331e+01  1.849588e-01  5.503331e+01  9.827463e-01  1.450333e+02
5.818000000000001e+00  9.945778e-01  1.259676e+02  1.039950e-01  3.596759e+01  1.039950e-01  3.596759e+01  9.945778e-01  1.259676e+02
5.820000000000000e+00  9.980952e-01  1.117077e+02  6.169284e-02  2.170771e+01  6.169284e-02  2.170771e+01  9.980952e-01  1.117077e+02
5.822000000000000e+00  9.992628e-01  1.005466e+02  3.839162e-02  1.054656e+01  3.839162e-02  1.054656e+01  9.992628e-01  1.005466e+02
5.824000000000001e+00  9.996903e-01  9.152168e+01  2.488413e-02  1.521678e+00  2.488413e-02  1.521678e+00  9.996903e-01  9.152168e+01
5.826000000000001e+00  9.998606e-01  8.404651e+01  1.669621e-02 -5.953494e+00  1.669621e-02 -5.953494e+00  9.998606e-01  8.404651e+01
5.828000000000000e+00  9.999334e-01  7.773908e+01  1.153850e-02 -1.226092e+01  1.153850e-02 -1.226092e+01  9.999334e-01  7.773908e+01
5.830000000000000e+00  9.999665e-01  7.233752e+01  8.180197e-03 -1.766248e+01  8.180197e-03 -1.766248e+01  9.999665e-01  7.233752e+01
5.832000000000001e+00  9.999824e-01  6.765499e+01  5.929764e-03 -2.234501e+01  5.929764e-03 -2.234501e+01  9.999824e-01  6.765499e+01
5.834000000000001e+00  9.999904e-01  6.355393e+01  4.383306e-03 -2.644607e+01  4.383306e-03 -2.644607e+01  9.999904e-01  6.355393e+01
5.836000000000000e+00  9.999946e-01  5.993046e+01  3.296760e-03 -3.006954e+01  3.296760e-03 -3.006954e+01  9.999946e-01  5.993046e+01
5.838000000000000e+00  9.999968e-01  5.670451e+01  2.518147e-03 -3.329549e+01  2.518147e-03 -3.329549e+01  9.999968e-01  5.670451e+01
5.840000000000001e+00  9.999981e-01  5.381319e+01  1.950271e-03 -3.618681e+01  1.950271e-03 -3.618681e+01  9.999981e-01  5.381319e+01
5.842000000000001e+00  9.999988e-01  5.120640e+01  1.529472e-03 -3.879360e+01  1.529472e-03 -3.879360e+01  9.999988e-01  5.120640e+01
5.844000000000000e+00  9.999993e-01  4.884368e+01  1.213152e-03 -4.115632e+01  1.213152e-03 -4.115632e+01  9.999993e-01  4.884368e+01
5.846000000000000e+00  9.999995e-01  4.669197e+01  9.722503e-04 -4.330803e+01  9.722503e-04 -4.330803e+01  9.999995e-01  4.669197e+01
5.848000000000001e+00  9.999997e-01  4.472397e+01  7.865892e-04 -4.527603e+01  7.865892e-04 -4.527603e+01  9.999997e-01  4.472397e+01
5.850000000000001e+00  9.999998e-01  4.291693e+01  6.419327e-04 -4.708307e+01  6.419327e-04 -4.708307e+01  9.999998e-01  4.291693e+01
5.852000000000000e+00  9.999999e-01  4.125176e+01  5.280885e-04 -4.874824e+01  5.280885e-04 -4.874824e+01  9.999999e-01  4.125176e+01
5.854000000000000e+00  9.999999e-01  3.971227e+01  4.376604e-04 -5.028773e+01  4.376604e-04 -5.028773e+01  9.999999e-01  3.971227e+01
5.856000000000001e+00  9.999999e-01  3.828466e+01  3.652140e-04 -5.171534e+01  3.652140e-04 -5.171534e+01  9.999999e-01  3.828466e+01
5.858000000000001e+00  1.000000e+00  3.695710e+01  3.067101e-04 -5.304290e+01  3.067101e-04 -5.304290e+01  1.000000e+00  3.695710e+01
5.860000000000000e+00  1.000000e+00  3.571938e+01  2.591143e-04 -5.428062e+01  2.591143e-04 -5.428062e+01  1.000000e+00  3.571938e+01
5.862000000000000e+00  1.000000e+00  3.456263e+01  2.201242e-04 -5.543737e+01  2.201242e-04 -5.543737e+01  1.000000e+00  3.456263e+01
5.864000000000001e+00  1.000000e+00  3.347912e+01  1.879768e-04 -5.652088e+01  1.879768e-04 -5.652088e+01  1.000000e+00  3.347912e+01
5.866000000000001e+00  1.000000e+00  3.246209e+01  1.613100e-04 -5.753791e+01  1.613100e-04 -5.753791e+01  1.000000e+00  3.246209e+01
5.868000000000000e+00  1.000000e+00  3.150557e+01  1.390634e-04 -5.849443e+01  1.390634e-04 -5.849443e+01  1.000000e+00  3.150557e+01
5.870000000000000e+00  1.000000e+00  3.060430e+01  1.204045e-04 -5.939570e+01  1.204045e-04 -5.939570e+01  1.000000e+00  3.060430e+01
5.872000000000001e+00  1.000000e+00  2.975361e+01  1.046756e-04 -6.024639e+01  1.046756e-04 -6.024639e+01  1.000000e+00  2.975361e+01
5.874000000000001e+00  1.000000e+00  2.894934e+01  9.135324e-05 -6.105066e+01  9.135324e-05 -6.105066e+01  1.000000e+00  2.894934e+01
5.876000000000000e+00  1.000000e+00  2.818779e+01  8.001815e-05 -6.181221e+01  8.001815e-05 -6.181221e+01  1.000000e+00  2.818779e+01
5.878000000000000e+00  1.000000e+00  2.746563e+01  7.033262e-05 -6.253437e+01  7.033262e-05 -6.253437e+01  1.000000e+00  2.746563e+01
5.880000000000001e+00  1.000000e+00  2.677987e+01  6.202300e-05 -6.322013e+01  6.202300e-05 -6.322013e+01  1.000000e+00  2.677987e+01
5.882000000000001e+00  1.000000e+00  2.612782e+01  5.486632e-05 -6.387218e+01  5.486632e-05 -6.387218e+01  1.000000e+00  2.612782e+01
5.884000000000000e+00  1.000000e+00  2.550705e+01  4.868000e-05 -6.449295e+01  4.868000e-05 -6.449295e+01  1.000000e+00  2.550705e+01
5.886000000000000e+00  1.000000e+00  2.491535e+01  4.331379e-05 -6.508465e+01  4.331379e-05 -6.508465e+01  1.000000e+00  2.491535e+01
5.888000000000001e+00  1.000000e+00  2.435073e+01  3.864347e-05 -6.564927e+01  3.864347e-05 -6.564927e+01  1.000000e+00  2.435073e+01
5.890000000000001e+00  1.000000e+00  2.381137e+01  3.456588e-05 -6.618863e+01  3.456588e-05 -6.618863e+01  1.000000e+00  2.381137e+01
5.892000000000000e+00  1.000000e+00  2.329559e+01  3.099498e-05 -6.670441e+01  3.099498e-05 -6.670441e+01  1.000000e+00  2.329559e+01
5.894000000000000e+00  1.000000e+00  2.280189e+01  2.785871e-05 -6.719811e+01  2.785871e-05 -6.719811e+01  1.000000e+00  2.280189e+01
5.896000000000001e+00  1.000000e+00  2.232888e+01  2.509653e-05 -6.767112e+01  2.509653e-05 -6.767112e+01  1.000000e+00  2.232888e+01
5.898000000000001e+00  1.000000e+00  2.187527e+01  2.265732e-05 -6.812472e+01  2.265732e-05 -6.812472e+01  1.000000e+00  2.187527e+01
5.900000000000000e+00  1.000000e+00  2.143990e+01  2.049783e-05 -6.856009e+01  2.049783e-05 -6.856009e+01  1.000000e+00  2.143990e+01
